# Hz S  RI   R 50
10000000 1.806352e-001 -2.087463e-002 1.295226e-001 2.970069e-003 5.439426e-002 -9.235704e-001 -1.136483e-002 2.766331e-002
1.295388e-001 2.949919e-003 1.835148e-001 -2.107189e-002 -1.163630e-002 2.855993e-002 5.339709e-002 -9.212000e-001
5.390621e-002 -9.237352e-001 -1.135927e-002 2.772346e-002 1.818835e-001 -2.193505e-002 1.298830e-001 5.061589e-003
-1.153945e-002 2.850198e-002 5.285941e-002 -9.210742e-001 1.298538e-001 5.080749e-003 1.844098e-001 -2.211241e-002
22493750 2.801911e-002 3.357549e-002 1.955895e-002 3.137992e-002 -9.007971e-001 2.270817e-001 1.356999e-002 3.036134e-002
1.977391e-002 3.163841e-002 2.883327e-002 3.420200e-002 1.375701e-002 3.068022e-002 -8.996692e-001 2.287014e-001
-9.005648e-001 2.273859e-001 1.359617e-002 3.037475e-002 2.728927e-002 3.333819e-002 1.987038e-002 3.149432e-002
1.376767e-002 3.058684e-002 -8.988674e-001 2.300198e-001 2.002733e-002 3.171810e-002 2.999933e-002 3.405975e-002
34987500 1.205836e-001 -7.931227e-002 9.551378e-002 -5.388278e-002 4.477848e-001 7.808628e-001 1.816838e-002 -3.381577e-002
9.557332e-002 -5.379306e-002 1.247613e-001 -8.060081e-002 1.781179e-002 -3.464840e-002 4.504612e-001 7.789102e-001
4.484578e-001 7.805885e-001 1.814976e-002 -3.413508e-002 1.246199e-001 -7.687326e-002 9.794807e-002 -5.185325e-002
1.760773e-002 -3.442422e-002 4.521563e-001 7.772550e-001 9.791263e-002 -5.196149e-002 1.271411e-001 -7.879631e-002
47481250 1.044035e-001 5.361916e-002 8.516744e-002 5.259737e-002 6.022007e-001 -6.565355e-001 -5.920760e-002 -3.170007e-002
8.567280e-002 5.287563e-002 1.085004e-001 5.510788e-002 -6.013257e-002 -3.192837e-002 5.980454e-001 -6.609546e-001
6.015879e-001 -6.573019e-001 -5.937707e-002 -3.162835e-002 1.046334e-001 5.388558e-002 8.634707e-002 5.233767e-002
-5.998027e-002 -3.171796e-002 5.951721e-001 -6.625067e-001 8.688337e-002 5.250999e-002 1.084766e-001 5.557491e-002
59975000 4.889276e-002 -6.511195e-002 3.625444e-002 -4.432381e-002 -7.884091e-001 -4.039936e-001 -1.844027e-002 6.223102e-002
3.614935e-002 -4.410684e-002 4.894338e-002 -6.768091e-002 -1.834626e-002 6.230984e-002 -7.921247e-001 -3.982611e-001
-7.890763e-001 -4.031331e-001 -1.835820e-002 6.229207e-002 5.033048e-002 -6.726353e-002 3.636882e-002 -4.505132e-002
-1.814541e-002 6.226597e-002 -7.935449e-001 -3.938950e-001 3.611423e-002 -4.490972e-002 5.275558e-002 -6.828551e-002
72468750 1.545412e-001 -3.149317e-005 1.288230e-001 2.343133e-003 -1.535730e-001 8.486813e-001 8.877157e-002 -8.512758e-003
1.292694e-001 2.644792e-003 1.571067e-001 -2.162965e-003 8.945425e-002 -8.994106e-003 -1.451981e-001 8.509367e-001
-1.525110e-001 8.490026e-001 8.889356e-002 -9.074153e-003 1.554779e-001 -1.004326e-003 1.287932e-001 4.444502e-003
8.924909e-002 -9.369397e-003 -1.391476e-001 8.514623e-001 1.290562e-001 4.035346e-003 1.581547e-001 -1.527475e-003
84962500 3.670707e-002 -2.258025e-003 2.815926e-002 1.226917e-002 8.612372e-001 -9.063142e-002 -2.154800e-002 -9.764110e-002
2.801501e-002 1.315910e-002 3.497631e-002 -2.889328e-003 -2.103546e-002 -9.841207e-002 8.617526e-001 -1.004092e-001
8.611891e-001 -9.226866e-002 -2.195484e-002 -9.779875e-002 3.058030e-002 -1.855829e-003 2.512609e-002 1.364021e-002
-2.176425e-002 -9.795407e-002 8.604281e-001 -1.086885e-001 2.513994e-002 1.423088e-002 3.315892e-002 -2.491055e-003
97456250 1.330921e-001 -7.300248e-002 1.051983e-001 -5.767327e-002 -3.121678e-001 -7.846913e-001 -8.793743e-002 6.053401e-002
1.058744e-001 -5.722970e-002 1.325998e-001 -7.614292e-002 -8.839658e-002 6.074468e-002 -3.226133e-001 -7.822254e-001
-3.141614e-001 -7.843360e-001 -8.762107e-002 6.121283e-002 1.352239e-001 -6.582497e-002 1.082772e-001 -5.177761e-002
-8.768371e-002 6.132669e-002 -3.317783e-001 -7.780636e-001 1.081121e-001 -5.204812e-002 1.366744e-001 -6.782175e-002
109950000 8.955976e-002 2.789831e-002 7.969998e-002 3.806898e-002 -6.553185e-001 5.239386e-001 9.541577e-002 8.878634e-002
8.004218e-002 3.960648e-002 9.069280e-002 3.309901e-002 9.557550e-002 9.043002e-002 -6.487474e-001 5.358356e-001
-6.538596e-001 5.262686e-001 9.633146e-002 8.851385e-002 8.453911e-002 3.143982e-002 7.812499e-002 4.094557e-002
9.613659e-002 8.892242e-002 -6.410204e-001 5.440994e-001 7.875006e-002 4.145173e-002 9.073465e-002 3.143044e-002
122443750 6.475464e-002 -8.347719e-002 4.807484e-002 -6.226842e-002 6.738121e-001 4.904756e-001 6.160951e-002 -1.141853e-001
4.844316e-002 -6.184488e-002 7.401161e-002 -8.508739e-002 6.235875e-002 -1.153938e-001 6.835933e-001 4.805816e-001
6.755872e-001 4.879562e-001 6.048447e-002 -1.160067e-001 7.449295e-002 -7.471486e-002 5.100851e-002 -5.865438e-002
6.120045e-002 -1.143886e-001 6.900198e-001 4.693860e-001 5.052455e-002 -5.864272e-002 7.132233e-002 -8.847971e-002
134937500 1.413142e-001 -2.357688e-003 1.258305e-001 -2.234117e-003 2.707496e-001 -7.674134e-001 -1.499860e-001 -2.422005e-002
1.269172e-001 -4.077200e-004 1.382433e-001 -1.199451e-002 -1.501833e-001 -2.520660e-002 2.569232e-001 -7.762705e-001
2.675607e-001 -7.683743e-001 -1.496746e-001 -2.233568e-002 1.424208e-001 -5.676233e-003 1.240496e-001 6.134282e-003
-1.506385e-001 -2.366046e-002 2.424904e-001 -7.798551e-001 1.247661e-001 6.241853e-003 1.368158e-001 -2.468195e-003
147431250 3.921626e-002 -3.457183e-002 2.305866e-002 -1.013495e-002 -8.156980e-001 -4.961139e-002 5.879984e-003 1.604777e-001
2.278756e-002 -9.111544e-003 3.773774e-002 -3.681264e-002 4.128572e-003 1.617025e-001 -8.200907e-001 -3.174495e-002
-8.162458e-001 -4.491561e-002 8.118132e-003 1.610211e-001 4.037730e-002 -3.429183e-002 2.879503e-002 -7.126554e-003
6.019230e-003 1.606827e-001 -8.202812e-001 -1.505548e-002 2.852717e-002 -6.344542e-003 3.863911e-002 -3.806732e-002
159925000 1.386204e-001 -7.139568e-002 1.176221e-001 -6.161818e-002 1.669617e-001 7.787488e-001 1.548341e-001 -6.354760e-002
1.195785e-001 -5.977586e-002 1.329750e-001 -7.566971e-002 1.566166e-001 -6.193195e-002 1.867377e-001 7.780113e-001
1.711856e-001 7.782373e-001 1.543189e-001 -6.573103e-002 1.371468e-001 -6.452315e-002 1.209154e-001 -5.364311e-002
1.551116e-001 -6.424356e-002 2.049792e-001 7.731399e-001 1.214627e-001 -5.375890e-002 1.352951e-001 -6.441077e-002
172418750 7.355183e-002 -2.058662e-003 6.674365e-002 2.257956e-002 6.960044e-001 -3.841803e-001 -1.089086e-001 -1.541472e-001
6.651629e-002 2.527530e-002 7.323017e-002 -1.914328e-003 -1.074407e-001 -1.571067e-001 6.887871e-001 -4.039650e-001
6.934005e-001 -3.888230e-001 -1.120917e-001 -1.528516e-001 6.636795e-002 6.404985e-003 6.438957e-002 3.060371e-002
-1.093108e-001 -1.545465e-001 6.776013e-001 -4.219400e-001 6.472344e-002 3.181741e-002 6.558845e-002 5.719265e-003
184912500 7.265636e-002 -1.006904e-001 5.925041e-002 -8.394330e-002 -5.457575e-001 -5.657263e-001 -1.160501e-001 1.465623e-001
6.101522e-002 -8.319946e-002 6.998147e-002 -1.020314e-001 -1.193034e-001 1.460275e-001 -5.641602e-001 -5.515434e-001
-5.496067e-001 -5.620690e-001 -1.142686e-001 1.492364e-001 8.678367e-002 -8.306836e-002 7.294261e-002 -7.466737e-002
-1.159671e-001 1.469573e-001 -5.784693e-001 -5.361473e-001 7.293968e-002 -7.465672e-002 8.686368e-002 -8.875511e-002
197406250 1.199713e-001 -1.890116e-002 1.169290e-001 -3.067667e-003 -3.764805e-001 6.728928e-001 1.957025e-001 7.588329e-002
1.182856e-001 7.895494e-004 1.213464e-001 -2.099345e-002 1.962071e-001 7.947352e-002 -3.564243e-001 6.875462e-001
-3.720071e-001 6.750971e-001 1.978080e-001 7.213797e-002 1.191255e-001 -6.424405e-003 1.187381e-001 8.241570e-003
1.963112e-001 7.611307e-002 -3.366051e-001 6.967360e-001 1.197659e-001 9.371194e-003 1.197322e-001 -9.124650e-003
209900000 2.957626e-002 -5.892828e-002 1.839683e-002 -4.084593e-002 7.521424e-001 1.824502e-001 3.047659e-002 -2.121306e-001
1.864699e-002 -4.025675e-002 2.877716e-002 -6.000102e-002 3.411310e-002 -2.133230e-001 7.607568e-001 1.564489e-001
7.532260e-001 1.769388e-001 2.625803e-002 -2.138666e-001 4.749728e-002 -5.425319e-002 3.525118e-002 -3.931862e-002
3.091658e-002 -2.122644e-001 7.645050e-001 1.352345e-001 3.483428e-002 -3.874543e-002 4.611468e-002 -6.092231e-002
222393750 1.293922e-001 -7.733249e-002 1.225396e-001 -6.275609e-002 -2.861259e-002 -7.510720e-001 -2.207400e-001 4.366929e-002
1.257422e-001 -5.932113e-002 1.262161e-001 -8.383312e-002 -2.227388e-001 4.023981e-002 -5.619283e-002 -7.521377e-001
-3.401558e-002 -7.505511e-001 -2.199574e-001 4.877458e-002 1.344839e-001 -5.883060e-002 1.330613e-001 -5.292712e-002
-2.212918e-001 4.375746e-002 -8.092041e-002 -7.494636e-001 1.342588e-001 -5.253846e-002 1.341260e-001 -6.139959e-002
234887500 4.668902e-002 -1.563819e-002 4.381824e-002 6.966668e-003 -7.141740e-001 2.422665e-001 9.907504e-002 2.207643e-001
4.317618e-002 9.442628e-003 4.871648e-002 -1.393738e-002 9.571258e-002 2.244190e-001 -7.062700e-001 2.713239e-001
-7.119825e-001 2.478021e-001 1.048194e-001 2.192929e-001 6.102945e-002 -1.942908e-002 5.207969e-002 2.278062e-003
9.861838e-002 2.214281e-001 -6.966465e-001 2.939393e-001 5.180717e-002 3.997630e-003 6.164909e-002 -2.108236e-002
247381250 8.137343e-002 -1.084673e-001 7.371109e-002 -9.685987e-002 4.116005e-001 6.150748e-001 1.802630e-001 -1.606500e-001
7.730533e-002 -9.535211e-002 7.682947e-002 -1.187285e-001 1.843613e-001 -1.572259e-001 4.379452e-001 5.987053e-001
4.165570e-001 6.121193e-001 1.769109e-001 -1.646277e-001 9.077044e-002 -9.855150e-002 8.693556e-002 -9.279564e-002
1.808283e-001 -1.605888e-001 4.572040e-001 5.835543e-001 8.780185e-002 -9.284766e-002 9.820302e-002 -1.026460e-001
259875000 9.925106e-002 -2.546035e-002 1.046783e-001 1.197878e-003 4.616091e-001 -5.645718e-001 -2.230521e-001 -1.414940e-001
1.053476e-001 6.078232e-003 9.888126e-002 -2.817862e-002 -2.217733e-001 -1.475185e-001 4.372967e-001 -5.863246e-001
4.570521e-001 -5.683836e-001 -2.273547e-001 -1.367724e-001 1.003585e-001 -1.891297e-002 1.065782e-001 6.599080e-003
-2.230818e-001 -1.426401e-001 4.169422e-001 -6.003360e-001 1.073602e-001 8.650120e-003 1.029687e-001 -2.657532e-002
272368750 2.808340e-002 -8.960812e-002 2.301847e-002 -7.501129e-002 -6.650485e-001 -2.980820e-001 -8.139701e-002 2.506062e-001
2.510443e-002 -7.464871e-002 2.200518e-002 -8.937494e-002 -8.775638e-002 2.501978e-001 -6.801846e-001 -2.669527e-001
-6.675086e-001 -2.930116e-001 -7.617936e-002 2.532074e-001 4.356387e-002 -8.398483e-002 3.913106e-002 -7.601539e-002
-8.258384e-002 2.505568e-001 -6.884868e-001 -2.436233e-001 3.917063e-002 -7.594195e-002 4.616082e-002 -8.816637e-002
284862500 1.180939e-001 -8.003746e-002 1.281471e-001 -5.813775e-002 -9.682117e-002 7.004624e-001 2.786335e-001 -2.377234e-003
1.316621e-001 -5.308298e-002 1.206339e-001 -8.373804e-002 2.809888e-001 3.461101e-003 -6.183273e-002 7.058381e-001
-9.164963e-002 7.010584e-001 2.796938e-001 -9.557673e-003 1.230996e-001 -6.339778e-002 1.372973e-001 -4.972383e-002
2.794090e-001 -1.101607e-003 -3.761426e-002 7.072373e-001 1.391211e-001 -4.832655e-002 1.263799e-001 -7.119645e-002
297356250 2.287128e-002 -4.736946e-002 2.497581e-002 -2.276179e-002 7.051307e-001 -1.014882e-001 -6.769966e-002 -2.809615e-001
2.494092e-002 -2.128705e-002 2.622424e-002 -4.300413e-002 -6.197401e-002 -2.845525e-001 7.002749e-001 -1.382807e-001
7.040084e-001 -1.067566e-001 -7.557951e-002 -2.804293e-001 4.264586e-002 -4.794991e-002 3.206505e-002 -2.844720e-002
-6.617127e-002 -2.816994e-001 6.945735e-001 -1.631095e-001 3.147203e-002 -2.735569e-002 4.144812e-002 -4.960493e-002
309850000 7.772827e-002 -1.213394e-001 9.037572e-002 -1.118959e-001 -2.752886e-001 -6.358306e-001 -2.477579e-001 1.528257e-001
9.600735e-002 -1.090247e-001 7.568676e-002 -1.303907e-001 -2.525451e-001 1.481286e-001 -3.096700e-001 -6.209890e-001
-2.797562e-001 -6.335592e-001 -2.442907e-001 1.595711e-001 9.432304e-002 -1.102210e-001 1.089992e-001 -1.018382e-001
-2.491589e-001 1.518400e-001 -3.314350e-001 -6.092074e-001 1.108766e-001 -1.013424e-001 9.662093e-002 -1.155815e-001
322343750 6.814263e-002 -2.807641e-002 7.684298e-002 -4.905262e-003 -5.246475e-001 4.455545e-001 2.265332e-001 2.149488e-001
7.705050e-002 -4.777227e-004 7.593762e-002 -3.339503e-002 2.232762e-001 2.214701e-001 -4.992864e-001 4.759855e-001
-5.211540e-001 4.490156e-001 2.331632e-001 2.093653e-001 8.189262e-002 -3.523674e-002 8.167335e-002 -8.652497e-003
2.253420e-001 2.171221e-001 -4.818393e-001 4.929348e-001 8.207323e-002 -6.433848e-003 8.011862e-002 -3.748734e-002
334837500 2.497397e-002 -1.217637e-001 2.922687e-002 -1.096079e-001 5.588670e-001 3.905601e-001 1.432127e-001 -2.719632e-001
3.357306e-002 -1.095402e-001 1.997263e-002 -1.241181e-001 1.505120e-001 -2.702354e-001 5.831551e-001 3.566647e-001
5.613747e-001 3.864645e-001 1.370828e-001 -2.763646e-001 4.709253e-002 -1.163004e-001 4.825254e-002 -1.111686e-001
1.454914e-001 -2.712321e-001 5.946346e-001 3.366097e-001 4.952028e-002 -1.113227e-001 4.353761e-002 -1.205394e-001
347331250 9.784960e-002 -7.132853e-002 1.182096e-001 -4.722808e-002 2.069991e-001 -6.316476e-001 -3.221360e-001 -6.109825e-002
1.211478e-001 -4.182748e-002 9.756492e-002 -8.508930e-002 -3.223514e-001 -6.793096e-002 1.664783e-001 -6.457161e-001
2.028007e-001 -6.327356e-001 -3.241187e-001 -5.272424e-002 1.072668e-001 -7.307692e-002 1.242775e-001 -4.208384e-002
-3.223136e-001 -6.384304e-002 1.453897e-001 -6.503672e-001 1.258775e-001 -3.982549e-002 1.007080e-001 -7.429356e-002
359825000 3.508516e-003 -7.010347e-002 9.573730e-003 -5.981052e-002 -6.673911e-001 -3.124008e-002 1.803942e-002 3.316356e-001
1.107859e-002 -5.961176e-002 2.772576e-003 -6.424988e-002 1.009265e-002 3.339076e-001 -6.701569e-001 1.399867e-002
-6.675803e-001 -2.646690e-002 2.618839e-002 3.323198e-001 2.163767e-002 -7.144249e-002 2.298457e-002 -6.666684e-002
1.548961e-002 3.320507e-001 -6.689496e-001 3.702742e-002 2.297713e-002 -6.638746e-002 1.954624e-002 -6.980793e-002
372318750 8.512430e-002 -1.313069e-001 9.927630e-002 -1.135452e-001 1.438826e-001 6.291204e-001 3.147917e-001 -1.230994e-001
1.051762e-001 -1.098550e-001 7.645987e-002 -1.367913e-001 3.192453e-001 -1.169935e-001 1.891577e-001 6.195861e-001
1.474453e-001 6.281566e-001 3.125633e-001 -1.313321e-001 1.015311e-001 -1.164188e-001 1.179742e-001 -1.055396e-001
3.163572e-001 -1.206646e-001 2.086904e-001 6.128102e-001 1.204479e-001 -1.042935e-001 9.198099e-002 -1.205122e-001
384812500 3.581604e-002 -3.771893e-002 4.374090e-002 -2.005802e-002 5.629929e-001 -3.190318e-001 -2.055755e-001 -2.897497e-001
4.381441e-002 -1.740572e-002 4.555113e-002 -3.639352e-002 -2.008971e-001 -2.954656e-001 5.388719e-001 -3.618579e-001
5.610237e-001 -3.221828e-001 -2.137709e-001 -2.850852e-001 5.614313e-002 -4.926348e-002 5.284541e-002 -3.136316e-002
-2.031850e-001 -2.919365e-001 5.265905e-001 -3.787678e-001 5.279842e-002 -2.970867e-002 5.271020e-002 -4.610270e-002
397306250 2.922443e-002 -1.427859e-001 4.184299e-002 -1.318806e-001 -4.418491e-001 -4.546625e-001 -2.155884e-001 2.763815e-001
4.764372e-002 -1.312121e-001 1.826413e-002 -1.439678e-001 -2.223258e-001 2.727948e-001 -4.778605e-001 -4.201628e-001
-4.441561e-001 -4.522837e-001 -2.090379e-001 2.820242e-001 4.802421e-002 -1.380465e-001 6.154040e-002 -1.335782e-001
-2.184296e-001 2.747668e-001 -4.908866e-001 -4.044035e-001 6.356997e-002 -1.337800e-001 3.953815e-002 -1.368796e-001
409800000 8.752534e-002 -6.721878e-002 9.588005e-002 -4.447843e-002 -2.987843e-001 5.450641e-001 3.462010e-001 1.375094e-001
9.814337e-002 -3.965713e-002 9.183800e-002 -7.258294e-002 3.453702e-001 1.453328e-001 -2.533441e-001 5.695868e-001
-2.960415e-001 5.462993e-001 3.504301e-001 1.293522e-001 9.304746e-002 -6.660850e-002 1.034820e-001 -4.741697e-002
3.454145e-001 1.412228e-001 -2.356219e-001 5.764557e-001 1.046002e-001 -4.497870e-002 9.195795e-002 -7.198809e-002
422293750 -1.293858e-002 -1.070919e-001 -9.915438e-004 -9.565493e-002 6.042328e-001 1.492040e-001 4.711868e-002 -3.668788e-001
2.032693e-003 -9.653789e-002 -1.712440e-002 -9.926358e-002 5.411030e-002 -3.675603e-001 6.172765e-001 9.595697e-002
6.050828e-001 1.464518e-001 3.844356e-002 -3.688033e-001 8.041117e-003 -1.059471e-001 1.454693e-002 -1.050802e-001
5.059487e-002 -3.668862e-001 6.195870e-001 7.806195e-002 1.524725e-002 -1.055377e-001 1.572683e-003 -1.031370e-001
434787500 8.357556e-002 -1.333825e-001 1.020916e-001 -1.066322e-001 -2.419127e-002 -5.983541e-001 -3.752304e-001 7.146538e-002
1.072574e-001 -1.025938e-001 8.105818e-002 -1.380339e-001 -3.787480e-001 6.534789e-002 -7.865704e-002 -5.953376e-001
-2.662724e-002 -5.981722e-001 -3.747012e-001 8.057426e-002 9.364744e-002 -1.173008e-001 1.170238e-001 -1.060913e-001
-3.766905e-001 6.804833e-002 -9.522733e-002 -5.925180e-001 1.195470e-001 -1.044815e-001 8.825660e-002 -1.278626e-001
447281250 7.673361e-004 -5.767879e-002 1.149682e-002 -4.780736e-002 -5.734689e-001 1.911069e-001 1.623577e-001 3.580092e-001
1.241331e-002 -4.715771e-002 5.733643e-003 -5.181903e-002 1.573292e-001 3.618691e-001 -5.540407e-001 2.460212e-001
-5.726843e-001 1.934716e-001 1.713594e-001 3.545828e-001 1.936984e-002 -6.395386e-002 2.194259e-002 -6.133706e-002
1.590304e-001 3.599834e-001 -5.468753e-001 2.607151e-001 2.197598e-002 -6.087298e-002 1.759899e-002 -6.282987e-002
459775000 3.399392e-002 -1.626087e-001 5.280038e-002 -1.467803e-001 3.202712e-001 4.885188e-001 2.905062e-001 -2.613818e-001
5.892575e-002 -1.455770e-001 2.048514e-002 -1.659868e-001 2.952027e-001 -2.576002e-001 3.681571e-001 4.561571e-001
3.218422e-001 4.874860e-001 2.842475e-001 -2.683405e-001 4.680646e-002 -1.539723e-001 6.916936e-002 -1.506751e-001
2.935034e-001 -2.590665e-001 3.798800e-001 4.459508e-001 7.175256e-002 -1.505772e-001 3.884613e-002 -1.568351e-001
472268750 5.808510e-002 -6.310833e-002 6.412596e-002 -4.680140e-002 3.685649e-001 -4.462673e-001 -3.470472e-001 -2.228466e-001
6.544327e-002 -4.362361e-002 6.256235e-002 -6.241396e-002 -3.444250e-001 -2.297746e-001 3.209723e-001 -4.828119e-001
3.671491e-001 -4.473007e-001 -3.526140e-001 -2.153422e-001 6.061902e-002 -6.346915e-002 7.105770e-002 -5.455590e-002
-3.451999e-001 -2.270638e-001 3.078367e-001 -4.908658e-001 7.173668e-002 -5.281863e-002 6.750118e-002 -6.952518e-002
484762500 -2.289350e-002 -1.377587e-001 -5.840157e-003 -1.313202e-001 -5.183471e-001 -2.439417e-001 -1.204435e-001 3.864832e-001
-1.042666e-003 -1.325852e-001 -3.779447e-002 -1.320920e-001 -1.266352e-001 3.852588e-001 -5.433156e-001 -1.879059e-001
-5.188659e-001 -2.427286e-001 -1.116794e-001 3.890052e-001 -7.131712e-003 -1.369119e-001 1.355907e-002 -1.410246e-001
-1.245554e-001 3.859160e-001 -5.475322e-001 -1.740685e-001 1.502623e-002 -1.416757e-001 -1.144731e-002 -1.339093e-001
497256250 7.913084e-002 -1.167935e-001 8.698680e-002 -9.944863e-002 -8.106084e-002 5.463524e-001 4.222987e-001 -8.865865e-004
9.084871e-002 -9.578219e-002 7.621125e-002 -1.265054e-001 4.234331e-001 5.076404e-003 -2.007350e-002 5.527669e-001
-8.008841e-002 5.464564e-001 4.223691e-001 -1.032053e-002 7.972220e-002 -1.132694e-001 9.705612e-002 -1.062015e-001
4.231821e-001 3.690157e-003 -7.019201e-003 5.527365e-001 9.910104e-002 -1.044910e-001 7.985836e-002 -1.232460e-001
509750000 -2.895565e-002 -8.307475e-002 -1.828560e-002 -7.942407e-002 5.538278e-001 -6.742496e-002 -1.024224e-001 -4.130431e-001
-1.627158e-002 -8.068246e-002 -3.757635e-002 -6.587462e-002 -9.580460e-002 -4.148852e-001 5.441298e-001 -1.325982e-001
5.537025e-001 -6.836501e-002 -1.098667e-001 -4.106218e-001 -2.169875e-002 -9.102529e-002 -3.480383e-003 -9.671867e-002
-9.831881e-002 -4.146204e-001 5.404925e-001 -1.446787e-001 -3.041827e-003 -9.692669e-002 -1.372220e-002 -8.325456e-002
522243750 4.419743e-002 -1.721223e-001 5.302624e-002 -1.516999e-001 -2.015511e-001 -4.934782e-001 -3.626960e-001 2.260165e-001
5.892996e-002 -1.503117e-001 2.924549e-002 -1.696937e-001 -3.672270e-001 2.221590e-001 -2.598849e-001 -4.677556e-001
-2.019877e-001 -4.932075e-001 -3.588629e-001 2.337167e-001 4.912760e-002 -1.624760e-001 6.339979e-002 -1.593024e-001
-3.657559e-001 2.227005e-001 -2.698893e-001 -4.616425e-001 6.586130e-002 -1.589745e-001 3.415420e-002 -1.700409e-001
