# Hz S  RI   R 50
10000000 1.889779e-001 -1.857132e-002 1.317286e-001 5.033791e-003 5.765084e-002 -9.202545e-001 -1.306833e-002 2.873220e-002
1.321348e-001 5.164468e-003 1.957355e-001 -1.656836e-002 -1.333692e-002 2.999558e-002 5.607533e-002 -9.211491e-001
5.720847e-002 -9.200020e-001 -1.324664e-002 3.014430e-002 1.940223e-001 -2.226485e-002 1.309361e-001 3.549633e-003
-1.295696e-002 2.878901e-002 5.597301e-002 -9.212661e-001 1.307569e-001 3.534661e-003 1.903367e-001 -2.332530e-002
22493750 3.169904e-002 3.073581e-002 1.995909e-002 3.149648e-002 -9.036820e-001 2.189165e-001 1.361280e-002 3.220535e-002
1.980782e-002 3.125724e-002 2.776515e-002 3.572559e-002 1.373640e-002 3.260660e-002 -9.019012e-001 2.218736e-001
-9.019788e-001 2.187381e-001 1.375405e-002 3.255787e-002 2.382511e-002 3.372965e-002 1.908635e-002 3.136220e-002
1.358004e-002 3.216805e-002 -9.024417e-001 2.234899e-001 1.918675e-002 3.151585e-002 2.968601e-002 3.419416e-002
34987500 1.289055e-001 -7.962324e-002 9.931671e-002 -5.204106e-002 4.380100e-001 7.853127e-001 2.187494e-002 -3.668959e-002
9.966235e-002 -5.171971e-002 1.360257e-001 -8.305933e-002 2.108690e-002 -3.786681e-002 4.411447e-001 7.829146e-001
4.381181e-001 7.838951e-001 2.092692e-002 -3.789563e-002 1.337701e-001 -8.060789e-002 9.639371e-002 -5.317257e-002
2.187997e-002 -3.678254e-002 4.432666e-001 7.825333e-001 9.631967e-002 -5.325699e-002 1.301286e-001 -8.053306e-002
47481250 1.087462e-001 6.035007e-002 8.878223e-002 5.681900e-002 6.114890e-001 -6.486195e-001 -6.381117e-002 -3.638234e-002
8.809709e-002 5.710617e-002 1.113877e-001 6.509225e-002 -6.490589e-002 -3.631527e-002 6.072907e-001 -6.506037e-001
6.101962e-001 -6.476033e-001 -6.495880e-002 -3.597764e-002 1.117651e-001 6.196077e-002 8.858471e-002 5.394311e-002
-6.373197e-002 -3.627528e-002 6.051000e-001 -6.534896e-001 8.915127e-002 5.410294e-002 1.129977e-001 5.613348e-002
59975000 5.750719e-002 -7.151543e-002 4.065010e-002 -4.647267e-002 -7.794881e-001 -4.186936e-001 -2.122384e-002 6.884930e-002
4.126522e-002 -4.652939e-002 5.903171e-002 -7.186045e-002 -2.053180e-002 6.906087e-002 -7.818935e-001 -4.126188e-001
-7.791633e-001 -4.171648e-001 -2.013143e-002 6.905980e-002 5.543682e-002 -7.483924e-002 3.701025e-002 -4.568796e-002
-2.122079e-002 6.887390e-002 -7.841349e-001 -4.090988e-001 3.671010e-002 -4.542271e-002 5.291473e-002 -7.165100e-002
72468750 1.632398e-001 4.779931e-003 1.318352e-001 6.947622e-003 -1.718724e-001 8.444111e-001 9.750951e-002 -6.562577e-003
1.316660e-001 8.353430e-003 1.677541e-001 3.961362e-003 9.767527e-002 -7.522547e-003 -1.661268e-001 8.447248e-001
-1.710593e-001 8.439092e-001 9.751632e-002 -8.244715e-003 1.661797e-001 2.272887e-003 1.298548e-001 1.333335e-003
9.743276e-002 -6.675008e-003 -1.599249e-001 8.456205e-001 1.301591e-001 9.615974e-004 1.632471e-001 3.010759e-004
84962500 3.706607e-002 -6.658278e-003 3.133558e-002 1.279555e-002 8.613212e-001 -6.792630e-002 -2.339517e-002 -1.077733e-001
3.140303e-002 1.234738e-002 3.923673e-002 -7.692316e-003 -2.353573e-002 -1.079435e-001 8.585139e-001 -7.552616e-002
8.598299e-001 -6.967333e-002 -2.468394e-002 -1.075909e-001 3.707219e-002 -7.426098e-003 2.881116e-002 1.401403e-002
-2.351030e-002 -1.077038e-001 8.587301e-001 -8.354765e-002 2.887010e-002 1.454080e-002 3.802248e-002 -4.938174e-003
97456250 1.474233e-001 -7.063150e-002 1.142436e-001 -5.264230e-002 -2.871173e-001 -7.910521e-001 -9.835879e-002 6.498378e-002
1.150331e-001 -5.083138e-002 1.475422e-001 -7.445675e-002 -9.773721e-002 6.507547e-002 -2.944717e-001 -7.877803e-001
-2.891636e-001 -7.898128e-001 -9.666774e-002 6.645896e-002 1.456879e-001 -7.314981e-002 1.062654e-001 -5.742229e-002
-9.822362e-002 6.502157e-002 -3.032886e-001 -7.846639e-001 1.062004e-001 -5.771142e-002 1.393349e-001 -6.782660e-002
109950000 8.615066e-002 2.414294e-002 8.368574e-002 3.659467e-002 -6.710208e-001 4.981744e-001 1.022674e-001 9.691771e-002
8.260102e-002 3.710367e-002 9.315719e-002 2.686310e-002 1.024701e-001 9.725101e-002 -6.634433e-001 5.036219e-001
-6.686413e-001 4.995774e-001 1.037009e-001 9.553139e-002 8.602156e-002 2.270393e-002 7.994636e-002 3.696862e-002
1.023782e-001 9.685911e-002 -6.567480e-001 5.127003e-001 8.068306e-002 3.767516e-002 9.154578e-002 2.537618e-002
122443750 8.023099e-002 -8.481307e-002 5.828503e-002 -6.464100e-002 6.511388e-001 5.143917e-001 6.872532e-002 -1.244689e-001
6.004379e-002 -6.366593e-002 7.855081e-002 -9.037232e-002 6.908785e-002 -1.230944e-001 6.547178e-001 5.061292e-001
6.524022e-001 5.115214e-001 6.673867e-002 -1.241684e-001 7.560527e-002 -8.614187e-002 5.191318e-002 -5.865078e-002
6.865755e-002 -1.244418e-001 6.625548e-001 4.958516e-001 5.131478e-002 -5.860728e-002 7.980734e-002 -7.506018e-002
134937500 1.424427e-001 -7.700919e-003 1.270803e-001 6.010698e-004 3.038430e-001 -7.529540e-001 -1.586949e-001 -2.976617e-002
1.262885e-001 3.330124e-003 1.472854e-001 -3.528623e-003 -1.594734e-001 -3.107516e-002 2.950628e-001 -7.527381e-001
3.006038e-001 -7.528163e-001 -1.598170e-001 -2.745843e-002 1.388644e-001 -1.654876e-003 1.234725e-001 -1.346122e-003
-1.587095e-001 -2.968672e-002 2.811413e-001 -7.580287e-001 1.244602e-001 -1.168441e-003 1.443033e-001 -8.056234e-003
147431250 3.931508e-002 -4.492563e-002 2.827777e-002 -1.684765e-002 -8.111696e-001 -8.959637e-002 8.642292e-004 1.705696e-001
2.916506e-002 -1.682920e-002 3.841917e-002 -5.292674e-002 -1.525344e-003 1.703690e-001 -8.089326e-001 -8.024842e-002
-8.106716e-001 -8.466420e-002 2.864122e-003 1.701387e-001 4.451343e-002 -4.596816e-002 2.665274e-002 -1.328583e-002
9.197133e-004 1.707170e-001 -8.108234e-001 -6.402450e-002 2.632784e-002 -1.250044e-002 5.086987e-002 -4.517744e-002
159925000 1.389356e-001 -7.033767e-002 1.218813e-001 -5.868375e-002 1.274688e-001 7.849245e-001 1.694864e-001 -6.001115e-002
1.232000e-001 -5.475740e-002 1.440121e-001 -7.124617e-002 1.702734e-001 -5.848740e-002 1.353893e-001 7.813106e-001
1.315827e-001 7.835742e-001 1.683676e-001 -6.351994e-002 1.430886e-001 -6.367077e-002 1.209073e-001 -5.627585e-002
1.694868e-001 -5.995944e-002 1.538940e-001 7.778179e-001 1.214898e-001 -5.636648e-002 1.414179e-001 -6.624910e-002
172418750 7.011979e-002 3.321735e-003 6.425174e-002 2.682413e-002 7.151823e-001 -3.475170e-001 -1.074207e-001 -1.717378e-001
6.337027e-002 2.749171e-002 6.172294e-002 -8.855896e-004 -1.044066e-001 -1.743937e-001 7.097979e-001 -3.533296e-001
7.118071e-001 -3.513053e-001 -1.100912e-001 -1.705690e-001 6.899227e-002 3.058159e-003 6.407690e-002 2.651031e-002
-1.074121e-001 -1.718526e-001 7.002351e-001 -3.725343e-001 6.427745e-002 2.774210e-002 7.587555e-002 -5.611714e-003
184912500 8.808426e-002 -1.057054e-001 6.978625e-002 -8.407191e-002 -5.106436e-001 -5.941155e-001 -1.334236e-001 1.505066e-001
7.267089e-002 -8.129063e-002 9.046519e-002 -1.068259e-001 -1.353264e-001 1.487784e-001 -5.168306e-001 -5.860856e-001
-5.139152e-001 -5.900468e-001 -1.298616e-001 1.533527e-001 9.901356e-002 -1.031321e-001 7.039140e-002 -8.612810e-002
-1.337082e-001 1.504347e-001 -5.323977e-001 -5.722075e-001 7.059146e-002 -8.641462e-002 9.341972e-002 -1.016252e-001
197406250 1.220460e-001 -1.359839e-002 1.213656e-001 7.637878e-003 -4.126722e-001 6.488930e-001 2.062520e-001 9.586523e-002
1.200668e-001 1.065225e-002 1.180605e-001 -1.000536e-002 2.056567e-001 1.001753e-001 -4.035936e-001 6.528713e-001
-4.083253e-001 6.504505e-001 2.087813e-001 9.240987e-002 1.227055e-001 -1.054205e-002 1.202723e-001 5.981127e-003
2.061498e-001 9.614891e-002 -3.847268e-001 6.639430e-001 1.213207e-001 7.186354e-003 1.234431e-001 -1.934061e-002
209900000 3.926554e-002 -7.547894e-002 2.727209e-002 -4.467358e-002 7.360393e-001 2.291376e-001 4.745273e-002 -2.258603e-001
2.980783e-002 -4.380259e-002 3.865786e-002 -7.664915e-002 5.145814e-002 -2.247307e-001 7.381893e-001 2.163824e-001
7.367270e-001 2.237501e-001 4.300111e-002 -2.260523e-001 4.821405e-002 -8.087266e-002 2.210107e-002 -5.115169e-002
4.809828e-002 -2.256676e-001 7.436818e-001 1.961464e-001 2.152574e-002 -5.085802e-002 4.715759e-002 -7.699295e-002
222393750 1.358258e-001 -6.871317e-002 1.381845e-001 -5.588355e-002 1.885937e-002 -7.458927e-001 -2.426447e-001 3.084585e-002
1.392661e-001 -5.032559e-002 1.374921e-001 -6.591965e-002 -2.439932e-001 2.660071e-002 7.788502e-003 -7.448353e-001
1.396444e-002 -7.454577e-001 -2.423124e-001 3.685325e-002 1.395866e-001 -7.330450e-002 1.352638e-001 -5.749926e-002
-2.426597e-001 3.036538e-002 -1.649034e-002 -7.444901e-001 1.367360e-001 -5.707746e-002 1.373326e-001 -7.889076e-002
234887500 5.239374e-002 -2.999717e-002 4.728018e-002 3.694295e-003 -7.250837e-001 1.916374e-001 8.913932e-002 2.454203e-001
4.777802e-002 4.349445e-003 4.869318e-002 -2.979458e-002 8.327371e-002 2.480250e-001 -7.199466e-001 2.038257e-001
-7.224747e-001 1.966259e-001 9.377322e-002 2.436899e-001 4.805485e-002 -3.357564e-002 3.871679e-002 3.026381e-003
8.835911e-002 2.457345e-001 -7.131920e-001 2.267544e-001 3.823084e-002 4.484685e-003 5.304225e-002 -3.432246e-002
247381250 9.688480e-002 -1.135958e-001 9.475621e-002 -1.042031e-001 3.610399e-001 6.367343e-001 2.067049e-001 -1.592305e-001
9.840129e-002 -9.945333e-002 9.715950e-002 -1.123504e-001 2.101308e-001 -1.549307e-001 3.728416e-001 6.288982e-001
3.655846e-001 6.337380e-001 2.028550e-001 -1.641669e-001 9.713295e-002 -1.200132e-001 9.199450e-002 -1.046791e-001
2.072164e-001 -1.584338e-001 3.931838e-001 6.162486e-001 9.319704e-002 -1.045561e-001 9.302355e-002 -1.208532e-001
259875000 9.613697e-002 -2.916274e-002 1.005636e-001 3.743418e-003 4.988759e-001 -5.237700e-001 -2.273877e-001 -1.725643e-001
1.000605e-001 6.391131e-003 9.782878e-002 -2.481443e-002 -2.236629e-001 -1.786913e-001 4.870713e-001 -5.327703e-001
4.948126e-001 -5.268067e-001 -2.314655e-001 -1.681062e-001 9.066270e-002 -2.721156e-002 9.836227e-002 3.161477e-003
-2.267556e-001 -1.735309e-001 4.686986e-001 -5.490385e-001 9.909570e-002 5.125424e-003 9.817041e-002 -3.047198e-002
272368750 4.177358e-002 -1.031790e-001 3.458370e-002 -8.561594e-002 -6.314143e-001 -3.478750e-001 -1.091559e-001 2.616658e-001
3.868316e-002 -8.336544e-002 4.112252e-002 -1.075033e-001 -1.157256e-001 2.587669e-001 -6.372829e-001 -3.332538e-001
-6.334556e-001 -3.430188e-001 -1.033834e-001 2.635528e-001 3.944044e-002 -1.069090e-001 2.899088e-002 -9.024569e-002
-1.104967e-001 2.611974e-001 -6.478981e-001 -3.116814e-001 2.926432e-002 -9.054294e-002 4.358163e-002 -1.087197e-001
284862500 1.249261e-001 -7.356855e-002 1.360403e-001 -4.848268e-002 -1.526047e-001 6.813936e-001 3.001466e-001 2.445857e-002
1.367778e-001 -4.328596e-002 1.222062e-001 -6.847683e-002 3.011434e-001 3.221948e-002 -1.362400e-001 6.837167e-001
-1.477934e-001 6.817309e-001 3.018156e-001 1.785947e-002 1.230446e-001 -7.375481e-002 1.322691e-001 -5.225334e-002
2.999763e-001 2.607736e-002 -1.127061e-001 6.877701e-001 1.341526e-001 -5.071984e-002 1.226289e-001 -8.408880e-002
297356250 3.138650e-002 -6.278899e-002 2.640281e-002 -3.252921e-002 7.027460e-001 -3.756362e-002 -4.504386e-002 -3.073650e-001
2.899276e-002 -3.159420e-002 2.831998e-002 -5.789552e-002 -3.656562e-002 -3.090099e-001 6.998266e-001 -5.536463e-002
7.017848e-001 -4.266493e-002 -5.154421e-002 -3.062994e-001 2.774444e-002 -6.612665e-002 1.729518e-002 -3.585888e-002
-4.325923e-002 -3.077410e-001 6.972078e-001 -7.991400e-002 1.687810e-002 -3.491408e-002 3.239348e-002 -6.407032e-002
309850000 9.938686e-002 -1.216062e-001 1.113063e-001 -1.072519e-001 -2.106881e-001 -6.480587e-001 -2.805774e-001 1.390493e-001
1.148500e-001 -1.017921e-001 9.954203e-002 -1.189849e-001 -2.850048e-001 1.322877e-001 -2.275376e-001 -6.403963e-001
-2.149334e-001 -6.462354e-001 -2.777741e-001 1.460359e-001 9.486395e-002 -1.292814e-001 1.026719e-001 -1.124207e-001
-2.814849e-001 1.371518e-001 -2.496818e-001 -6.316439e-001 1.050382e-001 -1.119349e-001 9.316282e-002 -1.356614e-001
322343750 6.747109e-002 -4.351512e-002 7.382436e-002 -7.328406e-003 -5.579677e-001 3.874024e-001 2.179630e-001 2.542405e-001
7.468853e-002 -5.315919e-003 6.605919e-002 -3.885676e-002 2.111990e-001 2.615752e-001 -5.443786e-001 4.022430e-001
-5.547816e-001 3.907036e-001 2.235533e-001 2.502031e-001 6.223511e-002 -4.421296e-002 6.366481e-002 -5.773965e-003
2.162434e-001 2.559687e-001 -5.298548e-001 4.209457e-001 6.378649e-002 -3.692981e-003 6.873634e-002 -4.771821e-002
334837500 4.542227e-002 -1.303785e-001 5.019119e-002 -1.197587e-001 5.065304e-001 4.384334e-001 1.821213e-001 -2.745623e-001
5.547235e-002 -1.163953e-001 4.405832e-002 -1.271612e-001 1.899485e-001 -2.702200e-001 5.186426e-001 4.203691e-001
5.091753e-001 4.349442e-001 1.761320e-001 -2.789294e-001 3.689256e-002 -1.377942e-001 4.041073e-002 -1.216396e-001
1.845296e-001 -2.731330e-001 5.321980e-001 4.027160e-001 4.194750e-002 -1.222216e-001 3.298651e-002 -1.403024e-001
347331250 1.015423e-001 -7.930759e-002 1.195829e-001 -4.063289e-002 2.673830e-001 -5.961849e-001 -3.358304e-001 -1.021361e-001
1.206547e-001 -3.683796e-002 1.023076e-001 -7.506075e-002 -3.345071e-001 -1.119599e-001 2.457859e-001 -6.024826e-001
2.636665e-001 -5.974087e-001 -3.388692e-001 -9.594825e-002 9.459273e-002 -7.338140e-002 1.154066e-001 -4.020080e-002
-3.351880e-001 -1.048425e-001 2.260413e-001 -6.096443e-001 1.168727e-001 -3.782198e-002 9.839964e-002 -8.245611e-002
359825000 8.553887e-003 -9.378912e-002 1.828893e-002 -7.602526e-002 -6.482425e-001 -1.059093e-001 -2.047475e-002 3.509351e-001
2.266887e-002 -7.479311e-002 1.104696e-002 -8.847752e-002 -2.965623e-002 3.510675e-001 -6.485983e-001 -8.279679e-002
-6.487066e-001 -1.017877e-001 -1.233428e-002 3.516397e-001 7.293277e-003 -9.366381e-002 2.677310e-003 -8.136847e-002
-2.342023e-002 3.508384e-001 -6.508174e-001 -6.088125e-002 2.730848e-003 -8.168643e-002 3.153784e-003 -9.366776e-002
372318750 8.874416e-002 -1.237336e-001 1.196155e-001 -1.017236e-001 7.086225e-002 6.293217e-001 3.501399e-001 -9.067820e-002
1.225946e-001 -9.669723e-002 9.147463e-002 -1.237261e-001 3.538266e-001 -8.199915e-002 9.364512e-002 6.226836e-001
7.407107e-002 6.289029e-001 3.491355e-001 -9.839424e-002 8.382807e-002 -1.282519e-001 1.097782e-001 -1.058397e-001
3.509439e-001 -8.759986e-002 1.132017e-001 6.188745e-001 1.124003e-001 -1.046407e-001 8.407555e-002 -1.379624e-001
384812500 3.429164e-002 -5.277502e-002 4.478574e-002 -3.922320e-002 5.873107e-001 -2.452889e-001 -1.772116e-001 -3.322662e-001
4.745444e-002 -3.783526e-002 3.480571e-002 -5.448269e-002 -1.691760e-001 -3.373060e-001 5.742910e-001 -2.661217e-001
5.856206e-001 -2.482961e-001 -1.845068e-001 -3.285692e-001 2.963446e-002 -4.805622e-002 2.230018e-002 -3.186596e-002
-1.744081e-001 -3.338131e-001 5.652262e-001 -2.838995e-001 2.195860e-002 -3.084272e-002 2.721125e-002 -5.232746e-002
397306250 4.258619e-002 -1.425662e-001 6.423060e-002 -1.372179e-001 -3.746143e-001 -4.936437e-001 -2.643750e-001 2.638557e-001
6.957209e-002 -1.335839e-001 3.897281e-002 -1.457122e-001 -2.716672e-001 2.578288e-001 -3.915668e-001 -4.752387e-001
-3.768491e-001 -4.917963e-001 -2.590084e-001 2.701003e-001 3.658925e-002 -1.504985e-001 5.478216e-002 -1.374520e-001
-2.669360e-001 2.614172e-001 -4.057175e-001 -4.626239e-001 5.727305e-002 -1.378101e-001 3.055145e-002 -1.569406e-001
409800000 7.864360e-002 -6.691198e-002 9.214315e-002 -4.687742e-002 -3.590881e-001 4.937280e-001 3.424670e-001 1.949544e-001
9.395091e-002 -4.422857e-002 7.487055e-002 -6.880105e-002 3.386105e-001 2.041793e-001 -3.362687e-001 5.050940e-001
-3.568070e-001 4.950103e-001 3.469924e-001 1.884092e-001 7.548134e-002 -6.286652e-002 7.608322e-002 -3.568881e-002
3.406244e-001 1.981546e-001 -3.207738e-001 5.145491e-001 7.684703e-002 -3.364881e-002 7.234627e-002 -7.286976e-002
422293750 -1.933185e-003 -1.141114e-001 1.795794e-002 -1.156320e-001 5.651408e-001 2.220344e-001 1.010320e-001 -3.778861e-001
2.281609e-002 -1.139261e-001 -4.450362e-003 -1.122355e-001 1.095738e-001 -3.768665e-001 5.706931e-001 1.954749e-001
5.659836e-001 2.196423e-001 9.319208e-002 -3.808133e-001 -1.258460e-002 -1.192428e-001 2.930434e-003 -1.153568e-001
1.045508e-001 -3.768401e-001 5.755911e-001 1.792904e-001 3.896948e-003 -1.162369e-001 -2.173360e-002 -1.223255e-001
434787500 9.230931e-002 -1.140418e-001 1.107913e-001 -1.017905e-001 5.381842e-002 -5.831233e-001 -4.052360e-001 1.623489e-002
1.138342e-001 -9.820120e-002 8.470792e-002 -1.165248e-001 -4.071274e-001 7.280620e-003 2.710799e-002 -5.816440e-001
5.193895e-002 -5.832304e-001 -4.059665e-001 2.428191e-002 8.828923e-002 -1.217316e-001 9.539814e-002 -9.261509e-002
-4.054253e-001 1.227908e-002 1.111222e-002 -5.818653e-001 9.756565e-002 -9.087636e-002 7.814570e-002 -1.304771e-001
447281250 1.005405e-002 -8.032807e-002 1.233966e-002 -7.572356e-002 -5.798759e-001 1.051828e-001 1.139514e-001 3.969479e-001
1.609679e-002 -7.495368e-002 5.889886e-003 -7.238449e-002 1.057434e-001 4.003722e-001 -5.702530e-001 1.326875e-001
-5.795960e-001 1.072719e-001 1.216354e-001 3.952982e-001 -1.883940e-002 -7.169490e-002 -6.284400e-003 -6.037426e-002
1.102069e-001 3.979650e-001 -5.664321e-001 1.475212e-001 -6.549497e-003 -6.067751e-002 -1.971989e-002 -6.960644e-002
459775000 4.639297e-002 -1.577959e-001 6.973683e-002 -1.466256e-001 2.421448e-001 5.154135e-001 3.469186e-001 -2.254962e-001
7.409368e-002 -1.438245e-001 3.797889e-002 -1.540198e-001 3.529294e-001 -2.196418e-001 2.660625e-001 4.997346e-001
2.438293e-001 5.147314e-001 3.435233e-001 -2.331361e-001 4.041163e-002 -1.575035e-001 6.314967e-002 -1.365394e-001
3.491704e-001 -2.220954e-001 2.788812e-001 4.924454e-001 6.562698e-002 -1.362717e-001 2.955691e-002 -1.644006e-001
472268750 4.819797e-002 -6.852037e-002 5.456241e-002 -5.768847e-002 4.196181e-001 -3.768959e-001 -3.224845e-001 -2.898727e-001
5.741659e-002 -5.637026e-002 5.066356e-002 -5.987923e-002 -3.172899e-001 -2.978826e-001 3.955694e-001 -3.954377e-001
4.183944e-001 -3.780188e-001 -3.283589e-001 -2.847939e-001 3.250948e-002 -5.673190e-002 4.186074e-002 -4.535993e-002
-3.192908e-001 -2.935110e-001 3.853729e-001 -4.054472e-001 4.203830e-002 -4.397083e-002 3.936117e-002 -5.909355e-002
484762500 -5.288949e-003 -1.441566e-001 1.571749e-002 -1.490847e-001 -4.626393e-001 -3.099428e-001 -1.919264e-001 3.810571e-001
2.070332e-002 -1.476669e-001 -4.262059e-003 -1.423912e-001 -1.994793e-001 3.792530e-001 -4.750471e-001 -2.828508e-001
-4.634683e-001 -3.088980e-001 -1.847207e-001 3.861814e-001 -2.400274e-002 -1.469167e-001 1.211294e-003 -1.345498e-001
-1.961729e-001 3.789006e-001 -4.817212e-001 -2.711275e-001 3.107775e-003 -1.353857e-001 -3.489787e-002 -1.550020e-001
497256250 7.401235e-002 -1.130685e-001 8.078350e-002 -9.723057e-002 -1.585273e-001 5.126208e-001 4.392732e-001 7.640190e-002
8.394652e-002 -9.539727e-002 7.469566e-002 -1.181484e-001 4.386920e-001 8.369946e-002 -1.287046e-001 5.167328e-001
-1.576903e-001 5.128803e-001 4.409729e-001 6.783677e-002 6.648118e-002 -9.769312e-002 8.109946e-002 -8.237655e-002
4.385165e-001 8.131646e-002 -1.166166e-001 5.197614e-001 8.258220e-002 -8.055082e-002 6.426999e-002 -1.025241e-001
509750000 -3.655974e-002 -1.067917e-001 -1.670695e-002 -1.041082e-001 5.416067e-001 2.173790e-002 -2.885645e-002 -4.445932e-001
-1.265712e-002 -1.038615e-001 -3.713027e-002 -1.014830e-001 -2.230734e-002 -4.457897e-001 5.387597e-001 -1.028633e-002
5.416379e-001 2.060054e-002 -3.754401e-002 -4.440817e-001 -4.437771e-002 -1.008104e-001 -2.991542e-002 -9.765156e-002
-2.420514e-002 -4.449032e-001 5.382720e-001 -2.202106e-002 -2.933414e-002 -9.853084e-002 -5.109747e-002 -9.854403e-002
522243750 3.379177e-002 -1.477064e-001 7.208580e-002 -1.413069e-001 -1.190619e-001 -5.032617e-001 -4.228451e-001 1.642920e-001
7.586333e-002 -1.394355e-001 3.112412e-002 -1.530592e-001 -4.252546e-001 1.580995e-001 -1.483086e-001 -4.918980e-001
-1.195057e-001 -5.031619e-001 -4.193097e-001 1.719161e-001 2.735300e-002 -1.589343e-001 5.865853e-002 -1.246474e-001
-4.248565e-001 1.597911e-001 -1.587788e-001 -4.883947e-001 6.100013e-002 -1.239170e-001 2.489741e-002 -1.618015e-001
