# Hz S  RI   R 50
10000000 2.052065e-001 -2.105697e-002 1.322217e-001 4.997531e-003 6.620643e-002 -9.309272e-001 -1.303635e-002 3.211991e-002
1.325730e-001 5.096771e-003 1.889474e-001 -1.723321e-002 -1.407960e-002 3.149698e-002 6.232883e-002 -9.210817e-001
6.559337e-002 -9.305348e-001 -1.399200e-002 3.166118e-002 1.868957e-001 -2.459548e-002 1.355487e-001 5.389199e-003
-1.297236e-002 3.192608e-002 6.207772e-002 -9.208467e-001 1.353749e-001 5.362013e-003 1.857026e-001 -2.139712e-002
22493750 2.100009e-002 4.355581e-002 1.997647e-002 2.862236e-002 -9.219746e-001 2.092816e-001 1.311614e-002 3.197703e-002
1.983283e-002 2.849806e-002 2.535218e-002 3.253707e-002 1.336102e-002 3.257787e-002 -9.062260e-001 2.067973e-001
-9.205104e-001 2.092174e-001 1.334316e-002 3.251692e-002 1.260405e-002 2.302702e-002 1.746232e-002 2.938936e-002
1.306783e-002 3.199537e-002 -9.065096e-001 2.086704e-001 1.757894e-002 2.961732e-002 2.715054e-002 3.143364e-002
34987500 1.302308e-001 -9.041462e-002 1.008475e-001 -5.090965e-002 4.232480e-001 8.083937e-001 1.846403e-002 -3.644693e-002
1.012564e-001 -5.059491e-002 1.338425e-001 -8.065435e-002 1.935115e-002 -3.862576e-002 4.194775e-001 7.933941e-001
4.231542e-001 8.070493e-001 1.933187e-002 -3.871642e-002 1.372087e-001 -9.958820e-002 1.051761e-001 -5.226813e-002
1.848260e-002 -3.644881e-002 4.217411e-001 7.929831e-001 1.050008e-001 -5.244155e-002 1.339563e-001 -7.612875e-002
47481250 1.145527e-001 5.750426e-002 8.382282e-002 5.461582e-002 6.421872e-001 -6.387074e-001 -6.122165e-002 -3.570000e-002
8.310092e-002 5.489821e-002 1.002601e-001 5.887233e-002 -6.337872e-002 -3.748534e-002 6.309366e-001 -6.283180e-001
6.408304e-001 -6.376489e-001 -6.337426e-002 -3.723060e-002 1.034863e-001 4.306469e-002 8.681363e-002 5.515551e-002
-6.111593e-002 -3.563188e-002 6.288360e-001 -6.313425e-001 8.738389e-002 5.519441e-002 1.032020e-001 5.233759e-002
59975000 5.444316e-002 -6.180643e-002 4.636891e-002 -5.023754e-002 -7.744443e-001 -4.586449e-001 -2.100884e-002 6.375463e-002
4.706904e-002 -5.030360e-002 5.886198e-002 -7.322575e-002 -2.014216e-002 6.535811e-002 -7.602002e-001 -4.497791e-001
-7.742123e-001 -4.574590e-001 -1.973859e-002 6.552189e-002 6.004313e-002 -1.019539e-001 4.569004e-002 -5.491478e-002
-2.096933e-002 6.370068e-002 -7.623974e-001 -4.462082e-001 4.548767e-002 -5.467671e-002 5.973490e-002 -7.429081e-002
72468750 1.583599e-001 -3.879048e-003 1.264372e-001 1.138360e-002 -2.154639e-001 8.497592e-001 9.397992e-002 -1.409801e-003
1.260706e-001 1.289856e-002 1.547413e-001 8.272739e-003 9.777145e-002 -3.388201e-003 -2.123806e-001 8.348692e-001
-2.145687e-001 8.494342e-001 9.774785e-002 -4.000554e-003 1.765603e-001 -7.927246e-003 1.327221e-001 7.018445e-003
9.388096e-002 -1.604895e-003 -2.061295e-001 8.362641e-001 1.329722e-001 6.508225e-003 1.546730e-001 6.074673e-003
84962500 4.391856e-002 -1.371439e-002 2.599246e-002 1.040602e-003 8.796706e-001 -1.540394e-002 -1.367619e-002 -1.005921e-001
2.617262e-002 5.587751e-004 2.961927e-002 -1.529769e-002 -1.440072e-002 -1.022253e-001 8.650586e-001 -1.447962e-002
8.783050e-001 -1.705069e-002 -1.539855e-002 -1.020088e-001 4.135361e-002 -3.741674e-002 2.463071e-002 -8.569221e-004
-1.373517e-002 -1.006250e-001 8.657012e-001 -2.275073e-002 2.465229e-002 -1.402182e-004 3.577158e-002 -1.634522e-002
97456250 1.391786e-001 -5.566108e-002 1.174368e-001 -4.383524e-002 -2.410931e-001 -8.227984e-001 -9.999707e-002 5.529327e-002
1.180729e-001 -4.194763e-002 1.462462e-001 -6.281738e-002 -9.997925e-002 5.840988e-002 -2.349513e-001 -8.081620e-001
-2.431175e-001 -8.216382e-001 -9.917709e-002 5.959710e-002 1.712560e-001 -8.429046e-002 1.178764e-001 -5.701294e-002
-9.993284e-002 5.529487e-002 -2.440543e-001 -8.058857e-001 1.178607e-001 -5.742827e-002 1.442027e-001 -6.434787e-002
109950000 8.076012e-002 1.569074e-002 6.558672e-002 3.795429e-002 -7.247176e-001 4.613409e-001 8.370860e-002 1.053485e-001
6.473167e-002 3.818106e-002 7.494978e-002 2.777097e-002 8.652289e-002 1.072191e-001 -7.120941e-001 4.502500e-001
-7.222394e-001 4.628288e-001 8.793673e-002 1.057369e-001 8.982638e-002 2.289373e-002 6.576509e-002 3.862634e-002
8.388712e-002 1.052621e-001 -7.064410e-001 4.600698e-001 6.649008e-002 3.944134e-002 7.335814e-002 2.602236e-002
122443750 9.961491e-002 -8.548905e-002 6.741262e-002 -6.529881e-002 6.181360e-001 5.738509e-001 7.652562e-002 -1.136386e-001
6.922740e-002 -6.400285e-002 8.594240e-002 -9.590214e-002 7.588868e-002 -1.138551e-001 6.046088e-001 5.676027e-001
6.195213e-001 5.709424e-001 7.380524e-002 -1.149390e-001 1.168722e-001 -1.089009e-001 6.039273e-002 -7.645579e-002
7.646360e-002 -1.134688e-001 6.132857e-001 5.580580e-001 5.958951e-002 -7.656265e-002 9.384335e-002 -8.831409e-002
134937500 1.170093e-001 1.014859e-002 1.216346e-001 1.842177e-002 3.723819e-001 -7.444000e-001 -1.527647e-001 -5.301034e-002
1.203241e-001 2.081459e-002 1.205071e-001 1.128838e-002 -1.553900e-001 -5.292574e-002 3.709468e-001 -7.282277e-001
3.689533e-001 -7.445268e-001 -1.560870e-001 -4.934438e-002 1.536923e-001 3.541502e-003 1.195419e-001 1.461289e-002
-1.526843e-001 -5.304357e-002 3.573866e-001 -7.350154e-001 1.207689e-001 1.489969e-002 1.278365e-001 -5.744337e-003
147431250 4.994035e-002 -6.672291e-002 2.772249e-002 -2.788309e-002 -8.120677e-001 -1.708938e-001 -1.789262e-002 1.639965e-001
2.910760e-002 -2.779109e-002 4.082122e-002 -5.575500e-002 -1.942237e-002 1.651339e-001 -7.982742e-001 -1.714457e-001
-8.120704e-001 -1.657871e-001 -1.515155e-002 1.654279e-001 5.840593e-002 -6.460185e-002 2.168689e-002 -3.184343e-002
-1.798110e-002 1.641025e-001 -8.022045e-001 -1.555495e-001 2.115286e-002 -3.119424e-002 4.207941e-002 -5.717746e-002
159925000 1.488246e-001 -3.507566e-002 1.359114e-001 -4.383919e-002 5.226634e-002 8.054664e-001 1.767354e-001 -4.034439e-002
1.365667e-001 -3.961004e-002 1.435431e-001 -4.798814e-002 1.772155e-001 -3.908840e-002 4.407791e-002 7.938652e-001
5.667946e-002 8.043797e-001 1.757379e-001 -4.432930e-002 1.593605e-001 -5.956559e-002 1.306035e-001 -4.970462e-002
1.768601e-001 -4.027770e-002 6.297102e-002 7.926086e-001 1.314192e-001 -4.982442e-002 1.381139e-001 -6.329246e-002
172418750 5.715533e-002 -1.654387e-002 4.927109e-002 1.609735e-002 7.651334e-001 -2.680039e-001 -8.014932e-002 -1.781687e-001
4.907361e-002 1.633383e-002 5.644011e-002 -1.594957e-002 -7.789092e-002 -1.813329e-001 7.546429e-001 -2.569856e-001
7.620754e-001 -2.725750e-001 -8.392279e-002 -1.784543e-001 4.735224e-002 3.121703e-003 4.352803e-002 1.792391e-002
-8.016824e-002 -1.783733e-001 7.477943e-001 -2.775438e-001 4.347167e-002 1.920072e-002 4.711525e-002 -1.251767e-002
184912500 1.109622e-001 -1.105968e-001 8.687052e-002 -8.157662e-002 -4.415132e-001 -6.579723e-001 -1.475637e-001 1.311754e-001
8.949595e-002 -7.810506e-002 9.547775e-002 -1.000232e-001 -1.512399e-001 1.298019e-001 -4.319144e-001 -6.529430e-001
-4.453159e-001 -6.543838e-001 -1.463962e-001 1.349041e-001 1.152223e-001 -8.848545e-002 8.533803e-002 -9.161286e-002
-1.477170e-001 1.310367e-001 -4.491875e-001 -6.413164e-001 8.578959e-002 -9.201224e-002 9.771673e-002 -9.068143e-002
197406250 9.673772e-002 2.471228e-003 1.065145e-001 1.510993e-002 -5.040679e-001 6.027112e-001 1.833325e-001 1.235921e-001
1.051747e-001 1.723939e-002 9.662278e-002 -2.853693e-003 1.826590e-001 1.284431e-001 -5.013998e-001 5.894230e-001
-4.993293e-001 6.049278e-001 1.870127e-001 1.213971e-001 9.859382e-002 2.968595e-003 9.749742e-002 1.686525e-002
1.832690e-001 1.238441e-001 -4.841950e-001 6.033542e-001 9.839208e-002 1.852684e-002 1.039464e-001 -9.763532e-003
209900000 4.503056e-002 -9.362032e-002 3.600456e-002 -6.041366e-002 7.072797e-001 3.355316e-001 7.726668e-002 -2.081364e-001
3.884057e-002 -5.901555e-002 4.679751e-002 -8.564334e-002 8.208010e-002 -2.088727e-001 6.959012e-001 3.338958e-001
7.090989e-001 3.302940e-001 7.408809e-002 -2.114301e-001 4.219655e-002 -8.684255e-002 2.755521e-002 -6.942573e-002
7.779828e-002 -2.079348e-001 7.046662e-001 3.147136e-001 2.713084e-002 -6.939143e-002 4.857257e-002 -8.499087e-002
222393750 1.333732e-001 -5.261198e-002 1.354649e-001 -3.591010e-002 1.281680e-001 -7.518708e-001 -2.387128e-001 -1.132753e-002
1.356850e-001 -3.088287e-002 1.276996e-001 -4.562139e-002 -2.424276e-001 -1.715866e-002 1.324719e-001 -7.400767e-001
1.230912e-001 -7.517675e-001 -2.423804e-001 -6.759827e-003 1.175542e-001 -4.504566e-002 1.344741e-001 -3.240922e-002
-2.386590e-001 -1.158700e-002 1.082429e-001 -7.435984e-001 1.358623e-001 -3.163056e-002 1.303195e-001 -5.586112e-002
234887500 3.280983e-002 -2.916563e-002 3.525359e-002 -1.323786e-002 -7.624843e-001 7.736875e-002 4.175677e-002 2.485952e-001
3.675829e-002 -1.276546e-002 3.481431e-002 -4.018573e-002 3.667606e-002 2.524611e-001 -7.509622e-001 7.099941e-002
-7.609659e-001 8.319232e-002 4.767273e-002 2.502194e-001 2.330598e-002 -4.003254e-002 2.496743e-002 -1.727047e-002
4.097883e-002 2.488935e-001 -7.484615e-001 9.475004e-002 2.448296e-002 -1.616822e-002 3.954881e-002 -4.184470e-002
247381250 1.105824e-001 -1.065367e-001 1.104585e-001 -8.623236e-002 2.604879e-001 6.992958e-001 2.274542e-001 -1.159981e-001
1.131745e-001 -8.095893e-002 1.097794e-001 -9.725668e-002 2.332594e-001 -1.133662e-001 2.526236e-001 6.911809e-001
2.655712e-001 6.970187e-001 2.279990e-001 -1.236014e-001 9.812087e-002 -1.105188e-001 1.080866e-001 -9.492272e-002
2.278896e-001 -1.151220e-001 2.751906e-001 6.821980e-001 1.093689e-001 -9.470383e-002 1.058249e-001 -1.050065e-001
259875000 7.757962e-002 -1.924254e-002 8.054507e-002 9.045293e-003 5.950517e-001 -4.428639e-001 -1.825323e-001 -2.096903e-001
8.014655e-002 1.083549e-002 7.061195e-002 -1.530306e-002 -1.798772e-001 -2.168108e-001 5.888292e-001 -4.320333e-001
5.913599e-001 -4.467093e-001 -1.893603e-001 -2.081109e-001 5.834479e-002 -3.507134e-002 7.165804e-002 9.878384e-003
-1.816843e-001 -2.104967e-001 5.738148e-001 -4.517552e-001 7.209753e-002 1.170155e-002 8.181855e-002 -2.549795e-002
272368750 5.886503e-002 -1.042445e-001 6.308568e-002 -9.963968e-002 -5.701277e-001 -4.622938e-001 -1.546981e-001 2.289410e-001
6.741656e-002 -9.598295e-002 6.323911e-002 -1.120771e-001 -1.600852e-001 2.280174e-001 -5.573194e-001 -4.593686e-001
-5.731550e-001 -4.579143e-001 -1.492643e-001 2.351004e-001 3.201046e-002 -1.351506e-001 4.513790e-002 -1.057618e-001
-1.558741e-001 2.281954e-001 -5.722228e-001 -4.405334e-001 4.565411e-002 -1.059143e-001 4.872569e-002 -1.193401e-001
284862500 1.109003e-001 -6.350033e-002 1.226218e-001 -2.494505e-002 -2.793049e-001 6.601621e-001 2.829657e-001 8.933505e-002
1.225500e-001 -2.078341e-002 1.100948e-001 -4.829252e-002 2.857901e-001 9.690114e-002 -2.796623e-001 6.477624e-001
-2.744380e-001 6.615730e-001 2.895935e-001 8.339658e-002 9.655265e-002 -6.310878e-002 1.223391e-001 -2.063317e-002
2.826306e-001 9.088154e-002 -2.574736e-001 6.566022e-001 1.239615e-001 -1.873920e-002 1.128390e-001 -5.572689e-002
297356250 2.900904e-002 -7.550591e-002 2.358358e-002 -6.344510e-002 7.116110e-001 1.014574e-001 2.371091e-002 -3.017281e-001
2.748315e-002 -6.230337e-002 2.010961e-002 -7.527018e-002 3.058596e-002 -3.029802e-001 7.006289e-001 1.056084e-001
7.117637e-001 9.587810e-002 1.560630e-002 -3.037638e-001 1.409835e-002 -9.940778e-002 1.340207e-002 -6.234511e-002
2.556353e-002 -3.016574e-001 7.035797e-001 8.100834e-002 1.315165e-002 -6.203396e-002 2.231971e-002 -7.561166e-002
309850000 1.001777e-001 -9.669269e-002 1.273264e-001 -8.092349e-002 -8.557572e-002 -6.903201e-001 -3.043092e-001 7.087032e-002
1.294503e-001 -7.503893e-002 1.096237e-001 -9.810277e-002 -3.079443e-001 6.583909e-002 -7.774110e-002 -6.798506e-001
-9.021909e-002 -6.891639e-001 -3.038824e-001 8.062394e-002 9.942344e-002 -1.273159e-001 1.190528e-001 -8.758794e-002
-3.047836e-001 6.891933e-002 -1.015099e-001 -6.763195e-001 1.212557e-001 -8.678323e-002 1.058298e-001 -1.120976e-001
322343750 4.678762e-002 -4.761415e-002 4.273447e-002 -1.595223e-002 -6.414093e-001 2.711112e-001 1.466330e-001 2.948566e-001
4.448134e-002 -1.500911e-002 4.346135e-002 -3.727460e-002 1.400986e-001 3.006234e-001 -6.340118e-001 2.625704e-001
-6.385956e-001 2.752199e-001 1.546576e-001 2.926540e-001 4.125257e-002 -6.099435e-002 3.863152e-002 -1.237175e-002
1.444282e-001 2.960788e-001 -6.243300e-001 2.844094e-001 3.829161e-002 -1.079293e-002 4.602708e-002 -3.913933e-002
334837500 6.575854e-002 -1.237177e-001 7.976714e-002 -1.197424e-001 4.097446e-001 5.415110e-001 2.396615e-001 -2.235965e-001
8.432754e-002 -1.150817e-001 5.827370e-002 -1.339552e-001 2.454946e-001 -2.173240e-001 3.996744e-001 5.379046e-001
4.131918e-001 5.385608e-001 2.342327e-001 -2.289305e-001 6.148986e-002 -1.492299e-001 6.950014e-002 -1.243534e-001
2.416429e-001 -2.215476e-001 4.172642e-001 5.241396e-001 7.163199e-002 -1.244548e-001 6.024549e-002 -1.316849e-001
347331250 8.253926e-002 -4.561859e-002 1.065229e-001 -1.122991e-002 3.967006e-001 -5.370653e-001 -2.983014e-001 -1.843928e-001
1.067813e-001 -8.240652e-003 8.438756e-002 -4.111338e-002 -2.951116e-001 -1.933120e-001 3.950650e-001 -5.270796e-001
3.931501e-001 -5.389929e-001 -3.032837e-001 -1.789458e-001 9.918415e-002 -7.281421e-002 9.573024e-002 -2.153242e-002
-2.969490e-001 -1.870189e-001 3.774975e-001 -5.392131e-001 9.665342e-002 -1.877217e-002 9.750103e-002 -6.557168e-002
359825000 2.852837e-002 -1.184137e-001 2.905398e-002 -1.124035e-001 -6.138458e-001 -2.562645e-001 -1.049620e-001 3.287660e-001
3.465811e-002 -1.102171e-001 1.613070e-002 -1.095723e-001 -1.152618e-001 3.263011e-001 -6.063222e-001 -2.574678e-001
-6.152090e-001 -2.523396e-001 -9.893266e-002 3.309636e-001 1.128285e-002 -1.276342e-001 1.275480e-002 -1.067246e-001
-1.077916e-001 3.279248e-001 -6.143403e-001 -2.367022e-001 1.353284e-002 -1.074027e-001 3.733397e-003 -1.138534e-001
372318750 1.026377e-001 -9.251494e-002 1.289709e-001 -7.023672e-002 -7.494517e-002 6.388193e-001 3.629579e-001 4.370105e-003
1.307586e-001 -6.538143e-002 1.001720e-001 -9.315879e-002 3.643023e-001 1.501474e-002 -7.792791e-002 6.309386e-001
-7.140976e-002 6.390674e-001 3.640598e-001 -2.208730e-003 1.034800e-001 -1.080671e-001 1.161896e-001 -7.605784e-002
3.630922e-001 7.609884e-003 -5.769231e-002 6.325769e-001 1.185242e-001 -7.401389e-002 9.702332e-002 -1.119741e-001
384812500 1.392755e-002 -7.231289e-002 2.393580e-002 -5.721210e-002 6.418847e-001 -9.449854e-002 -7.798803e-002 -3.625652e-001
2.754993e-002 -5.628913e-002 1.252863e-002 -6.633372e-002 -6.722766e-002 -3.663767e-001 6.348960e-001 -9.192543e-002
6.409586e-001 -9.814188e-002 -8.424481e-002 -3.624237e-001 1.516563e-002 -5.827317e-002 3.754024e-003 -5.036776e-002
-7.476232e-002 -3.633735e-001 6.314692e-001 -1.116337e-001 3.299082e-003 -5.013115e-002 9.913601e-003 -5.948314e-002
397306250 7.460715e-002 -1.422619e-001 9.736404e-002 -1.328806e-001 -2.427602e-001 -5.753765e-001 -3.238669e-001 1.830236e-001
1.019758e-001 -1.282682e-001 6.369375e-002 -1.354618e-001 -3.314621e-001 1.740149e-001 -2.384695e-001 -5.709513e-001
-2.455944e-001 -5.742151e-001 -3.225875e-001 1.892910e-001 7.185749e-002 -1.419799e-001 8.829432e-002 -1.263943e-001
-3.257043e-001 1.800768e-001 -2.559592e-001 -5.628254e-001 9.116501e-002 -1.258271e-001 5.774989e-002 -1.518697e-001
409800000 5.244666e-002 -4.460904e-002 6.617156e-002 -3.538263e-002 -4.831610e-001 3.942588e-001 2.697160e-001 2.865781e-001
6.819803e-002 -3.373977e-002 5.291081e-002 -4.483196e-002 2.623748e-001 2.958484e-001 -4.780752e-001 3.890546e-001
-4.809858e-001 3.961431e-001 2.750916e-001 2.833085e-001 5.880085e-002 -4.006375e-002 5.261371e-002 -2.981991e-002
2.671247e-001 2.892904e-001 -4.657633e-001 4.029369e-001 5.271552e-002 -2.803544e-002 5.987730e-002 -4.786092e-002
422293750 1.385334e-002 -1.460769e-001 3.816270e-002 -1.417001e-001 4.880302e-001 3.701952e-001 2.004591e-001 -3.281395e-001
4.353889e-002 -1.389509e-001 1.671008e-002 -1.386321e-001 2.108979e-001 -3.252495e-001 4.831366e-001 3.661533e-001
4.896644e-001 3.681334e-001 1.965150e-001 -3.338367e-001 5.702177e-003 -1.367838e-001 2.743274e-002 -1.385238e-001
2.036238e-001 -3.262811e-001 4.929095e-001 3.523348e-001 2.950441e-002 -1.391812e-001 -3.615927e-004 -1.497163e-001
434787500 8.960466e-002 -8.112500e-002 1.028340e-001 -6.594927e-002 2.102784e-001 -5.587116e-001 -3.930042e-001 -1.091686e-001
1.048728e-001 -6.319829e-002 8.220100e-002 -8.035184e-002 -3.920717e-001 -1.210949e-001 2.075987e-001 -5.528769e-001
2.081593e-001 -5.592277e-001 -3.964285e-001 -1.044999e-001 8.062259e-002 -7.974087e-002 9.242763e-002 -6.234279e-002
-3.921995e-001 -1.127875e-001 1.921868e-001 -5.581348e-001 9.379829e-002 -6.026192e-002 8.577677e-002 -9.505457e-002
447281250 -1.469107e-002 -9.478208e-002 8.467775e-003 -1.045103e-001 -5.951046e-001 -6.607799e-002 -1.527103e-002 4.064338e-001
1.312126e-002 -1.034416e-001 -1.264325e-002 -9.694956e-002 -2.515594e-002 4.078050e-001 -5.889986e-001 -6.407353e-002
-5.954918e-001 -6.375843e-002 -8.523381e-003 4.082015e-001 -3.516362e-002 -8.357757e-002 -9.261226e-003 -9.680774e-002
-1.910812e-002 4.063570e-001 -5.902962e-001 -4.854299e-002 -8.661964e-003 -9.744226e-002 -2.980767e-002 -9.340069e-002
459775000 8.087491e-002 -1.397822e-001 9.682075e-002 -1.249445e-001 8.874070e-002 5.665816e-001 4.020538e-001 -1.093699e-001
1.004237e-001 -1.218336e-001 7.525387e-002 -1.352031e-001 4.072306e-001 -9.974380e-002 8.949493e-002 5.601952e-001
9.043865e-002 5.663769e-001 4.026870e-001 -1.156680e-001 6.012769e-002 -1.392884e-001 8.653041e-002 -1.233583e-001
4.033263e-001 -1.056122e-001 1.040062e-001 5.574604e-001 8.900905e-002 -1.222799e-001 6.913424e-002 -1.493491e-001
472268750 1.081207e-002 -6.174780e-002 2.010215e-002 -6.575166e-002 5.260326e-001 -2.398850e-001 -2.036453e-001 -3.779932e-001
2.355371e-002 -6.508854e-002 5.149700e-003 -5.618982e-002 -1.938062e-001 -3.843975e-001 5.190860e-001 -2.398828e-001
5.252718e-001 -2.415535e-001 -2.087408e-001 -3.760501e-001 -1.523924e-002 -5.165744e-002 4.917826e-003 -5.378284e-002
-1.997111e-001 -3.802819e-001 5.125995e-001 -2.531149e-001 4.850367e-003 -5.338813e-002 5.788421e-003 -5.152223e-002
484762500 2.279604e-002 -1.522712e-001 5.358236e-002 -1.547937e-001 -3.492723e-001 -4.359864e-001 -3.030094e-001 3.010961e-001
5.824770e-002 -1.524286e-001 2.469319e-002 -1.598476e-001 -3.103970e-001 2.942968e-001 -3.458683e-001 -4.292603e-001
-3.503870e-001 -4.352276e-001 -2.988383e-001 3.056489e-001 -1.367093e-002 -1.648429e-001 3.291713e-002 -1.491875e-001
-3.061775e-001 2.979347e-001 -3.563026e-001 -4.204188e-001 3.522855e-002 -1.493167e-001 7.762040e-003 -1.693015e-001
497256250 5.916102e-002 -7.302866e-002 6.212084e-002 -7.024916e-002 -3.136034e-001 4.517665e-001 3.871826e-001 2.268035e-001
6.505504e-002 -6.909374e-002 5.591387e-002 -6.645483e-002 3.820608e-001 2.371236e-001 -3.073691e-001 4.483882e-001
-3.126485e-001 4.521264e-001 3.899091e-001 2.231207e-001 3.720347e-002 -6.333829e-002 5.590634e-002 -5.441177e-002
3.847941e-001 2.308865e-001 -2.968186e-001 4.553082e-001 5.678862e-002 -5.283749e-002 5.884976e-002 -6.458973e-002
509750000 -1.991161e-002 -1.320624e-001 3.407676e-004 -1.424677e-001 5.069672e-001 1.955620e-001 1.194303e-001 -4.259594e-001
4.972077e-003 -1.415934e-001 -3.813714e-002 -1.300041e-001 1.300343e-001 -4.210804e-001 5.035564e-001 1.909529e-001
5.073950e-001 1.946833e-001 1.154184e-001 -4.247657e-001 -6.424914e-002 -1.412751e-001 -1.619907e-002 -1.304727e-001
1.238223e-001 -4.248252e-001 5.073208e-001 1.795273e-001 -1.484245e-002 -1.312411e-001 -3.956793e-002 -1.272593e-001
522243750 6.155254e-002 -1.286544e-001 8.366785e-002 -1.193418e-001 4.600387e-002 -5.197611e-001 -4.575855e-001 8.005025e-003
8.706293e-002 -1.173878e-001 7.445026e-002 -1.140430e-001 -4.598901e-001 -4.259362e-003 4.141293e-002 -5.128760e-001
4.544860e-002 -5.197505e-001 -4.591988e-001 1.102663e-002 5.338816e-002 -1.287282e-001 7.393152e-002 -1.056919e-001
-4.578538e-001 3.157979e-003 3.049841e-002 -5.135152e-001 7.585541e-002 -1.043606e-001 7.870560e-002 -1.356996e-001
