# Hz S  RI   R 50
10000000 1.988155e-001 -1.837721e-002 1.352923e-001 4.601958e-003 5.583237e-002 -9.193308e-001 -1.298825e-002 2.984408e-002
1.351681e-001 4.624571e-003 1.886407e-001 -1.738903e-002 -1.318148e-002 3.081275e-002 5.614101e-002 -9.209084e-001
5.548819e-002 -9.192827e-001 -1.297489e-002 2.993661e-002 1.992356e-001 -2.275861e-002 1.352048e-001 4.223016e-003
-1.313100e-002 3.075654e-002 5.554882e-002 -9.206524e-001 1.352334e-001 4.169416e-003 1.895109e-001 -2.231977e-002
22493750 2.885335e-002 3.463433e-002 1.970070e-002 3.178892e-002 -9.026491e-001 2.228971e-001 1.375300e-002 3.215309e-002
1.983648e-002 3.208223e-002 3.007776e-002 3.399565e-002 1.395922e-002 3.245580e-002 -9.017084e-001 2.215556e-001
-9.024188e-001 2.231710e-001 1.378684e-002 3.217173e-002 2.725307e-002 3.348474e-002 2.022733e-002 3.144493e-002
1.391973e-002 3.235076e-002 -9.013892e-001 2.226756e-001 2.030456e-002 3.171054e-002 2.959132e-002 3.383781e-002
34987500 1.385198e-001 -8.209403e-002 1.017650e-001 -5.280728e-002 4.424084e-001 7.816464e-001 2.108544e-002 -3.727745e-002
1.019187e-001 -5.264694e-002 1.334005e-001 -7.789602e-002 2.044875e-002 -3.800054e-002 4.408061e-001 7.831083e-001
4.429409e-001 7.813876e-001 2.085107e-002 -3.749083e-002 1.362095e-001 -8.823771e-002 9.924269e-002 -5.602628e-002
2.043530e-002 -3.775486e-002 4.427312e-001 7.815674e-001 9.919711e-002 -5.610463e-002 1.295426e-001 -8.405612e-002
47481250 1.158324e-001 5.874679e-002 9.009099e-002 5.680260e-002 6.047592e-001 -6.540256e-001 -6.439126e-002 -3.602122e-002
9.065947e-002 5.719216e-002 1.116068e-001 5.769185e-002 -6.524561e-002 -3.641179e-002 6.075754e-001 -6.502468e-001
6.040964e-001 -6.544527e-001 -6.443320e-002 -3.608175e-002 1.110425e-001 6.221121e-002 9.053249e-002 5.586986e-002
-6.519004e-002 -3.605518e-002 6.048076e-001 -6.521054e-001 9.110636e-002 5.588480e-002 1.100212e-001 5.780937e-002
59975000 5.674562e-002 -7.701547e-002 4.007012e-002 -4.582747e-002 -7.849189e-001 -4.095094e-001 -2.165571e-002 6.875483e-002
3.997181e-002 -4.558015e-002 5.808845e-002 -6.983751e-002 -2.101974e-002 6.919963e-002 -7.817516e-001 -4.135663e-001
-7.852817e-001 -4.086019e-001 -2.086233e-002 6.908667e-002 5.924060e-002 -7.777883e-002 3.651095e-002 -4.706196e-002
-2.132822e-002 6.870394e-002 -7.834671e-001 -4.091755e-001 3.624397e-002 -4.688430e-002 5.250854e-002 -7.331841e-002
72468750 1.674784e-001 5.149265e-003 1.357879e-001 6.861399e-003 -1.592316e-001 8.463082e-001 9.801282e-002 -7.033374e-003
1.362528e-001 7.048732e-003 1.599742e-001 2.194981e-003 9.824331e-002 -7.608250e-003 -1.667972e-001 8.444829e-001
-1.582185e-001 8.466815e-001 9.762555e-002 -7.618500e-003 1.682658e-001 -3.352309e-003 1.345067e-001 2.515706e-003
9.849544e-002 -7.839731e-003 -1.607769e-001 8.453450e-001 1.347627e-001 2.073403e-003 1.596496e-001 -2.500987e-003
84962500 3.718055e-002 -6.184376e-003 3.076943e-002 1.522389e-002 8.604735e-001 -8.446784e-002 -2.270108e-002 -1.098346e-001
3.056532e-002 1.626885e-002 3.914901e-002 -3.176906e-003 -2.247361e-002 -1.100921e-001 8.602111e-001 -7.584873e-002
8.606459e-001 -8.619136e-002 -2.336774e-002 -1.094322e-001 3.735020e-002 -7.954434e-003 2.760195e-002 1.572780e-002
-2.285043e-002 -1.101727e-001 8.592961e-001 -8.404310e-002 2.759502e-002 1.639905e-002 3.561972e-002 -3.257738e-003
97456250 1.512934e-001 -6.964303e-002 1.149338e-001 -5.561731e-002 -3.039641e-001 -7.857236e-001 -9.907085e-002 6.466394e-002
1.156172e-001 -5.513909e-002 1.421245e-001 -6.511047e-002 -9.935805e-002 6.478724e-002 -2.939542e-001 -7.897920e-001
-3.060070e-001 -7.851730e-001 -9.848141e-002 6.535486e-002 1.450016e-001 -8.052078e-002 1.104226e-001 -5.740375e-002
-9.901552e-002 6.550418e-002 -3.032809e-001 -7.859636e-001 1.104274e-001 -5.776212e-002 1.346418e-001 -7.568817e-002
109950000 9.331598e-002 2.778230e-002 8.534581e-002 4.393556e-002 -6.564158e-001 5.166081e-001 1.058140e-001 1.006333e-001
8.568422e-002 4.558700e-002 9.774122e-002 3.163607e-002 1.057874e-001 1.013894e-001 -6.624227e-001 5.069305e-001
-6.547805e-001 5.188290e-001 1.065892e-001 9.938883e-002 9.099222e-002 2.382706e-002 8.730666e-002 4.117660e-002
1.066561e-001 1.007940e-001 -6.552866e-001 5.152253e-001 8.792180e-002 4.175995e-002 9.193929e-002 3.040627e-002
122443750 8.033177e-002 -8.368962e-002 5.841785e-002 -6.226597e-002 6.671885e-001 4.957121e-001 7.242703e-002 -1.262550e-001
5.867759e-002 -6.168639e-002 8.419433e-002 -7.302675e-002 7.286662e-002 -1.268116e-001 6.587585e-001 5.062164e-001
6.690157e-001 4.932787e-001 7.075141e-002 -1.276688e-001 7.207954e-002 -8.867573e-002 4.964391e-002 -6.292477e-002
7.197729e-002 -1.265185e-001 6.658790e-001 4.953398e-001 4.902248e-002 -6.285803e-002 6.180991e-002 -8.589438e-002
134937500 1.552990e-001 -1.490676e-003 1.344121e-001 8.614030e-004 2.759075e-001 -7.579619e-001 -1.673076e-001 -2.771381e-002
1.355368e-001 2.827326e-003 1.540164e-001 -8.749470e-003 -1.668875e-001 -2.869359e-002 2.899620e-001 -7.526125e-001
2.725122e-001 -7.587367e-001 -1.663491e-001 -2.540312e-002 1.540311e-001 -1.314527e-002 1.329158e-001 -3.999545e-003
-1.680556e-001 -2.723589e-002 2.761419e-001 -7.569378e-001 1.339142e-001 -3.811318e-003 1.465575e-001 -3.539870e-003
147431250 4.926442e-002 -4.427610e-002 3.075878e-002 -7.372062e-003 -8.107525e-001 -5.753327e-002 3.008928e-003 1.799901e-001
3.031548e-002 -5.937433e-003 5.189858e-002 -3.635061e-002 1.145980e-003 1.802938e-001 -8.088864e-001 -7.288793e-002
-8.112328e-001 -5.276080e-002 5.688203e-003 1.796188e-001 4.249288e-002 -4.758200e-002 2.726813e-002 -4.316908e-003
3.152707e-003 1.804072e-001 -8.100429e-001 -5.644511e-002 2.662201e-002 -3.527607e-003 3.912150e-002 -3.576468e-002
159925000 1.485373e-001 -6.991217e-002 1.300218e-001 -5.997340e-002 1.547221e-001 7.730442e-001 1.727788e-001 -6.853601e-002
1.318687e-001 -5.803694e-002 1.437721e-001 -7.182830e-002 1.733602e-001 -6.636595e-002 1.368504e-001 7.760800e-001
1.589603e-001 7.723636e-001 1.710200e-001 -7.061138e-002 1.372329e-001 -8.202367e-002 1.224369e-001 -6.523121e-002
1.730273e-001 -6.936854e-002 1.552170e-001 7.725921e-001 1.229873e-001 -6.550920e-002 1.337870e-001 -7.166399e-002
172418750 8.410607e-002 2.901756e-003 7.790231e-002 2.845932e-002 6.906594e-001 -3.732880e-001 -1.213377e-001 -1.743743e-001
7.771062e-002 3.173797e-002 8.599758e-002 7.904843e-003 -1.186041e-001 -1.770977e-001 6.991591e-001 -3.558886e-001
6.882705e-001 -3.778750e-001 -1.238313e-001 -1.721569e-001 8.043081e-002 -4.689420e-005 7.714946e-002 2.933835e-002
-1.217409e-001 -1.748933e-001 6.892141e-001 -3.740698e-001 7.726603e-002 3.076840e-002 8.230490e-002 8.529846e-003
184912500 1.017965e-001 -1.051559e-001 7.512776e-002 -8.670721e-002 -5.285881e-001 -5.661036e-001 -1.294504e-001 1.611094e-001
7.703491e-002 -8.559722e-002 9.823604e-002 -1.009075e-001 -1.322840e-001 1.592301e-001 -5.138273e-001 -5.796039e-001
-5.324427e-001 -5.628605e-001 -1.267554e-001 1.629454e-001 8.380303e-002 -1.121598e-001 6.276853e-002 -8.578790e-002
-1.294337e-001 1.614905e-001 -5.290740e-001 -5.655466e-001 6.291339e-002 -8.606029e-002 8.175662e-002 -1.048157e-001
197406250 1.336360e-001 -2.332320e-002 1.338627e-001 1.363564e-004 -3.788962e-001 6.547018e-001 2.165768e-001 8.485601e-002
1.351613e-001 4.655691e-003 1.347907e-001 -1.702902e-002 2.161989e-001 8.905376e-002 -3.969882e-001 6.435442e-001
-3.745099e-001 6.567723e-001 2.180662e-001 8.100404e-002 1.285519e-001 -2.873667e-002 1.318501e-001 -2.777099e-003
2.173350e-001 8.503738e-002 -3.783207e-001 6.541635e-001 1.331641e-001 -1.472894e-003 1.315074e-001 -2.556415e-002
209900000 5.681202e-002 -7.731147e-002 3.245622e-002 -5.218582e-002 7.352275e-001 1.936075e-001 3.561119e-002 -2.323218e-001
3.298097e-002 -5.117806e-002 5.743899e-002 -6.873017e-002 3.961556e-002 -2.320916e-001 7.292227e-001 2.134118e-001
7.360556e-001 1.881732e-001 3.118210e-002 -2.327509e-001 3.574590e-002 -7.757526e-002 2.766883e-002 -4.063666e-002
3.609913e-002 -2.324521e-001 7.346459e-001 1.931778e-001 2.715018e-002 -4.014126e-002 3.400040e-002 -6.840448e-002
222393750 1.416465e-001 -8.457648e-002 1.397251e-001 -6.331018e-002 -1.201542e-002 -7.349291e-001 -2.415513e-001 4.537231e-002
1.429177e-001 -5.915086e-002 1.458108e-001 -7.822582e-002 -2.433726e-001 4.100636e-002 1.131923e-002 -7.344398e-001
-1.729561e-002 -7.344170e-001 -2.404813e-001 5.050669e-002 1.290505e-001 -8.690389e-002 1.340123e-001 -7.253697e-002
-2.420936e-001 4.546958e-002 -1.267392e-002 -7.341734e-001 1.354582e-001 -7.201739e-002 1.323679e-001 -8.437446e-002
234887500 6.615621e-002 -3.944046e-002 5.363779e-002 -3.280381e-003 -7.035360e-001 2.211136e-001 1.041907e-001 2.417024e-001
5.320174e-002 -2.001692e-004 6.977139e-002 -3.297803e-002 9.951550e-002 2.444179e-001 -7.098527e-001 1.984153e-001
-7.015752e-001 2.265489e-001 1.093748e-001 2.390386e-001 5.461161e-002 -3.515853e-002 5.459969e-002 4.779557e-003
1.037294e-001 2.425686e-001 -7.026892e-001 2.209408e-001 5.439248e-002 6.499094e-003 5.581212e-002 -2.590437e-002
247381250 9.582561e-002 -1.228839e-001 9.388653e-002 -1.084124e-001 3.844909e-001 6.107612e-001 1.975210e-001 -1.703814e-001
9.801373e-002 -1.061784e-001 1.012943e-001 -1.203569e-001 2.016260e-001 -1.666012e-001 3.632692e-001 6.232061e-001
3.892278e-001 6.079669e-001 1.937623e-001 -1.745723e-001 8.074084e-002 -1.233044e-001 8.332552e-002 -1.087931e-001
1.982881e-001 -1.702670e-001 3.838235e-001 6.106826e-001 8.450660e-002 -1.088420e-001 8.504962e-002 -1.217528e-001
259875000 1.048140e-001 -4.243727e-002 1.066358e-001 -3.219095e-003 4.647878e-001 -5.360762e-001 -2.366872e-001 -1.575542e-001
1.074580e-001 1.837839e-003 1.078292e-001 -4.201886e-002 -2.335252e-001 -1.628150e-001 4.839829e-001 -5.194237e-001
4.607457e-001 -5.396541e-001 -2.398050e-001 -1.516107e-001 9.871913e-002 -4.799297e-002 1.129198e-001 -8.178695e-003
-2.367407e-001 -1.588784e-001 4.660626e-001 -5.351651e-001 1.140324e-001 -6.065650e-003 9.893959e-002 -4.003803e-002
272368750 4.960674e-002 -1.114981e-001 4.145695e-002 -9.588253e-002 -6.369572e-001 -3.125016e-001 -9.365542e-002 2.654543e-001
4.418972e-002 -9.512583e-002 4.846465e-002 -1.050467e-001 -1.000084e-001 2.634856e-001 -6.256499e-001 -3.348319e-001
-6.394723e-001 -3.076636e-001 -8.777544e-002 2.669915e-001 2.452572e-002 -1.081860e-001 2.708826e-002 -8.674915e-002
-9.483745e-002 2.654254e-001 -6.364928e-001 -3.134208e-001 2.734246e-002 -8.688066e-002 2.672185e-002 -9.847208e-002
284862500 1.194643e-001 -9.104468e-002 1.328140e-001 -5.755497e-002 -1.187056e-001 6.780354e-001 2.975231e-001 8.370128e-003
1.364972e-001 -5.201935e-002 1.265738e-001 -8.746550e-002 2.975813e-001 1.524732e-002 -1.440965e-001 6.727815e-001
-1.137859e-001 6.785368e-001 2.967799e-001 1.515105e-003 1.070454e-001 -9.462691e-002 1.324668e-001 -6.696750e-002
2.982006e-001 9.981030e-003 -1.209178e-001 6.770790e-001 1.345422e-001 -6.546041e-002 1.154311e-001 -8.551165e-002
297356250 4.076985e-002 -7.538716e-002 3.015638e-002 -4.771488e-002 6.886860e-001 -7.142888e-002 -6.153519e-002 -3.003656e-001
3.113652e-002 -4.602040e-002 4.160982e-002 -6.665647e-002 -5.376334e-002 -3.022772e-001 6.905563e-001 -4.465399e-002
6.877633e-001 -7.668071e-002 -6.823319e-002 -2.984978e-001 2.210459e-002 -6.476902e-002 2.504847e-002 -3.361253e-002
-5.987764e-002 -3.010593e-001 6.881068e-001 -6.918382e-002 2.454401e-002 -3.277053e-002 2.759593e-002 -5.354246e-002
309850000 8.705167e-002 -1.368169e-001 1.047638e-001 -1.142931e-001 -2.412413e-001 -6.286140e-001 -2.697630e-001 1.500994e-001
1.105837e-001 -1.108373e-001 9.389803e-002 -1.347675e-001 -2.739537e-001 1.435855e-001 -2.152038e-001 -6.375139e-001
-2.455912e-001 -6.266843e-001 -2.658247e-001 1.558890e-001 7.534802e-002 -1.340508e-001 9.888941e-002 -1.189753e-001
-2.712423e-001 1.489514e-001 -2.377057e-001 -6.290228e-001 1.012512e-001 -1.187432e-001 8.332096e-002 -1.292388e-001
322343750 6.228884e-002 -6.042163e-002 6.615899e-002 -2.099349e-002 -5.300348e-001 4.093831e-001 2.257043e-001 2.379102e-001
6.692783e-002 -1.684304e-002 7.128375e-002 -5.590117e-002 2.198347e-001 2.438409e-001 -5.456455e-001 3.865803e-001
-5.268944e-001 4.129703e-001 2.308845e-001 2.318732e-001 6.131411e-002 -5.998717e-002 7.173937e-002 -1.698639e-002
2.242856e-001 2.401263e-001 -5.315509e-001 4.055309e-001 7.202882e-002 -1.475460e-002 6.697286e-002 -4.651311e-002
334837500 3.207023e-002 -1.354326e-001 4.606050e-002 -1.227694e-001 5.250345e-001 4.046315e-001 1.672729e-001 -2.785243e-001
5.101051e-002 -1.221921e-001 3.545670e-002 -1.354633e-001 1.749904e-001 -2.739299e-001 5.071271e-001 4.258672e-001
5.276160e-001 4.009583e-001 1.612440e-001 -2.812892e-001 2.148329e-002 -1.322631e-001 3.810799e-002 -1.220683e-001
1.696099e-001 -2.776098e-001 5.211061e-001 4.083308e-001 3.962802e-002 -1.224192e-001 2.776919e-002 -1.266977e-001
347331250 8.969206e-002 -8.097395e-002 1.111474e-001 -4.399817e-002 2.321506e-001 -6.039534e-001 -3.327930e-001 -8.588385e-002
1.139032e-001 -3.849144e-002 9.771391e-002 -7.835499e-002 -3.309341e-001 -9.455221e-002 2.571119e-001 -5.922146e-001
2.280713e-001 -6.051837e-001 -3.339267e-001 -7.876491e-002 8.374269e-002 -9.971669e-002 1.094256e-001 -5.831990e-002
-3.328259e-001 -8.866308e-002 2.377852e-001 -6.000354e-001 1.112146e-001 -5.618608e-002 9.391917e-002 -9.255357e-002
359825000 1.609996e-002 -9.805870e-002 1.698482e-002 -8.864175e-002 -6.467784e-001 -6.540874e-002 -5.007833e-003 3.461174e-001
1.958877e-002 -8.836496e-002 2.475622e-002 -9.560795e-002 -1.381060e-002 3.464407e-001 -6.416582e-001 -9.394722e-002
-6.472076e-001 -6.120113e-002 2.869140e-003 3.461065e-001 -9.474265e-003 -8.731377e-002 2.756029e-003 -7.024381e-002
-7.813575e-003 3.464364e-001 -6.441862e-001 -7.209200e-002 2.813893e-003 -7.039342e-002 -1.129201e-002 -8.301819e-002
372318750 8.012127e-002 -1.358681e-001 1.075245e-001 -1.035568e-001 1.079408e-001 6.199572e-001 3.396314e-001 -1.018808e-001
1.131110e-001 -9.941966e-002 8.861528e-002 -1.360772e-001 3.424142e-001 -9.307801e-002 7.915324e-002 6.224179e-001
1.114621e-001 6.193567e-001 3.367681e-001 -1.084978e-001 6.569986e-002 -1.329047e-001 1.040759e-001 -1.132995e-001
3.412216e-001 -9.910109e-002 9.889815e-002 6.192876e-001 1.069234e-001 -1.122073e-001 7.351639e-002 -1.305835e-001
384812500 3.295245e-002 -6.539769e-002 3.102981e-002 -4.534168e-002 5.657976e-001 -2.801335e-001 -1.871297e-001 -3.190392e-001
3.183745e-002 -4.338988e-002 4.219745e-002 -7.089929e-002 -1.797991e-001 -3.233550e-001 5.765648e-001 -2.519083e-001
5.640162e-001 -2.834307e-001 -1.942191e-001 -3.140040e-001 2.474104e-002 -5.555414e-002 3.319441e-002 -3.135422e-002
-1.844017e-001 -3.210901e-001 5.678756e-001 -2.701340e-001 3.306104e-002 -3.020051e-002 1.839955e-002 -4.859385e-002
397306250 3.105790e-002 -1.518637e-001 6.255908e-002 -1.345892e-001 -4.048033e-001 -4.645680e-001 -2.508106e-001 2.691446e-001
6.875587e-002 -1.331755e-001 3.541244e-002 -1.560012e-001 -2.576903e-001 2.624753e-001 -3.803029e-001 -4.823737e-001
-4.074194e-001 -4.627104e-001 -2.446967e-001 2.734277e-001 1.461334e-002 -1.439221e-001 4.968839e-002 -1.409709e-001
-2.537218e-001 2.672174e-001 -3.953929e-001 -4.698346e-001 5.214059e-002 -1.413887e-001 1.762930e-002 -1.421596e-001
409800000 7.435969e-002 -7.928846e-002 7.606439e-002 -4.901997e-002 -3.211844e-001 5.135688e-001 3.453951e-001 1.784628e-001
7.816660e-002 -4.486684e-002 8.006773e-002 -8.533833e-002 3.407976e-001 1.861708e-001 -3.452196e-001 4.945825e-001
-3.186706e-001 5.151812e-001 3.478908e-001 1.703250e-001 6.781020e-002 -7.348093e-002 8.829238e-002 -4.826315e-002
3.440103e-001 1.821813e-001 -3.296634e-001 5.046305e-001 8.933832e-002 -4.607667e-002 6.709014e-002 -6.361968e-002
422293750 -1.091727e-002 -1.264220e-001 1.383349e-002 -1.193306e-001 5.767182e-001 1.800487e-001 8.503946e-002 -3.756933e-001
1.776420e-002 -1.200164e-001 -6.038345e-003 -1.309375e-001 9.349098e-002 -3.734243e-001 5.641125e-001 2.084395e-001
5.776777e-001 1.774563e-001 7.754605e-002 -3.762432e-001 -2.293526e-002 -1.086213e-001 -2.500191e-003 -1.144669e-001
8.858315e-002 -3.754114e-001 5.696314e-001 1.918875e-001 -1.369774e-003 -1.153095e-001 -2.328081e-002 -1.089832e-001
434787500 7.659566e-002 -1.286976e-001 9.521510e-002 -9.155543e-002 1.032065e-002 -5.846357e-001 -3.986109e-001 3.000932e-002
9.957764e-002 -8.746334e-002 8.076779e-002 -1.336335e-001 -3.983009e-001 2.116053e-002 4.155843e-002 -5.801068e-001
7.851500e-003 -5.846153e-001 -3.961641e-001 3.745276e-002 6.304907e-002 -1.255574e-001 9.801712e-002 -1.049781e-001
-3.995979e-001 2.629169e-002 2.530923e-002 -5.808730e-001 1.003410e-001 -1.032807e-001 6.876115e-002 -1.181861e-001
447281250 -2.862636e-003 -8.358133e-002 4.335791e-003 -7.645397e-002 -5.681944e-001 1.494113e-001 1.272409e-001 3.865999e-001
6.034076e-003 -7.638697e-002 -2.571341e-003 -8.722661e-002 1.181839e-001 3.886105e-001 -5.722176e-001 1.171836e-001
-5.676943e-001 1.516677e-001 1.334496e-001 3.828665e-001 -1.507606e-002 -6.393256e-002 -3.808703e-004 -6.214102e-002
1.236756e-001 3.883651e-001 -5.686649e-001 1.324761e-001 -4.629093e-004 -6.217820e-002 -1.438037e-002 -6.301668e-002
459775000 3.416371e-002 -1.670434e-001 6.905742e-002 -1.350975e-001 2.835938e-001 4.931364e-001 3.344821e-001 -2.352110e-001
7.490654e-002 -1.333378e-001 3.763183e-002 -1.705316e-001 3.388308e-001 -2.274281e-001 2.530403e-001 5.058485e-001
2.852929e-001 4.923194e-001 3.289479e-001 -2.399131e-001 1.387963e-002 -1.526749e-001 5.722092e-002 -1.509139e-001
3.372746e-001 -2.324726e-001 2.660502e-001 4.988584e-001 6.001233e-002 -1.507313e-001 2.216900e-002 -1.522064e-001
472268750 3.623242e-002 -7.467850e-002 3.988718e-002 -5.437947e-002 3.871655e-001 -4.118687e-001 -3.271290e-001 -2.754649e-001
4.131242e-002 -5.207697e-002 3.964511e-002 -7.489385e-002 -3.199408e-001 -2.822067e-001 4.084447e-001 -3.852363e-001
3.859927e-001 -4.129214e-001 -3.303264e-001 -2.686997e-001 2.780708e-002 -6.082904e-002 4.661103e-002 -4.916234e-002
-3.247260e-001 -2.794968e-001 3.979354e-001 -3.956171e-001 4.692109e-002 -4.771650e-002 3.387303e-002 -5.413543e-002
484762500 -2.271471e-002 -1.512640e-001 1.971099e-002 -1.447354e-001 -4.873168e-001 -2.667994e-001 -1.746657e-001 3.847063e-001
2.510237e-002 -1.450409e-001 -1.966738e-002 -1.630446e-001 -1.826473e-001 3.791346e-001 -4.659771e-001 -2.955318e-001
-4.880186e-001 -2.657853e-001 -1.678510e-001 3.851214e-001 -4.576094e-002 -1.298720e-001 -4.004201e-003 -1.470280e-001
-1.789596e-001 3.835084e-001 -4.730194e-001 -2.837266e-001 -1.972253e-003 -1.480446e-001 -3.551987e-002 -1.363012e-001
497256250 6.189556e-002 -1.118524e-001 6.916878e-002 -8.567420e-002 -1.112006e-001 5.272841e-001 4.365628e-001 6.053846e-002
7.242844e-002 -8.253187e-002 6.650695e-002 -1.166687e-001 4.337348e-001 6.972678e-002 -1.447102e-001 5.151419e-001
-1.102928e-001 5.273138e-001 4.350864e-001 5.384860e-002 4.799734e-002 -1.035520e-001 7.537095e-002 -9.543532e-002
4.367555e-001 6.543783e-002 -1.325378e-001 5.179379e-001 7.720026e-002 -9.385587e-002 5.781845e-002 -9.741786e-002
509750000 -3.978614e-002 -1.037024e-001 -1.316737e-002 -1.083014e-001 5.402425e-001 -3.131683e-002 -4.720334e-002 -4.393915e-001
-1.027999e-002 -1.094443e-001 -4.535044e-002 -1.135713e-001 -3.686432e-002 -4.384773e-001 5.380746e-001 6.086084e-003
5.401592e-001 -3.212234e-002 -5.188165e-002 -4.362814e-001 -5.726460e-002 -7.579707e-002 -3.258996e-002 -9.783750e-002
-4.289053e-002 -4.404747e-001 5.377308e-001 -5.935086e-003 -3.202518e-002 -9.866940e-002 -4.936162e-002 -8.261366e-002
522243750 3.654225e-002 -1.622637e-001 5.794616e-002 -1.267285e-001 -1.688507e-001 -4.902795e-001 -4.120156e-001 1.785173e-001
6.300729e-002 -1.249126e-001 3.513541e-002 -1.635349e-001 -4.144081e-001 1.688590e-001 -1.327073e-001 -4.989019e-001
-1.692427e-001 -4.901080e-001 -4.079059e-001 1.822706e-001 1.523362e-002 -1.463701e-001 5.021939e-002 -1.449531e-001
-4.145875e-001 1.744729e-001 -1.434222e-001 -4.955647e-001 5.259064e-002 -1.444306e-001 2.236301e-002 -1.420322e-001
