# Hz S  RI   R 50
10000000 0.054251183 0.044328403 0.00080046721 -9.9887162e-005 0.014809587 0.025068399 0.00062860863 0.00013811595
0.00048799792 -5.4812557e-005 0.05254237 0.057065278 0.00076058571 0.00015925171 0.016996128 0.026907273
0.014535553 0.025003653 0.00072465895 0.00013376496 0.050646655 0.050152551 0.00056338549 0.00021374914
0.00064208714 0.00024458097 0.016976254 0.026923241 0.00059557089 2.9460907e-006 0.059500668 0.04370654
16243750 0.074005917 0.035471097 0.00066761137 1.1051572e-005 0.028904516 0.032622863 0.00088863762 3.0395227e-005
0.0007575432 -8.0262362e-005 0.079101421 0.049041286 0.00075724378 -2.6263349e-006 0.031621385 0.03474078
0.029005473 0.032621443 0.00078477076 -1.7783144e-005 0.073364802 0.040716041 0.00068723509 5.9937294e-005
0.00071537599 3.6576548e-005 0.03157955 0.034690283 0.00080671796 -7.6384138e-005 0.077401832 0.0335715
22487500 0.084663808 0.029373769 0.00079453795 -8.3566614e-005 0.044642091 0.032787666 0.0007390448 -0.00016378003
0.00074721471 -0.00014953969 0.095871754 0.040832222 0.00074627093 -9.0333e-005 0.046974789 0.035188321
0.044624105 0.032838125 0.00071288832 -2.8747612e-005 0.086850584 0.032294989 0.00070258591 -4.1722586e-005
0.00077902648 -6.9586735e-005 0.047055066 0.03528193 0.00077754498 -8.3485691e-005 0.085338108 0.028080033
28731250 0.094013847 0.014710626 0.00074158469 -0.00015350574 0.058315117 0.026449973 0.00071553851 -0.0001300937
0.00072996796 -0.00015889495 0.10846557 0.021599105 0.00072599069 -0.00018434947 0.059940003 0.029964775
0.058443919 0.026358567 0.00077662803 -0.00022633071 0.097057074 0.014051389 0.00072052376 -0.00012362427
0.00079632137 -0.0001534293 0.059927654 0.029936157 0.00072154094 -0.00012559986 0.092710458 0.015566792
34975000 0.096961059 -0.0017345191 0.00068550592 -0.00026719022 0.067340836 0.014955325 0.00067043438 -0.00023622619
0.00072839478 -0.00029364642 0.11132243 0.0012726198 0.00074163743 -0.00021549089 0.068366572 0.02094901
0.067408234 0.014828995 0.00070398609 -0.00026141739 0.098577999 -0.0064215884 0.00071797881 -0.00021853633
0.00069486507 -0.00025799547 0.068270348 0.020991489 0.00075579551 -0.00026619827 0.094351277 0.0034151378
41218750 0.092307359 -0.016695417 0.00072449143 -0.00041492062 0.069801979 0.00078057882 0.00063665188 -0.00039573736
0.0007155877 -0.00034196491 0.10420406 -0.014041131 0.0006957376 -0.0003914476 0.071264341 0.01155936
0.069875456 0.00064910983 0.00068563869 -0.00044403123 0.089978769 -0.023974027 0.00071321533 -0.00047423004
0.00069141947 -0.0003354915 0.07122393 0.011559132 0.00069398945 -0.00047353239 0.090602718 -0.005020563
47462500 0.081662357 -0.028334534 0.00069507438 -0.00063535461 0.064622648 -0.012154906 0.00072545069 -0.00070252741
0.00069518789 -0.00068755256 0.093210153 -0.019946825 0.00071469782 -0.00071174651 0.070611253 0.0063287253
0.064635932 -0.01227905 0.00068882323 -0.00071957824 0.074277185 -0.03567896 0.00068441045 -0.00079115457
0.00071920361 -0.00069894333 0.070702404 0.0063648368 0.00071073265 -0.00076920475 0.085656241 -0.0077684345
53706250 0.06616056 -0.031915583 0.00069863716 -0.00088950561 0.0523596 -0.018094737 0.00070953323 -0.00095599843
0.00063834933 -0.00083429104 0.090272151 -0.013845926 0.0006855746 -0.00091082574 0.075949632 0.0084618255
0.052342247 -0.01820487 0.00062354805 -0.00088597188 0.053816333 -0.036179341 0.0007514506 -0.0011434859
0.00070740224 -0.00096198043 0.075955704 0.0082569737 0.00079763395 -0.0011051578 0.08911185 -0.0024158109
59950000 0.054113753 -0.01744063 0.0033532931 -0.0034987875 0.041670963 -0.0058393865 0.0034950348 -0.0036671099
0.0034018448 -0.0035086034 0.11034971 -0.024031593 0.0033388778 -0.0036849026 0.1001329 -0.0089178653
0.041818097 -0.0057684514 0.0032493772 -0.0037756322 0.039352346 -0.015346188 0.0033662701 -0.0038910678
0.0034517997 -0.0037174604 0.10002445 -0.0089714937 0.0033487044 -0.0038704313 0.11379091 -0.017042983
66193750 0.086104535 -0.010249128 -0.0096021984 -0.0069390186 0.075370237 -6.2885949e-005 -0.0099734413 -0.0072928509
-0.0096269744 -0.0070013087 0.095137596 -0.052507658 -0.01013406 -0.0070612049 0.083942898 -0.045070108
0.075632922 -0.00020324407 -0.010158041 -0.0071317782 0.076185748 -0.0023623407 -0.010627558 -0.0074408222
-0.0099605983 -0.0072654649 0.083968885 -0.045046668 -0.010544535 -0.0074649588 0.0993708 -0.053061355
72437500 0.075328559 -0.054817952 -0.012943794 0.0040836004 0.063034482 -0.047201406 -0.013481637 0.0041392837
-0.013051699 0.0040991171 0.075301424 -0.059428941 -0.013607132 0.0044118343 0.058523908 -0.056463759
0.063026898 -0.047260746 -0.013630692 0.0044056443 0.067572445 -0.047358971 -0.014109729 0.0045328052
-0.013526372 0.0041224877 0.058484215 -0.056455713 -0.014084725 0.0044828532 0.075120427 -0.066364959
78681250 0.042762216 -0.056197304 -0.0052569089 0.011600871 0.027834823 -0.047039498 -0.0056754285 0.012048464
-0.0053023659 0.011651743 0.051211379 -0.053636219 -0.0054512317 0.012294146 0.02643086 -0.050419822
0.027845917 -0.047164693 -0.0054808711 0.012317193 0.037364073 -0.046838202 -0.005885832 0.012700628
-0.0056225453 0.012140179 0.02644603 -0.050389569 -0.0058305929 0.012799607 0.042694189 -0.063321911
84925000 0.025178285 -0.043203216 0.0011481369 0.011661536 0.0092071854 -0.030441184 0.0011429458 0.012211436
0.0012629019 0.011695869 0.040902175 -0.037459578 0.0013520757 0.012245229 0.0096792551 -0.028272243
0.0091942046 -0.030524991 0.001304678 0.012257478 0.023889091 -0.033636384 0.0011675112 0.012864942
0.0011140951 0.012277206 0.0096481275 -0.028243635 0.0012751392 0.012891456 0.024054809 -0.044100732
91168750 0.016844943 -0.027718386 0.006197202 0.009490924 0.0013738036 -0.010934344 0.0063762907 0.010117183
0.0061772899 0.0095250597 0.040255092 -0.022961998 0.0064514652 0.010051901 0.0068955901 -0.0041394695
0.0014284768 -0.010863734 0.0064896066 0.0099916672 0.019003814 -0.020628477 0.0066769393 0.010548018
0.0064304187 0.010081087 0.0068554501 -0.0041701365 0.0067218128 0.010607475 0.018547568 -0.022351248
97412500 0.020715958 -0.0083489083 0.0070603248 0.0058478569 0.0073365555 0.012674823 0.0074737701 0.0061766915
0.0070440113 0.0058649676 0.045525108 -0.012359559 0.0073699742 0.0061144857 0.015646586 0.016362917
0.0073502823 0.012741663 0.0073866514 0.0060923807 0.024719816 -0.004750255 0.0077450867 0.0065376293
0.007506019 0.0062295096 0.015650822 0.016289158 0.0077484362 0.0065816659 0.024072152 -0.0032461765
103656250 0.031625696 -0.0013707604 0.0092567392 0.004536679 0.02148217 0.022578215 0.0096862633 0.0047180182
0.0092397025 0.0045047398 0.051676683 -0.0047095274 0.0097182877 0.0048277383 0.030167257 0.03095961
0.021521783 0.022670899 0.0097041139 0.004795149 0.035284564 -0.0022205627 0.010198087 0.0050190543
0.0097359633 0.0047414736 0.030164702 0.030928422 0.010204416 0.0050145905 0.035270259 0.011053271
109900000 0.041365936 0.0001170335 0.01170072 0.00014730301 0.034780402 0.025966864 0.012224868 0.00019983697
0.01174221 0.00014627739 0.060952164 0.0023512801 0.012284132 0.0002820009 0.050255295 0.040180191
0.034862828 0.026025385 0.012288363 0.0002557952 0.042131707 -0.0039636628 0.012804233 0.00029412148
0.012216657 0.00015425688 0.050266504 0.04014967 0.012852148 0.00030061026 0.052361347 0.020755203
116143750 0.048583403 -0.0001131977 0.008873499 -0.0078938873 0.045286521 0.026642006 0.009351315 -0.0080595287
0.0088337762 -0.0078848097 0.076985098 0.0045039183 0.0093711233 -0.0081656026 0.076791488 0.038917471
0.045302361 0.026754165 0.0093473494 -0.0081150075 0.044988133 -0.0048284577 0.0099597136 -0.0083362674
0.0093314666 -0.0080808476 0.076730095 0.038900018 0.0099300873 -0.0083600124 0.076452002 0.020857515
122387500 0.058940537 -0.0023707373 -0.00056857994 -0.0069961781 0.058583416 0.024305554 -0.0002752236 -0.0074595846
-0.00061342231 -0.006961152 0.087518394 -0.0041850079 -0.00042864057 -0.0073387255 0.094411738 0.02227628
0.058684804 0.024460243 -0.00042621925 -0.0073202127 0.05197569 -0.005178649 -8.5185398e-005 -0.007791549
-0.00032593025 -0.0074468739 0.094310679 0.022252973 -0.00013093915 -0.0077728303 0.092629492 0.0058717085
128631250 0.06212547 -0.0094801746 -0.0019322345 -0.0014472323 0.063749105 0.016349752 -0.0020311936 -0.0018961898
-0.0019298636 -0.0013955889 0.094968498 -0.0066461721 -0.0018845509 -0.0015948457 0.10353563 0.0099177063
0.064002901 0.016507417 -0.0018428424 -0.0015281283 0.053181633 -0.0088418126 -0.0018918776 -0.0020605803
-0.0019895148 -0.0018321577 0.10340833 0.0099297389 -0.0019110398 -0.001991373 0.10107802 -0.0045222091
134875000 0.065477058 -0.0019887022 0.00050623697 -0.00013059926 0.068218835 0.022951582 0.00029086671 -0.00037378198
0.0005261511 -0.00013760514 0.11134838 -0.014075693 0.00066842546 -0.0003306568 0.11620255 -0.006002184
0.068522453 0.023132134 0.0007079927 -0.000288304 0.056996819 0.0035663203 0.00048302472 -0.00055375352
0.00035748261 -0.0003763366 0.11612958 -0.0059479666 0.00050307479 -0.00052677485 0.1144916 -0.018204814
141118750 0.095848426 -0.0070344224 -0.0017799679 -0.0032688654 0.099602655 0.01643689 -0.0020595058 -0.0035613142
-0.001778061 -0.0033058533 0.12335286 -0.035389513 -0.0017300677 -0.0036548891 0.12102516 -0.032499436
0.10002006 0.016387144 -0.0017414259 -0.0036534681 0.092095733 0.0015546951 -0.0020312325 -0.0039624153
-0.0020448542 -0.0036048682 0.12091573 -0.032410271 -0.0020344676 -0.0039395564 0.12146638 -0.043374252
147362500 0.1057926 -0.038361024 -0.009557128 0.0018767277 0.10859714 -0.017200669 -0.010287809 0.0019140509
-0.009570187 0.0018623876 0.12109903 -0.060612027 -0.009944004 0.0016819694 0.10954408 -0.058329757
0.10894275 -0.017303478 -0.0099562192 0.0016811118 0.10619684 -0.030474244 -0.010693048 0.0016772925
-0.010284351 0.0019345284 0.10946365 -0.05818883 -0.010722706 0.0016972871 0.11278722 -0.069208607
153606250 0.099077083 -0.060796592 -0.0081781829 0.015741175 0.099397674 -0.040816549 -0.0087770922 0.016622419
-0.0081601497 0.015815029 0.10908052 -0.076280788 -0.0086120125 0.016155547 0.089014806 -0.069087148
0.099629089 -0.041010462 -0.0085896673 0.016190331 0.10251161 -0.054673687 -0.0092153782 0.017055415
-0.0087155653 0.016750732 0.089053765 -0.06900645 -0.0091668544 0.017124835 0.095107526 -0.080969319
159850000 0.091386974 -0.078149222 0.0075189252 0.024353184 0.088431314 -0.058045685 0.007944284 0.025579477
0.0075922241 0.024409181 0.1026714 -0.085655943 0.0076235924 0.025197634 0.078052104 -0.06958361
0.088603541 -0.058256093 0.0076354574 0.025171109 0.096866585 -0.074858584 0.0080866404 0.026483461
0.0081146127 0.025617724 0.078112535 -0.069562502 0.0081643667 0.026445758 0.087437935 -0.083619922
166093750 0.077285551 -0.096895643 0.024597 0.015811926 0.070718154 -0.075479358 0.025794288 0.016270863
0.024729896 0.015818298 0.096041799 -0.10398213 0.025397299 0.016445296 0.071576178 -0.078380734
0.07086958 -0.075656697 0.025395958 0.016409161 0.082871139 -0.097280294 0.026643243 0.016883917
0.025949595 0.016200183 0.071566209 -0.078432791 0.026705427 0.016844332 0.083572075 -0.096663676
172337500 0.052584987 -0.10803464 0.02833003 0.00017513309 0.042515926 -0.08345931 0.029271578 -0.00018481101
0.028453514 0.00012801391 0.072686635 -0.1224843 0.029325914 0.00018943654 0.052183498 -0.088246584
0.04270212 -0.083685912 0.029320845 0.00019084071 0.055884905 -0.1109628 0.030318344 -0.00017234549
0.029365366 -0.00030653196 0.052074634 -0.088317193 0.030333785 -0.00021567989 0.064729586 -0.11188899
178581250 0.02563889 -0.10504856 0.023645479 -0.010187496 0.013359807 -0.075540513 0.024093518 -0.010757855
0.023722608 -0.01033707 0.03978746 -0.12326598 0.024499964 -0.010688135 0.026280934 -0.082739674
0.013352964 -0.075781673 0.024483556 -0.010629904 0.025599556 -0.10816447 0.024921298 -0.011202903
0.024083713 -0.010923935 0.026191154 -0.08273153 0.024890786 -0.011203524 0.037547708 -0.11168925
184825000 0.0044046962 -0.090110525 0.01721698 -0.015740847 -0.0079988167 -0.054488532 0.017434871 -0.016067432
0.01722642 -0.015801672 0.013571659 -0.10622806 0.017754877 -0.016265811 0.008870583 -0.062966958
-0.0080437269 -0.054621417 0.01778134 -0.016272906 0.001747353 -0.090938039 0.017987061 -0.016628062
0.017335543 -0.016072895 0.0086373976 -0.062857836 0.017954845 -0.016560411 0.017028548 -0.096859269
191068750 -0.0064736214 -0.069527119 0.012221233 -0.017166317 -0.016094543 -0.027709097 0.012573605 -0.017390089
0.012292481 -0.01720711 0.0014747116 -0.079220042 0.012675669 -0.017773891 0.0051174434 -0.03679407
-0.016166622 -0.027815755 0.012636572 -0.017708667 -0.0094413096 -0.066553444 0.012942224 -0.017911386
0.012564626 -0.017394328 0.005042599 -0.036592923 0.012965648 -0.017920403 0.0082853073 -0.074658707
197312500 -0.0099610314 -0.048510373 0.0093762726 -0.020050015 -0.014228552 -0.001742408 0.0099283271 -0.020467583
0.0094158035 -0.020087283 0.0081145056 -0.05340042 0.0097805383 -0.020650033 0.018400695 -0.01424162
-0.014313018 -0.001643471 0.0097929714 -0.020638078 -0.01119545 -0.041894685 0.0103379 -0.020962518
0.0098841852 -0.020492349 0.018356858 -0.014137178 0.010323163 -0.021041743 0.014936475 -0.054119907
203556250 -0.0069673024 -0.024265351 0.0032936351 -0.024126401 -0.0041491212 0.025022952 0.0035658369 -0.024870537
0.0033073686 -0.024137899 0.025269393 -0.038874086 0.003592697 -0.024859978 0.039979346 -0.0042282767
-0.0041466448 0.025316643 0.0036077378 -0.02486266 -0.0048380801 -0.015488119 0.003896137 -0.025605133
0.0035194887 -0.024922924 0.039954916 -0.0041585676 0.0038726339 -0.025665844 0.029199943 -0.043590304
209800000 0.012191225 0.00068211602 -0.0068311142 -0.026223211 0.022822097 0.049968362 -0.0070692101 -0.027123798
-0.0067990758 -0.026277915 0.042267364 -0.039087571 -0.0067575332 -0.027258091 0.059426151 -0.0093013644
0.023163723 0.050165121 -0.0067876377 -0.027261747 0.018259309 0.010111908 -0.0070326938 -0.028225027
-0.0071083591 -0.027057767 0.059440766 -0.0090925461 -0.0070073516 -0.028027371 0.041630164 -0.045279499
216043750 0.047667645 0.012706195 -0.014780737 -0.016131889 0.066428699 0.059463773 -0.015322098 -0.01633591
-0.014842066 -0.016140884 0.059682831 -0.039998848 -0.015297157 -0.016985718 0.077888586 -0.014034986
0.066865414 0.05955391 -0.015218275 -0.016893925 0.058304638 0.0214449 -0.015686033 -0.017096419
-0.015332474 -0.016313301 0.077799708 -0.013867536 -0.015810311 -0.017169533 0.054450728 -0.043618828
222287500 0.07581339 -0.0035707464 -0.022151724 -0.0087222531 0.10158136 0.03723577 -0.022515297 -0.0086820759
-0.022221347 -0.0086677615 0.067550667 -0.051413223 -0.023104262 -0.0092834588 0.08625409 -0.028763309
0.10186252 0.037202105 -0.02300361 -0.0092057176 0.09014713 0.0011127216 -0.023383705 -0.0091985343
-0.022637948 -0.0086774882 0.086172961 -0.028823534 -0.02351881 -0.0093592564 0.059824668 -0.050659318
228531250 0.095281526 -0.030176271 -0.020151023 -0.0018098879 0.12583047 0.0025831154 -0.020344729 -0.0018105388
-0.020217128 -0.0018215207 0.075631335 -0.068646252 -0.021003587 -0.0019629661 0.094927669 -0.049363323
0.12618415 0.0023241297 -0.020917336 -0.0019998448 0.11156227 -0.031071629 -0.02107336 -0.0020665452
-0.020277748 -0.0017590787 0.094958052 -0.049243674 -0.021073844 -0.0020079492 0.068933077 -0.062609203
234775000 0.099007323 -0.055665478 -0.017008971 0.0077782329 0.13086444 -0.031887129 -0.017106762 0.0078103812
-0.016957322 0.0077496553 0.076818891 -0.083759815 -0.017674249 0.0080335634 0.096216619 -0.06790518
0.13120688 -0.032242775 -0.017683176 0.0079720439 0.1137057 -0.062318001 -0.017775672 0.0079559712
-0.017030317 0.0078544645 0.096175082 -0.067791231 -0.017748421 0.008086727 0.073722474 -0.073332481
241018750 0.093621403 -0.081256643 -0.0099627599 0.013972607 0.12402798 -0.066219643 -0.010029006 0.014036184
-0.0099312449 0.013989134 0.072836533 -0.09968999 -0.010406692 0.014475509 0.091543898 -0.087861314
0.12431907 -0.066514648 -0.010413028 0.014443492 0.10468034 -0.092916563 -0.010416542 0.014464746
-0.0098439893 0.014030236 0.091647796 -0.087831877 -0.010301676 0.014561246 0.07525707 -0.087716043
247262500 0.076484129 -0.10329132 -0.0021822851 0.016270749 0.10260369 -0.095349573 -0.0022219669 0.016307207
-0.002144614 0.016281953 0.063755631 -0.1152364 -0.0022326356 0.016888184 0.08010684 -0.10765813
0.10278462 -0.095698677 -0.0022437081 0.016800342 0.081674539 -0.1179003 -0.0022646179 0.016868129
-0.0020783255 0.016237965 0.080128238 -0.10768807 -0.0022342412 0.016879819 0.071131229 -0.10507312
253506250 0.052964233 -0.11676086 0.0060600098 0.015192036 0.073240764 -0.11358005 0.0060873539 0.015365303
0.0060418295 0.01511641 0.048538268 -0.12839669 0.0063039726 0.015751859 0.060546059 -0.12422761
0.073354863 -0.11380904 0.006289647 0.015695803 0.051900554 -0.13188033 0.0063541853 0.015775749
0.0061790948 0.015160648 0.060494676 -0.12437784 0.0063471515 0.015711805 0.058881089 -0.12254179
259750000 0.02316346 -0.11906812 0.011455372 0.011800719 0.037155256 -0.1177115 0.01156429 0.011995505
0.011463086 0.011741333 0.027562898 -0.13476968 0.011797111 0.012125338 0.033384949 -0.13206029
0.037253894 -0.11793981 0.011826656 0.012042477 0.016545255 -0.13204797 0.012044181 0.012229434
0.011615938 0.011760463 0.033325046 -0.13203904 0.011978464 0.012124112 0.037388775 -0.13409559
265993750 -0.0045734788 -0.10808673 0.015840802 0.0085432529 0.0040915827 -0.1056688 0.016285526 0.0088386377
0.015745243 0.0084807789 0.0068326271 -0.13199867 0.016351299 0.0088753421 0.0057439995 -0.12727939
0.0038939319 -0.10596923 0.016334269 0.0087021254 -0.014541283 -0.11688118 0.016762299 0.0089719025
0.016018858 0.0086390115 0.0055699898 -0.12731151 0.016671345 0.0089829639 0.012681224 -0.13503534
272237500 -0.024110114 -0.087478131 0.021496052 0.0045817839 -0.019538078 -0.082347311 0.021999847 0.0045990204
0.021483518 0.0045731841 -0.0094150249 -0.12341626 0.022196712 0.0047285277 -0.016364617 -0.11307347
-0.01961869 -0.082429051 0.022222985 0.0047985781 -0.035197511 -0.092243157 0.022740807 0.0046904222
0.02200325 0.004646807 -0.016358446 -0.11289161 0.022731604 0.0047448445 -0.0091159251 -0.12695433
278481250 -0.034367021 -0.062855333 0.029299315 -0.0036998582 -0.031721774 -0.053910945 0.030040968 -0.0039361198
0.029368374 -0.0035100463 -0.020893574 -0.11201214 0.030376956 -0.0038034015 -0.030109476 -0.092722498
-0.031728189 -0.05381237 0.030269185 -0.003784593 -0.044578817 -0.06448821 0.031120984 -0.0040203207
0.030097486 -0.0038772221 -0.030204324 -0.092603929 0.03112006 -0.0041246465 -0.025268482 -0.11226768
284725000 -0.038941666 -0.032290149 0.030856119 -0.019720366 -0.036397349 -0.018895853 0.031444658 -0.020477794
0.031012658 -0.01975894 -0.030237725 -0.10054892 0.031966418 -0.020388674 -0.037295453 -0.071641803
-0.03630833 -0.018816119 0.031996738 -0.020475876 -0.047369521 -0.031872008 0.032642238 -0.021200337
0.031527724 -0.020518161 -0.037313066 -0.071460009 0.032532673 -0.021140561 -0.0369743 -0.095771253
290968750 -0.024116306 0.0042771432 0.021953696 -0.036839683 -0.019515472 0.021941658 0.022245951 -0.03772245
0.022087004 -0.036991116 -0.037330039 -0.085641682 0.022920663 -0.038202461 -0.037357308 -0.048521783
-0.019218294 0.022032643 0.022840766 -0.038183104 -0.029949032 0.0053204554 0.023189073 -0.039185379
0.022275237 -0.03782317 -0.037321597 -0.048380908 0.023177037 -0.039131306 -0.043009754 -0.075575463
297212500 0.014537429 0.024649631 0.0033088862 -0.046095829 0.022926757 0.045839135 0.0033840709 -0.047242831
0.0033263899 -0.046257347 -0.039750088 -0.066836335 0.0036128014 -0.048041943 -0.029342288 -0.025258362
0.023300799 0.045666777 0.0035612446 -0.04791664 0.011217386 0.024886683 0.0036706671 -0.049141299
0.0033634279 -0.047318466 -0.029154351 -0.025062524 0.0036528825 -0.049101301 -0.042093236 -0.053078871
303456250 0.053597465 0.016523292 -0.016995719 -0.045104906 0.066661254 0.039625671 -0.017337766 -0.046509225
-0.017060332 -0.045236316 -0.032671578 -0.046274055 -0.017574867 -0.047094636 -0.010250133 -0.0049420954
0.066877104 0.039257035 -0.017618543 -0.047105968 0.051256895 0.014475851 -0.017996626 -0.048596773
