# Hz S  RI   R 50
10000000 0.0471332 0.053525738 0.00017557353 -0.00032632324 0.014624234 0.026118506 0.0001970935 -8.4557061e-005
0.00031583093 -0.00027508722 0.048130687 0.055167522 0.00041511687 -7.2239825e-005 0.013351935 0.023599608
0.014555702 0.026223825 0.00041572581 -0.00025881833 0.058514584 0.036549255 0.00032355182 -6.6764413e-005
0.00030480596 -0.00010542494 0.013405853 0.023560774 0.00043871667 -5.2519357e-005 0.049124315 0.047692269
16243750 0.073060803 0.045905657 0.00034092012 -0.00027290391 0.028612681 0.0350409 9.8453027e-005 -0.00020087349
0.00026332634 -0.00032375692 0.074023202 0.046909332 0.00019454966 -0.00027886932 0.025963275 0.031499855
0.028843861 0.034932241 0.00017783233 -7.4259551e-005 0.072194353 0.026177213 0.00020749912 -0.00015504888
0.00019639455 -0.00023307794 0.025950531 0.031606056 0.00022389184 -0.00023563269 0.070540763 0.03757786
22487500 0.089586541 0.038429834 0.00010384592 -0.00013995008 0.044800442 0.036568291 0.00011452156 -0.00013107923
0.00015293357 -0.00029630869 0.090435505 0.038523898 1.8859986e-005 -0.00025013584 0.039860558 0.032960672
0.044932086 0.036512729 7.8681755e-005 -0.00024006241 0.077668644 0.022710646 8.568247e-005 -0.00024661174
9.3316819e-005 -0.00026784409 0.039866552 0.033018753 9.6127769e-005 -0.00021934189 0.081834793 0.0296183
28731250 0.10351775 0.019492086 5.4889417e-005 -0.0002841657 0.05949704 0.031888243 2.560168e-006 -0.0002846588
1.7085255e-005 -0.00024120774 0.1032012 0.018480314 5.5300257e-005 -0.00026563159 0.052212071 0.028917968
0.059769567 0.031896889 1.3730245e-005 -0.00025797056 0.084686063 0.01347265 2.2781067e-005 -0.00025069574
3.0847223e-005 -0.00028452164 0.052195836 0.028974859 4.899385e-005 -0.00023143178 0.090483569 0.012291077
34975000 0.10816082 -0.0020200131 -1.2684628e-005 -0.00027007525 0.0707772 0.021979863 -1.5137138e-005 -0.00024156056
-2.2323067e-005 -0.00027815113 0.10593111 -0.0033327122 -1.4123528e-005 -0.00027259611 0.06079495 0.020615542
0.070872292 0.02191719 -3.7564332e-005 -0.00030106789 0.089204215 0.003497913 4.3677787e-006 -0.00029910402
1.8044891e-005 -0.00027408864 0.060809806 0.020631962 5.8689989e-006 -0.00022076511 0.090589747 -0.0055382536
41218750 0.10294752 -0.021205716 -1.425354e-005 -0.00030908702 0.076494925 0.008680393 -1.0163025e-005 -0.00031303821
-5.1575797e-005 -0.00030812106 0.097741447 -0.021681909 -4.2444164e-005 -0.00030114819 0.064166456 0.010174933
0.076531269 0.0085879005 -2.0304738e-005 -0.00029522169 0.09010721 -0.0063844388 -2.3876555e-005 -0.00029662176
6.0144603e-006 -0.00027479761 0.064089194 0.010071706 -1.1963701e-006 -0.00027663296 0.08179567 -0.019487116
47462500 0.090965897 -0.035386231 3.4957658e-005 -0.00043407833 0.075952545 -0.0050166282 9.0968337e-005 -0.00046555168
6.8832989e-005 -0.00040113082 0.082287453 -0.032723673 5.7220121e-005 -0.00043790168 0.061319578 0.00075152441
0.076022521 -0.0051107332 5.4991593e-005 -0.00043471545 0.088403217 -0.016511871 9.2372866e-005 -0.0004123993
7.5825454e-005 -0.00038244727 0.061376233 0.00074273988 0.0001065266 -0.00041914883 0.067583732 -0.026903398
53706250 0.075431466 -0.041199915 0.00010657354 -0.00088026369 0.069444112 -0.015345924 0.00014029501 -0.00083913939
9.4730109e-005 -0.00089998863 0.063682869 -0.030844979 0.0001375788 -0.0007848235 0.053464521 -0.0015803792
0.069544308 -0.015367776 8.6398199e-005 -0.00089578325 0.083312377 -0.024615156 0.00012615207 -0.00085916917
0.00016744781 -0.00093081559 0.053522475 -0.0016718669 0.0001279409 -0.00081812363 0.051373318 -0.022334497
59950000 0.062130339 -0.035515048 -0.00079607812 -0.0023161951 0.060664795 -0.017735388 -0.00070733525 -0.0023568904
-0.00066616322 -0.0023303935 0.060251713 -0.0080731558 -0.00063900941 -0.002197681 0.056716789 0.012679541
0.060792107 -0.017904161 -0.00072150381 -0.0023540123 0.076628856 -0.02697962 -0.00067304581 -0.0024328178
-0.00069832953 -0.0024140619 0.05669779 0.012616258 -0.00069723825 -0.0024040979 0.051636677 0.0020597067
66193750 0.065490335 -0.02284272 -0.0042685741 -0.0011417925 0.063486584 -0.012836851 -0.0044136392 -0.0012834789
-0.0042984369 -0.0011985032 0.082223207 -0.02159643 -0.0043106251 -0.0011572809 0.080040373 -0.011822516
0.063517667 -0.012943207 -0.0043893484 -0.00121529 0.080796383 -0.024002155 -0.0044688773 -0.0012179136
-0.0044715852 -0.0012461273 0.080099493 -0.011720308 -0.004531973 -0.0012453786 0.077833295 -0.014871209
72437500 0.081117131 -0.042956442 -0.0035030905 0.0044245287 0.075051561 -0.037789673 -0.0036784641 0.0045719952
-0.0035174915 0.0043521328 0.070097864 -0.042493816 -0.0035654341 0.0042983498 0.061942119 -0.041212317
0.075187005 -0.037729431 -0.0035488615 0.0043368866 0.093225054 -0.051421419 -0.0036882714 0.0045704138
-0.0035929193 0.0046161497 0.061972652 -0.041238163 -0.0036088673 0.0045508347 0.065321863 -0.03996041
78681250 0.050504547 -0.057514951 0.00010769806 0.0033717961 0.038255155 -0.054320753 0.00012998463 0.0034228219
0.00010031561 0.0033862116 0.048333418 -0.036451969 7.4874959e-005 0.0034158076 0.030589422 -0.037710898
0.038272012 -0.054415297 0.00017460802 0.0033734331 0.055466965 -0.072630107 0.00015381133 0.0034778775
0.00013950716 0.0034757066 0.030545617 -0.037666157 0.00017029746 0.0034431438 0.041059535 -0.035564791
84925000 0.033232972 -0.044520147 0.00073993532 0.0019422256 0.014308394 -0.038103189 0.00080010196 0.0020043207
0.00073067471 0.0019565893 0.041633844 -0.025231516 0.0007890297 0.0019916035 0.015048757 -0.022798907
0.014316036 -0.038089786 0.0007102628 0.0019867776 0.027853075 -0.059900891 0.00081080006 0.0019944645
0.00078991166 0.0020317137 0.015068298 -0.022850286 0.00077162002 0.0020447932 0.032607451 -0.024605026
91168750 0.026321786 -0.031251211 -0.00088400999 0.00072531973 0.003931195 -0.017640647 -0.00092480937 0.00070361554
-0.0009045623 0.0006950082 0.039127111 -0.017592296 -0.00085723028 0.00076306507 0.0071297926 -0.0070712892
0.0039689126 -0.017676855 -0.00084520126 0.00077289733 0.013224654 -0.040565666 -0.00089490361 0.0007854852
-0.00094646774 0.00068527291 0.0071661812 -0.0070906729 -0.00086198625 0.0007907101 0.028658481 -0.016799796
97412500 0.028431308 -0.015544461 -0.00015708251 0.0060078953 0.0074132956 0.0064933291 -0.00016537642 0.0062306188
-0.00016658785 0.0060175466 0.039063647 -0.0049704039 -7.010984e-005 0.0059532728 0.0071561211 0.015842792
0.0074185398 0.0064691668 -6.1182822e-005 0.0059380122 0.013082005 -0.015873827 -5.9103681e-005 0.0061618979
-0.00018157577 0.0062248982 0.00714945 0.015802583 -6.7940106e-005 0.0061761886 0.028005699 -0.0030594277
103656250 0.034352347 -0.0090719033 0.0037772644 0.0040113428 0.01921078 0.019874301 0.0038617728 0.0041938559
0.003765234 0.0040638852 0.04428884 -0.00048137031 0.003745114 0.0039623845 0.018311374 0.029008185
0.019207433 0.019912144 0.0037094271 0.0039759562 0.022788377 -0.00097182539 0.003890835 0.0040884931
0.003895893 0.0042174859 0.018310672 0.028939405 0.0038993203 0.0041512367 0.034015797 0.0018258903
109900000 0.03972318 -0.0037351102 0.0048229522 0.0016262429 0.033726972 0.028133975 0.0050010136 0.0016577668
0.0048836288 0.0016234355 0.045713231 0.0034938108 0.004823612 0.0016492219 0.029383441 0.037532806
0.033763088 0.028163891 0.0047964868 0.0016061724 0.036629051 0.0083964746 0.0049742521 0.0016694268
0.0050152596 0.0017191516 0.029333867 0.037478723 0.0049465345 0.0016758061 0.036301918 0.005455005
116143750 0.046437927 -0.00023250369 0.0039808219 -0.000808415 0.049841192 0.029600989 0.0040587327 -0.0008408227
0.0039533484 -0.00078884722 0.046494253 0.011415537 0.0039722533 -0.00078899594 0.040960375 0.044525195
0.049942274 0.029608684 0.0039762775 -0.00082174287 0.052775882 0.0099705411 0.0040241745 -0.00080579676
0.0040675979 -0.00086119625 0.040913258 0.044495717 0.0040654042 -0.00080627267 0.037920009 0.012429755
122387500 0.05212855 0.0015279914 0.0022961814 -0.00039029933 0.062695496 0.024694629 0.0023531872 -0.00036434064
0.0023293365 -0.00039163919 0.051407713 0.022262204 0.0023310443 -0.00051394047 0.054626215 0.049117163
0.062762558 0.024686232 0.0022991931 -0.00046741852 0.065526351 0.0039632889 0.0023497578 -0.00046505829
0.00234999 -0.00033213582 0.054612476 0.049120482 0.0023766328 -0.00044750166 0.043266259 0.021719616
128631250 0.057685234 0.0058225924 0.0032317063 0.00022959846 0.070618793 0.0198271 0.0033294463 0.00034578715
0.003273709 0.00021574076 0.06245023 0.039946042 0.0030545844 0.00013424235 0.070053905 0.057646118
0.070712604 0.01983423 0.0030721168 0.000157737 0.07212124 -0.0025528425 0.0031609235 0.00026252909
0.0033454208 0.00034157507 0.069966137 0.057607081 0.0031646073 0.00024920117 0.054055158 0.038575187
134875000 0.072696917 0.014767395 0.0041797538 -0.0015506931 0.082684681 0.020393083 0.004408353 -0.001483097
0.0042195409 -0.0015586392 0.1033081 0.049182173 0.0040065786 -0.0014177916 0.11091813 0.056950472
0.082748726 0.020393785 0.0040042782 -0.0014054419 0.081235044 -0.0027302068 0.0041920957 -0.0013324247
0.0044347751 -0.0014622892 0.11078412 0.056944855 0.0041983053 -0.0013483712 0.096587129 0.046764147
141118750 0.10214672 0.0034893795 0.0031205842 -0.0023354662 0.10614976 0.0038821667 0.0034186388 -0.0022447475
0.0031037109 -0.0023251355 0.13567598 0.017237643 0.0030238021 -0.0021286043 0.1374974 0.015655281
0.10630102 0.0039227135 0.0030637255 -0.0021445793 0.10259017 -0.01796042 0.0033846837 -0.0020640693
0.0034280748 -0.0022749403 0.13743198 0.015707295 0.0033672643 -0.0020467315 0.12867126 0.010638099
147362500 0.11228874 -0.02292759 0.0040671192 -0.0036360095 0.10851424 -0.02451144 0.0044637579 -0.0038141503
0.0040375106 -0.0036653851 0.13961416 -0.018894903 0.0041978681 -0.0034710357 0.1309599 -0.024719216
0.10865593 -0.024511715 0.0041934573 -0.0034546228 0.10366996 -0.044873096 0.004624716 -0.003630193
0.0044288477 -0.0038235767 0.1309074 -0.024677096 0.004597113 -0.0036239366 0.12896849 -0.028082311
153606250 0.1135306 -0.048579417 0.0027888103 -0.0068944455 0.10183781 -0.047668852 0.0030775366 -0.007283743
0.0028121453 -0.0068614162 0.12950735 -0.045374941 0.0030805839 -0.0068797264 0.10980608 -0.048874732
0.10201361 -0.047725368 0.0030270165 -0.0068834792 0.096764728 -0.065866798 0.0033185866 -0.0072794426
0.0030642224 -0.0072850022 0.10976424 -0.048891552 0.0033131272 -0.0072771171 0.11465635 -0.054100074
159850000 0.10157885 -0.075507797 -0.0018054539 -0.0095322141 0.083993837 -0.068383709 -0.0018735057 -0.010006021
-0.001773247 -0.0095687388 0.11527521 -0.06451489 -0.0017225188 -0.0096890917 0.087374873 -0.060104273
0.084143981 -0.068452582 -0.0016881098 -0.0096890973 0.080134861 -0.084684715 -0.0017398328 -0.010135642
-0.0018303116 -0.010023706 0.087341242 -0.06008552 -0.0017371534 -0.010190382 0.097392194 -0.070579477
166093750 0.078866735 -0.092676029 -0.0081656696 -0.0071154633 0.05913084 -0.076721191 -0.008493891 -0.0074032764
-0.0082096271 -0.0071483413 0.09683311 -0.079039901 -0.008198902 -0.0072233644 0.065707162 -0.063665472
0.059201766 -0.076818287 -0.0081878314 -0.0072202161 0.057741601 -0.092063062 -0.0084797377 -0.0075128037
-0.0085216993 -0.0074664834 0.06567841 -0.063652754 -0.0084838094 -0.0075497879 0.07763201 -0.081637807
172337500 0.051630788 -0.099566557 -0.01155296 -0.0021215368 0.034216199 -0.074197441 -0.011917183 -0.0021702603
-0.011580488 -0.0021155758 0.072501488 -0.088762373 -0.011500343 -0.0021781262 0.043559149 -0.062227059
0.034257673 -0.074304335 -0.01148916 -0.0021628994 0.036178071 -0.090450197 -0.011878868 -0.0022118019
-0.011982467 -0.0021889752 0.043494537 -0.062261812 -0.011892878 -0.0022277713 0.0532245 -0.087929241
178581250 0.023716081 -0.093654595 -0.013718429 0.0048145792 0.012870519 -0.060688909 -0.014107137 0.0049967701
-0.013786891 0.0048089628 0.040440828 -0.086049423 -0.013589615 0.0046260417 0.017957488 -0.050474234
0.012898627 -0.060707409 -0.013700744 0.0045980117 0.01765612 -0.080364913 -0.01408388 0.0048007919
-0.014237906 0.0050189211 0.017893972 -0.050464753 -0.014058801 0.0048065735 0.021607671 -0.081859618
184825000 0.0031420151 -0.075784914 -0.010222635 0.016016029 0.0014988534 -0.038451008 -0.010483518 0.016548211
-0.010241182 0.016016625 0.013193326 -0.060853843 -0.010293715 0.015684851 -3.4044398e-005 -0.019663122
0.0015003203 -0.038530484 -0.010289947 0.015737616 0.006916339 -0.063762739 -0.010581575 0.016320148
-0.010503855 0.016661111 -6.826724e-005 -0.01965565 -0.010591985 0.016347684 -0.0043698121 -0.052578583
191068750 -0.0062638377 -0.054417618 0.0036540586 0.0212787 0.0019833944 -0.016776662 0.0040315473 0.022073757
0.0036255659 0.021373818 0.0062879226 -0.024859449 0.0033971658 0.021110192 0.0037041837 0.017838106
0.0019151036 -0.016738353 0.0034073268 0.021125812 0.0044836267 -0.048516169 0.0037985584 0.021831043
0.0040598121 0.022106135 0.0036976989 0.0178253 0.0038139333 0.021877307 -0.007974009 -0.012667097
197312500 -0.0082053803 -0.032643035 0.016568353 0.012354547 0.0088874009 0.0020644763 0.017337898 0.01254861
0.016628964 0.012404626 0.024789402 0.012147776 0.01630244 0.0122443 0.032213815 0.051857416
0.0088513885 0.0020622988 0.01630687 0.0122382 0.0045096115 -0.034721233 0.016971432 0.012403316
0.017386027 0.012557224 0.032192051 0.051819086 0.017038507 0.01242856 0.015963612 0.026183212
203556250 -0.00096690934 -0.011172516 0.015677286 0.0019977484 0.022659633 0.018423734 0.016210714 0.0018063551
0.015747786 0.0019788372 0.062810369 0.021045113 0.015407059 0.0020697271 0.076746404 0.05380645
0.022662122 0.018453032 0.015345289 0.0020641589 0.0085232593 -0.01979172 0.015906127 0.0019795729
0.016267546 0.0019061327 0.076674417 0.053828277 0.015932314 0.0019425428 0.057934854 0.033108104
209800000 0.017457047 0.0048617548 0.015714969 -0.0026294685 0.045524035 0.028679335 0.016340647 -0.0028349392
0.015749451 -0.0026682003 0.088541649 0.0082984501 0.015570977 -0.0023645486 0.10457367 0.033993188
0.045509364 0.028728815 0.015538078 -0.0023953281 0.020773634 -0.0059280912 0.016222373 -0.0025637769
0.01639129 -0.0028768503 0.10456145 0.033959772 0.016259558 -0.0025559312 0.084563918 0.018705852
216043750 0.036287535 0.011764164 0.014368577 -0.0033376373 0.066770732 0.029732518 0.015014028 -0.0035871065
0.014407332 -0.0033400485 0.10396091 -0.0011213111 0.014380031 -0.0031377256 0.1189758 0.019637264
0.066843927 0.029811187 0.014318396 -0.0031098688 0.0335995 0.0035034523 0.014997067 -0.0033447773
0.015020822 -0.0036363259 0.11898459 0.019602871 0.014980519 -0.0033756038 0.099560231 0.010203051
222287500 0.050466552 0.0040222234 0.00985975 -0.01279865 0.082314 0.016481135 0.010123137 -0.013834426
0.0098554594 -0.012836903 0.1115472 -0.018606378 0.0098260147 -0.012777489 0.12443278 -0.00093618734
0.082391821 0.016534306 0.0098288162 -0.012771381 0.045040723 0.0018585481 0.010150586 -0.013803562
0.010134896 -0.013885247 0.12441672 -0.0009560762 0.010164087 -0.013832794 0.10694178 -0.0059982631
228531250 0.074479945 0.0011709597 0.01059507 -0.021562481 0.10662097 0.0084682172 0.010839893 -0.022846404
0.010614681 -0.02160595 0.12246748 -0.039472423 0.01047165 -0.021428483 0.13430418 -0.022821171
0.1067026 0.0085092559 0.010456516 -0.021431766 0.070537031 0.006278601 0.010740905 -0.022737371
0.01087691 -0.022879485 0.13421606 -0.022810906 0.010732696 -0.022711376 0.12023416 -0.024338821
234775000 0.098824747 -0.0080842385 0.00016490438 -0.024672534 0.12984709 -0.0058543924 -0.00028020126 -0.025897698
0.00017583337 -0.024787955 0.12506022 -0.05871024 9.0738809e-005 -0.02440637 0.13644193 -0.0423613
0.13000548 -0.0058344631 0.00011780275 -0.024301084 0.099765949 0.0022674545 -0.00031410871 -0.025576847
-0.00026427853 -0.02597731 0.13635375 -0.042294703 -0.00030243184 -0.02557799 0.12580144 -0.041457102
241018750 0.11978326 -0.045378421 -0.011147359 -0.023552371 0.14867134 -0.047252294 -0.011967493 -0.024346065
-0.011188277 -0.02363329 0.12159814 -0.082041785 -0.010778765 -0.023214076 0.13347626 -0.066218652
0.14889009 -0.047239672 -0.01081378 -0.023201413 0.12830116 -0.032161217 -0.011566855 -0.023976171
-0.012017285 -0.024397649 0.13337019 -0.066224746 -0.011558569 -0.023953663 0.1261808 -0.063793086
247262500 0.10547981 -0.087376975 -0.022045311 -0.016162496 0.13204943 -0.092385568 -0.023128593 -0.016697513
-0.022184931 -0.016207373 0.1076546 -0.10463785 -0.021491213 -0.016219106 0.11983629 -0.090557709
0.13231318 -0.092496179 -0.021461325 -0.016172534 0.12334041 -0.075408123 -0.022494048 -0.016709039
-0.023222225 -0.01668727 0.1197064 -0.090503588 -0.022509387 -0.016719686 0.11573774 -0.087034643
253506250 0.077995732 -0.11282422 -0.025449211 -0.0060517373 0.10195039 -0.12084437 -0.026532277 -0.0060844678
-0.025492743 -0.0059468821 0.086409524 -0.12086368 -0.02500261 -0.0063975346 0.098000951 -0.10902793
0.10216017 -0.12100399 -0.024957709 -0.0065216552 0.10418097 -0.10768951 -0.026014745 -0.0065682884
-0.026550237 -0.0061393133 0.097942866 -0.10900275 -0.025965866 -0.0065699541 0.097600318 -0.10475846
259750000 0.042358272 -0.11653427 -0.029091923 0.0054455479 0.062629543 -0.12759809 -0.030278128 0.0057371813
-0.029099595 0.0055157738 0.056838494 -0.12868607 -0.029132817 0.0047041816 0.06616316 -0.11902428
0.062801085 -0.12782349 -0.028983746 0.0046181418 0.072122745 -0.12317199 -0.030203287 0.0048942016
-0.03034161 0.0057526371 0.066027828 -0.11897157 -0.030253811 0.0048766867 0.069973916 -0.11484715
265993750 0.017308876 -0.10544107 -0.025603356 0.021106863 0.032892402 -0.11820838 -0.026827348 0.021998478
-0.025722837 0.021153443 0.025611399 -0.12121519 -0.026107429 0.020462016 0.030903336 -0.11226766
0.033001624 -0.11837573 -0.026063066 0.020391472 0.044407506 -0.12454668 -0.027340559 0.021253852
-0.026846876 0.022020323 0.030864572 -0.11217249 -0.027299449 0.021290034 0.039294142 -0.10951225
272237500 0.0038458267 -0.092250913 -0.01138309 0.03354276 0.014101905 -0.10466091 -0.011816888 0.034950778
-0.011355489 0.033653282 0.0012842998 -0.099395625 -0.012148759 0.033355914 0.0025212753 -0.088476688
0.014106811 -0.10482251 -0.012151668 0.033345513 0.022188218 -0.12117837 -0.012631475 0.03482198
-0.011857831 0.035148274 0.0024284003 -0.088300802 -0.012708168 0.034853064 0.015577362 -0.089028694
278481250 -0.0058122128 -0.081363544 0.0097248442 0.033897538 -0.0003139718 -0.0914056 0.010187954 0.035339609
0.009705916 0.034053799 -0.0081838844 -0.068419769 0.0091749765 0.034242887 -0.00995766 -0.052740429
-0.00035350246 -0.091448002 0.0091610393 0.034168363 0.00021831905 -0.11489275 0.0095818164 0.035671927
0.010271382 0.035474181 -0.0099347485 -0.052642345 0.0096552335 0.035655364 0.0070475652 -0.059117068
284725000 -0.015016585 -0.063935563 0.025382239 0.024355726 -0.012564825 -0.069657825 0.026461825 0.025201682
0.025426833 0.024334712 -0.00039668599 -0.033826269 0.025057808 0.024755102 -0.0025563433 -0.011613151
-0.012619752 -0.069744676 0.025082352 0.024754638 -0.021619909 -0.09594024 0.026223576 0.025644187
0.026532074 0.025229553 -0.0025041637 -0.011586921 0.026211463 0.025659451 0.015575687 -0.026203167
290968750 -0.012815412 -0.043936048 0.034588844 0.0065770438 -0.010721186 -0.044645004 0.03586353 0.0067025553
0.034689315 0.0065594697 0.027768025 -0.016238052 0.034590017 0.0068477327 0.029006271 0.012679439
-0.010777183 -0.04472794 0.034533903 0.0068806834 -0.028984711 -0.069514677 0.035928983 0.0069883186
0.035999756 0.0066523636 0.028978325 0.012755034 0.035927843 0.0069473037 0.044592537 -0.011020525
297212500 -0.0044295606 -0.031751085 0.031030435 -0.012655508 -0.00016821173 -0.028442975 0.032211766 -0.013316908
0.03113134 -0.012774327 0.050243124 -0.017242422 0.031100044 -0.012501167 0.058487538 0.016786771
-0.00018607928 -0.028484706 0.031053005 -0.012471682 -0.025550939 -0.048684735 0.032232754 -0.013040493
0.032284006 -0.013374328 0.058488876 0.016808314 0.032246374 -0.013086621 0.067152157 -0.015085287
303456250 0.001900075 -0.022439189 0.019200549 -0.026863459 0.010094704 -0.017150082 0.019876324 -0.027986707
0.01924533 -0.026989657 0.065409228 -0.022514543 0.019266905 -0.026697244 0.083491676 0.013084603
