# Hz S  RI   R 50
10000000 0.038482454 0.065167852 0.00089329144 0.00015510329 0.01565879 0.023482023 0.00095947745 -3.546213e-005
0.0006945678 2.6805794e-005 0.052670427 0.057082742 0.00082068378 -0.00016855919 0.017019954 0.027049823
0.015451137 0.023402676 0.00071204157 3.0913037e-005 0.046267189 0.060698129 0.00079643383 7.3589079e-005
0.0009640847 2.3602088e-005 0.017207611 0.027015716 0.00075861212 -5.9817336e-005 0.059651136 0.043804616
16243750 0.073468134 0.056868684 0.00075944088 -0.00014815362 0.029289624 0.029829247 0.00075388933 -0.00014363822
0.00075129152 -0.00018743343 0.079120867 0.049142893 0.00076020003 -0.0002748915 0.031556625 0.034814008
0.029430132 0.029746611 0.00073369947 5.6706735e-006 0.077272549 0.052308049 0.00077143282 -0.00026085743
0.00072581845 -0.00014754877 0.031650409 0.034795213 0.00074371434 -0.00019722806 0.077454999 0.033801693
22487500 0.097092688 0.04237416 0.00078679225 -0.0002601273 0.044074316 0.028625201 0.0008153377 -0.00028204039
0.00077502627 -0.00020902274 0.095986053 0.040839598 0.00071011338 -0.00025307125 0.047132917 0.03527195
0.044119202 0.028624402 0.00065526721 -0.00028545779 0.098706916 0.040533267 0.0007493684 -0.00021127585
0.00079291698 -0.00031663757 0.04716688 0.035211407 0.00075916148 -0.00032246386 0.0855821 0.028212134
28731250 0.11300142 0.012939777 0.00071383792 -0.00033854999 0.056101318 0.021386098 0.0006806379 -0.0003892649
0.00066553522 -0.00034293867 0.10884297 0.02143921 0.00068212545 -0.00042853833 0.060335789 0.029827468
0.056228686 0.021293081 0.00061959872 -0.00035323569 0.11426152 0.015187728 0.00062213879 -0.00044414354
0.0006187355 -0.00039276294 0.060268551 0.02982302 0.0006595907 -0.00044632822 0.093012385 0.01544766
34975000 0.11260105 -0.01954614 0.0005506819 -0.00053704379 0.063348278 0.0098921396 0.00059174432 -0.00053788011
0.00059035607 -0.00050550268 0.11157771 0.00098236429 0.0005652238 -0.00054424687 0.06862364 0.020480497
0.063419923 0.0097570289 0.0005704881 -0.00052834366 0.11693408 -0.013448473 0.0005572089 -0.00062400877
0.0005589861 -0.00056756311 0.068539716 0.020668212 0.00059881178 -0.00056944438 0.094697483 0.0029392622
41218750 0.095868371 -0.045856766 0.0004062131 -0.00084201701 0.064192057 -0.0034997871 0.00036471782 -0.00086905411
0.00039252886 -0.0008044166 0.1041197 -0.014596686 0.00038371453 -0.00080843596 0.071145609 0.010845963
0.064246505 -0.0034625616 0.0003197937 -0.00079820765 0.10554985 -0.038050652 0.0003453028 -0.00085313298
0.0003593812 -0.00084939401 0.07115718 0.011003001 0.00036188125 -0.00087988283 0.090469591 -0.0058148257
47462500 0.068790019 -0.059861768 -5.034067e-005 -0.001266818 0.058399476 -0.014704681 -2.2089267e-005 -0.0013476091
5.5622397e-005 -0.0011678541 0.092446968 -0.020337921 -3.2037347e-005 -0.0011460391 0.069710873 0.0056952122
0.058494344 -0.014831108 -4.4536289e-005 -0.0012326858 0.084562086 -0.053610675 -6.1669634e-005 -0.0013076146
3.8136495e-006 -0.0013310486 0.069941208 0.0059288382 -0.00010522141 -0.0012743396 0.08470577 -0.0084508974
53706250 0.03875158 -0.055922411 -0.0010527771 -0.0015489489 0.047123156 -0.019340763 -0.0011143321 -0.0015365478
-0.0010221059 -0.0016155596 0.089404911 -0.012920666 -0.0011318265 -0.0014614274 0.074527629 0.0094124917
0.047341205 -0.019391695 -0.0012195684 -0.0015064524 0.059043944 -0.054451201 -0.0013345834 -0.0016221546
-0.0011766808 -0.0015896958 0.075042374 0.009100182 -0.0012549995 -0.001524156 0.087613218 -0.001570132
59950000 0.01979132 -0.029331565 -0.0010526767 -0.0020982593 0.038450442 -0.0096752644 -0.0013187323 -0.002117693
-0.0010676502 -0.0021387776 0.11125392 -0.023556694 -0.00098436815 -0.0018083997 0.10133579 -0.0081015648
0.03850301 -0.0098096812 -0.00096613832 -0.0018708283 0.041104347 -0.034512695 -0.0011486653 -0.0019764481
-0.0012098725 -0.0022203955 0.10090894 -0.0084568765 -0.0011265423 -0.0018723743 0.11500754 -0.016187547
66193750 0.041088536 -0.0057381596 -0.011456785 0.00054333749 0.059166361 -0.0041807508 -0.011763093 0.00070992589
-0.011488196 0.00046700976 0.095264651 -0.052644163 -0.011146276 0.00018914114 0.084230654 -0.045179989
0.058950946 -0.0042594397 -0.01119982 0.00033649401 0.059823971 -0.015751677 -0.011400158 0.000438157
-0.011798574 0.0006486089 0.084204003 -0.045160297 -0.011460744 0.00043981124 0.099684268 -0.053189978
72437500 0.053069472 -0.02654846 -0.0029924859 0.011232658 0.060682911 -0.039181869 -0.0029608074 0.011589149
-0.0031131145 0.011251509 0.07539928 -0.059559058 -0.0031731967 0.011035086 0.058609881 -0.056689508
0.060855873 -0.039062891 -0.0030509899 0.011015127 0.067897514 -0.039478119 -0.003025352 0.011322378
-0.0030314159 0.011643639 0.05850381 -0.056597535 -0.0030279621 0.011427848 0.075067595 -0.066535622
78681250 0.035809372 -0.028332237 0.0021199028 0.0079125734 0.026697198 -0.046629187 0.0022030184 0.0080535831
0.0021094987 0.0079853386 0.051209267 -0.053656302 0.0021314139 0.0078131044 0.026424387 -0.0504773
0.02669877 -0.046672665 0.0020154912 0.0077699265 0.045123864 -0.042749166 0.0021372563 0.0080173891
0.0022760243 0.0081537757 0.026349988 -0.05039129 0.0022306119 0.0079640225 0.042690087 -0.063267224
84925000 0.034576572 -0.018157223 0.0038743101 0.006962907 0.0076394728 -0.030717181 0.003921736 0.0070114704
0.0038108495 0.0069190608 0.040853411 -0.0374646 0.0037912934 0.0067840368 0.0095847053 -0.028257754
0.0076705776 -0.030786362 0.0037717386 0.0067625116 0.037538938 -0.029877614 0.0039347694 0.0069253719
0.003962229 0.0070477379 0.0096076513 -0.028245185 0.0039436091 0.0069410042 0.024074446 -0.04406181
91168750 0.039180927 -0.015051649 0.0062696254 0.0055299443 0.00053569168 -0.012088767 0.0064763161 0.0056270184
0.0063273231 0.0055276975 0.04016085 -0.022848181 0.0061950693 0.0053872787 0.0068107028 -0.0039916947
0.0005926172 -0.012072891 0.0062088748 0.0053548976 0.038467001 -0.020259544 0.0063904952 0.0055509782
0.0064746528 0.0056635966 0.0068033235 -0.004053507 0.0063777398 0.0055273217 0.018382922 -0.022215927
97412500 0.047798194 -0.013604775 0.0055872547 0.0032551419 0.007458427 0.0095300451 0.0057073454 0.0032826797
0.0054904567 0.0032339725 0.045615472 -0.012101931 0.005574916 0.0031780263 0.01570297 0.016664693
0.0074437354 0.0095483325 0.0055723116 0.0032358414 0.047055226 -0.011413524 0.0057683503 0.0032481514
0.0057665613 0.003275987 0.015711226 0.016525675 0.0057620681 0.0032602688 0.024096739 -0.0029407395
103656250 0.05179207 -0.024788029 0.0072143404 0.0038490926 0.020875642 0.017290806 0.0073630251 0.0038956699
0.0072290455 0.0039184261 0.05188619 -0.0045815473 0.0072262697 0.0037675384 0.030480022 0.031204123
0.020965494 0.017368538 0.007218102 0.0037346983 0.055285353 -0.015463462 0.0073427246 0.0037744117
0.0074503864 0.0038661864 0.030383278 0.03107124 0.0073970752 0.003727311 0.035569448 0.011322687
109900000 0.046031248 -0.034823209 0.010463689 0.0017829736 0.033416931 0.018689733 0.010624004 0.0018384064
0.010536319 0.0017883091 0.061160155 0.0023416355 0.010454254 0.0016673643 0.050656315 0.040092461
0.033570599 0.018744074 0.010514485 0.0016449075 0.057108402 -0.021708572 0.010615247 0.0016401854
0.010659623 0.001734158 0.050514366 0.040083461 0.010631578 0.0015928369 0.052739341 0.020741053
116143750 0.033000275 -0.038028561 0.01089996 -0.0050376812 0.041675974 0.016086532 0.011132556 -0.0050564785
0.010935457 -0.0050892904 0.077183105 0.0044572717 0.01089041 -0.0052868924 0.077020653 0.038879495
0.041908417 0.01601789 0.010870334 -0.0053306753 0.052286901 -0.025334042 0.011092562 -0.0053009992
0.011153936 -0.0051314766 0.076845944 0.038863398 0.011086731 -0.0053260983 0.076678306 0.020790193
122387500 0.0226765 -0.030501261 0.0045499741 -0.0068837292 0.049688745 0.013282336 0.0047670896 -0.0070271548
0.0044972678 -0.0069289771 0.087892301 -0.0042641498 0.0042877761 -0.00719654 0.094977938 0.02219642
0.049778666 0.013210324 0.0042547416 -0.0072101685 0.04893693 -0.022519898 0.004580427 -0.0072834287
0.0046967515 -0.0071164561 0.094713971 0.022159083 0.0044969232 -0.0073582428 0.093182273 0.0057788868
128631250 0.015541904 -0.018794769 0.003023782 -0.0055624936 0.05247115 0.0070222015 0.0031952469 -0.0057869754
0.0030121298 -0.0055940486 0.095182166 -0.0072214454 0.0027110064 -0.0056683202 0.10375143 0.0091817593
0.052473642 0.0069405874 0.0026631262 -0.0056709512 0.045372948 -0.018590217 0.0028474573 -0.0058664507
0.0030759997 -0.005791164 0.10357755 0.0093595861 0.0028104028 -0.005905997 0.10132994 -0.0053039584
134875000 0.016740244 0.0055761435 -0.00067331159 -0.0065285638 0.052055027 0.011489169 -0.00053693732 -0.0068796184
-0.00067224435 -0.0065048961 0.11110885 -0.014432509 -0.00081044837 -0.0065875673 0.11592701 -0.0064128367
0.052003987 0.011488555 -0.00084213336 -0.0065428149 0.044905022 -0.0028635375 -0.00076339534 -0.0068983785
-0.00063788547 -0.0068164724 0.11589331 -0.0063193911 -0.00081469445 -0.0068733292 0.11415084 -0.018672042
141118750 0.047128152 0.025983926 -0.0036822113 0.00077390956 0.070494778 0.017012196 -0.0038848678 0.0006079601
-0.0036654167 0.00079207658 0.12316373 -0.035627201 -0.0039739683 0.0006525013 0.12076759 -0.032739267
0.07058201 0.017171159 -0.0039870092 0.00069763156 0.06939517 0.012078542 -0.0041983686 0.00049605162
-0.0038892471 0.00068154268 0.12072415 -0.032621149 -0.0041890545 0.00054008531 0.12119343 -0.043609265
147362500 0.086009622 0.019200789 0.0039355112 0.0034733471 0.092126787 0.0046154596 0.0039183763 0.0035237793
0.0039623152 0.0035502827 0.12088279 -0.060785476 0.0035942325 0.0035628849 0.10928632 -0.058482356
0.092350423 0.0047265384 0.0035524967 0.0036360933 0.10172374 0.0038235346 0.0035104612 0.0036858546
0.00387227 0.0036765039 0.10922186 -0.058354393 0.0035131159 0.0037045474 0.11252207 -0.069402017
153606250 0.12235132 -0.017528228 0.0059832656 -0.0018132461 0.11153913 -0.027493346 0.0060682003 -0.0018271253
0.006027062 -0.0017563978 0.1085939 -0.076403044 0.0057573779 -0.0015867887 0.088539109 -0.069228627
0.11175412 -0.027574323 0.0057811206 -0.0015250391 0.13249095 -0.031050468 0.005871946 -0.0015393585
0.0061480375 -0.0016493808 0.088589102 -0.069108732 0.0058988663 -0.001464579 0.094620287 -0.081067026
159850000 0.117089 -0.075374201 0.0040053222 -0.0025843834 0.094746195 -0.07290373 0.0040981867 -0.0026451168
0.0040534809 -0.0025904819 0.10217118 -0.085293271 0.0039159297 -0.0023651994 0.077506073 -0.069217049
0.094955772 -0.073040389 0.0039637596 -0.0023366818 0.12418823 -0.085508309 0.0040809936 -0.0023914643
0.0043480312 -0.002655217 0.077584192 -0.069191858 0.0041739335 -0.0023991438 0.086886443 -0.083197117
166093750 0.080554605 -0.10916366 0.004542008 -0.0031550045 0.055094298 -0.090507939 0.0046497216 -0.0033507813
0.0045703752 -0.0031659349 0.096008331 -0.10337451 0.0045445925 -0.0029887173 0.071564823 -0.077765353
0.05525066 -0.090725377 0.0045776074 -0.0030416991 0.08686772 -0.11573643 0.0047116037 -0.0032458005
0.0047873543 -0.0034544994 0.071556084 -0.077833161 0.0047588302 -0.0032827407 0.083599277 -0.096063115
172337500 0.039753158 -0.11770771 0.0038750181 -0.0045680283 0.019866675 -0.08384601 0.003838524 -0.0048627187
0.0039129434 -0.0046155383 0.073012672 -0.12210857 0.003912956 -0.0045813639 0.052469648 -0.08791732
0.019912604 -0.084073879 0.0038884312 -0.0046204119 0.047194868 -0.12117225 0.0038640469 -0.0049229013
0.0038722903 -0.0049698707 0.052394927 -0.087935925 0.0038688825 -0.0049396469 0.065054707 -0.11159629
178581250 0.00390227 -0.1081737 0.0029741316 -0.0052524796 -0.0037312433 -0.0645677 0.0027735685 -0.0054184441
0.0029899129 -0.0051786788 0.040135473 -0.12324875 0.0029247028 -0.0053065568 0.026566122 -0.082649261
-0.0037798288 -0.064693443 0.0028929107 -0.0053956918 0.01392523 -0.11001201 0.0026695433 -0.0055503328
0.002780915 -0.0054870578 0.026530378 -0.082655706 0.0026805145 -0.0055446071 0.037931811 -0.11165511
184825000 -0.022019364 -0.084701002 0.0013251473 -0.0063598352 -0.0147988 -0.0390356 0.001160232 -0.0062971497
0.0013412046 -0.0063178423 0.013915773 -0.10635349 0.0011834399 -0.006304536 0.0090463003 -0.063025534
-0.014804783 -0.039179374 0.001220483 -0.0063017043 -0.0086883977 -0.086871214 0.0010596612 -0.0062582851
0.0011405788 -0.0063240221 0.009005039 -0.062989838 0.0010028264 -0.0063018203 0.017258514 -0.096961141
191068750 -0.030637335 -0.054672282 -0.00075101369 -0.0048009614 -0.010696387 -0.014182847 -0.00075933908 -0.0046942676
-0.00075632654 -0.0048764264 0.0016103754 -0.079556428 -0.00091309828 -0.0048952554 0.005198908 -0.036915038
-0.010694465 -0.014275433 -0.00092740241 -0.0049140621 -0.014889326 -0.058785189 -0.0009847933 -0.0047938591
-0.00080253952 -0.0047924002 0.0051778355 -0.036899291 -0.00093379163 -0.0047586951 0.0083168177 -0.07480415
197312500 -0.023526397 -0.031736881 -0.00060823635 -0.002743755 0.0039285533 -0.0007481823 -0.00055710948 -0.0026828258
-0.00056333945 -0.0027563444 0.0080116605 -0.053631328 -0.00085777428 -0.0028192275 0.018353419 -0.014317244
0.0040920796 -0.00083726272 -0.00086723355 -0.0028240685 -0.0063549015 -0.038076904 -0.00072266284 -0.0027619174
-0.00046007021 -0.0027525076 0.018204018 -0.014351119 -0.00071761274 -0.0027749164 0.014891897 -0.054222327
203556250 -0.017627928 -0.021464063 0.0013623416 -0.0015459188 0.011676433 -0.00075272162 0.0015543469 -0.001594962
0.0013403769 -0.0015640178 0.025243176 -0.038839437 0.00093964947 -0.0015618312 0.039986361 -0.0041881204
0.011752396 -0.00094560662 0.00096756406 -0.0016148244 0.00099373388 -0.030196628 0.0011332346 -0.001600415
0.0015729604 -0.0016802484 0.039919619 -0.0041375095 0.0011318263 -0.0016791029 0.029192364 -0.043491058
209800000 -0.016631261 -0.0056892759 0.0041447864 -0.0049046893 0.0096632643 0.0063761491 0.0043590674 -0.0051953103
0.004088853 -0.004956258 0.042458612 -0.039160479 0.0035258636 -0.0047582374 0.059759397 -0.0092610568
0.0094701499 0.0062469975 0.0035095033 -0.0047717653 0.0030294666 -0.01846722 0.0037559238 -0.0050714286
0.0043100617 -0.005363354 0.059570104 -0.0091960337 0.0037658373 -0.0050906497 0.041942108 -0.045216721
216043750 -0.0041320734 0.020094031 0.0053981943 -0.0070932363 0.015832786 0.027836263 0.0054223863 -0.0073751439
0.0054423949 -0.0071498435 0.059783418 -0.040272783 0.0049796146 -0.0063846866 0.078044251 -0.014209967
0.015661024 0.027934819 0.0048960913 -0.006441935 0.014614425 0.0028507144 0.004919684 -0.0066707456
0.0052095959 -0.0075861532 0.077868178 -0.014157192 0.0048542451 -0.0067941677 0.054677792 -0.043862477
222287500 0.027656311 0.044222355 -0.0013959006 -0.011137394 0.040933594 0.052778553 -0.0016621904 -0.011407143
-0.0014859679 -0.011161704 0.067447916 -0.051641289 -0.0014298164 -0.010357163 0.086161956 -0.029197948
0.041024063 0.0530825 -0.0015773552 -0.010319661 0.04293621 0.023363683 -0.00180459 -0.01055153
-0.0020593195 -0.01138169 0.086071551 -0.029011345 -0.0019173708 -0.010569849 0.059678923 -0.05102694
228531250 0.083154142 0.035068359 -0.0074882042 -0.011781379 0.093537167 0.049496025 -0.0076276911 -0.012095496
-0.0075582699 -0.011776485 0.075341895 -0.068933822 -0.0071027661 -0.011391389 0.09464927 -0.049733181
0.093837619 0.049684048 -0.0071198251 -0.011193254 0.095053501 0.0145614 -0.0072284783 -0.011482866
-0.007794098 -0.011705567 0.094659977 -0.049496762 -0.0073515405 -0.011351609 0.068672776 -0.063050777
234775000 0.11766258 -0.011881369 -0.01147128 -0.0055399113 0.13162144 0.0090775015 -0.011701397 -0.0058032894
-0.01145093 -0.0054623266 0.076404341 -0.083860852 -0.011020341 -0.0054529835 0.095708817 -0.068125568
0.13198572 0.0090502491 -0.01096526 -0.0053030406 0.12986338 -0.030685578 -0.011139414 -0.0055289539
-0.011577411 -0.0054564336 0.095802739 -0.067912936 -0.011110066 -0.0054246802 0.073226623 -0.073592745
241018750 0.11486977 -0.065089956 -0.010866151 0.00030324323 0.13762467 -0.042249348 -0.011174967 9.4317722e-005
-0.010819801 0.00035183333 0.07239686 -0.099457085 -0.010603286 0.00019869063 0.090999678 -0.087753952
0.1380275 -0.042357512 -0.01046114 0.00024780261 0.13056132 -0.085252449 -0.010746415 8.5717082e-005
-0.010860212 0.00028663891 0.091166832 -0.087659292 -0.010632708 0.00012924687 0.074687071 -0.087649748
247262500 0.086865701 -0.10347889 -0.0085203461 0.0042338371 0.11917546 -0.085443728 -0.0088535966 0.0041287062
-0.0084504765 0.0042057722 0.063496388 -0.11480617 -0.0083909659 0.0040104976 0.079766765 -0.10731176
0.11946964 -0.085660256 -0.0082544498 0.0039940164 0.10535239 -0.12885071 -0.0085937651 0.0039083031
-0.0086265653 0.0040605227 0.079862945 -0.10729577 -0.0085111791 0.0038724379 0.070765786 -0.10464636
253506250 0.048566416 -0.12061693 -0.0048847087 0.0067147682 0.086662538 -0.11337183 -0.0052086422 0.006693597
-0.004923834 0.0067168339 0.048465252 -0.12795804 -0.0048652883 0.0064836172 0.060493816 -0.12387282
0.086921006 -0.11367259 -0.0048548742 0.0064141052 0.066755064 -0.15380295 -0.0051622503 0.0064032273
-0.00507543 0.006556564 0.060496401 -0.1238858 -0.0051468462 0.006383128 0.058747586 -0.12217768
259750000 0.010395655 -0.11850715 -0.0014245583 0.0072883079 0.047450345 -0.12494034 -0.0018183659 0.0073709013
-0.0014499867 0.0072255246 0.027765302 -0.13452397 -0.0016083912 0.0071752788 0.033538662 -0.13169792
0.047588173 -0.12529819 -0.0016025432 0.0070406413 0.02415056 -0.16002712 -0.001985302 0.0072073503
-0.0017322812 0.0072665927 0.033559281 -0.1317241 -0.0019108886 0.007192912 0.037482366 -0.13377818
265993750 -0.01954259 -0.10055697 0.0020019561 0.0072730435 0.0089935595 -0.11902249 0.0017436352 0.0075385012
0.0020220056 0.007288151 0.0071415692 -0.13191889 0.0016577849 0.0073115826 0.0059641525 -0.12715349
0.0090178968 -0.11932504 0.0016321377 0.0072170179 -0.014089876 -0.14822695 0.0013976591 0.0075462055
0.0017319211 0.0074908352 0.005935099 -0.1271053 0.0014228398 0.0075245784 0.012876667 -0.13487735
272237500 -0.035590727 -0.074609831 0.0060988064 0.006434591 -0.021308478 -0.098821171 0.0061673396 0.0069445288
0.0060929363 0.0064593712 -0.0090479348 -0.12357484 0.005893894 0.0066865375 -0.015864875 -0.11293403
-0.021514865 -0.099119201 0.0057820664 0.0066378815 -0.040816173 -0.12403465 0.0058565871 0.0071252976
0.0060086721 0.0067654555 -0.015968412 -0.11303855 0.0058542141 0.0070186942 -0.0086883791 -0.12685943
278481250 -0.038118772 -0.049475465 0.012051867 0.0032758797 -0.039641477 -0.07101097 0.012571506 0.0036323052
0.012129235 0.0033178162 -0.020729484 -0.1123682 0.012006273 0.0035562627 -0.029899305 -0.093036391
-0.03983362 -0.071174763 0.011891453 0.0036064091 -0.053975176 -0.095630296 0.01229312 0.0038573032
0.012365461 0.0035985208 -0.029990911 -0.092937633 0.012307088 0.0038097424 -0.024971817 -0.11257201
284725000 -0.035198372 -0.028739823 0.015273998 -0.0056269662 -0.048743553 -0.039061069 0.01579598 -0.0057822829
0.01524049 -0.0055948417 -0.030313808 -0.10102659 0.015061392 -0.0053879595 -0.037454147 -0.072094709
-0.048989497 -0.039062317 0.014980552 -0.0054202313 -0.058298271 -0.067218266 0.015515774 -0.0054606311
0.01565703 -0.0056365817 -0.037366819 -0.07191027 0.015414014 -0.0053993128 -0.037032459 -0.096163251
290968750 -0.0279213 -0.0092840903 0.011766002 -0.017164929 -0.045564424 -0.0032794478 0.0121242 -0.017689576
0.011866175 -0.017137337 -0.037635781 -0.085959874 0.011550268 -0.016697882 -0.037799839 -0.04876364
-0.045715779 -0.0032346093 0.011534668 -0.016678203 -0.053543549 -0.038597159 0.011777999 -0.017176587
0.0120432 -0.017609274 -0.037616298 -0.048686855 0.011842961 -0.01714951 -0.04342236 -0.07579878
297212500 -0.014347141 0.010390698 -0.0011154986 -0.025033467 -0.026808903 0.032391075 -0.0014239607 -0.025793776
-0.0010784089 -0.025005607 -0.040116467 -0.066877179 -0.0012459434 -0.02425155 -0.029777182 -0.025061183
-0.026820093 0.032627378 -0.0011572335 -0.024188541 -0.038296714 -0.011218086 -0.0014661102 -0.024893308
-0.0013482547 -0.025694842 -0.029576268 -0.025098391 -0.0014235758 -0.02489013 -0.042596202 -0.052897587
303456250 0.010450515 0.027139449 -0.017904067 -0.020788535 0.010689211 0.060443021 -0.01871711 -0.021154137
