# Hz S  RI   R 50
10000000 0.038831253 0.065092765 0.00027901566 -0.00036664319 0.015294492 0.02338944 0.00027820139 -5.9279701e-005
0.00022609098 -0.00030032857 0.048062202 0.055466175 0.00034550764 -6.7353787e-005 0.013512487 0.023587357
0.015404449 0.023622265 -1.9457842e-005 -8.2180712e-005 0.046154793 0.060539413 0.00023466551 -0.00018778814
0.00037152678 -0.00018533175 0.01355675 0.023645489 0.00028955165 -0.00025768558 0.04912002 0.047785796
16243750 0.073454581 0.056785654 7.1999231e-005 -0.00021322713 0.029303359 0.02972462 0.000143959 -0.00017762506
7.8969999e-005 -0.00024840288 0.073938355 0.046862371 0.00015248415 -0.00021967966 0.025969837 0.031653535
0.029411633 0.029920241 2.6698497e-005 -0.00026308472 0.077313088 0.052225813 0.00025448459 -0.00034505228
0.00012468851 -0.00042035809 0.026013806 0.031545561 0.00017228146 -0.00028892502 0.070464864 0.037591416
22487500 0.097181305 0.042445064 6.8075969e-005 -0.00030287728 0.044048645 0.028596109 5.1485742e-005 -0.00035107654
2.4217294e-005 -0.00027799289 0.09043882 0.038452715 9.5020063e-005 -0.00022237345 0.039836008 0.033019394
0.044150639 0.02853087 -7.0977512e-005 -0.00026409258 0.098644011 0.040403247 -3.6212488e-005 -0.00027713593
8.309632e-006 -0.00030412182 0.039921854 0.033033326 1.5820544e-005 -0.00032588042 0.081740305 0.029702803
28731250 0.11291055 0.012851194 -2.3376895e-005 -0.00031395009 0.056068838 0.021278674 -3.041234e-005 -0.00037670822
-7.0724011e-005 -0.00025330845 0.10311724 0.018533112 -2.7367558e-005 -0.00029072457 0.052263238 0.028955737
0.056194004 0.021253504 -5.9655769e-005 -0.00029454849 0.11419547 0.015075822 -6.0715785e-005 -0.00037124025
-3.8179354e-005 -0.00029478027 0.052183058 0.029002093 3.7289738e-006 -0.00030854257 0.09047544 0.01231792
34975000 0.11262194 -0.019625025 -0.00011535927 -0.00030078733 0.063311771 0.009674428 -9.3214432e-005 -0.00027466996
-8.745354e-005 -0.0003086699 0.10591257 -0.0032670707 -8.1709237e-005 -0.00027519421 0.060836613 0.020622101
0.063415162 0.0096640317 -0.00011507197 -0.00022293068 0.1169038 -0.01353979 -8.1744467e-005 -0.00023074771
-6.7122382e-005 -0.00032014024 0.060836472 0.020645767 -2.8773651e-005 -0.00028179225 0.090638816 -0.0055205333
41218750 0.095791735 -0.04605474 -0.00011309308 -0.00027112427 0.064139649 -0.0035231628 -4.4576998e-005 -0.00027990463
-3.3040204e-005 -0.00024217718 0.097778782 -0.021690596 -3.3690918e-005 -0.00023882693 0.064152449 0.010047285
0.064224817 -0.003657867 -4.5207798e-005 -0.00022459462 0.10555407 -0.038146783 -3.9476356e-005 -0.00028346511
-4.8751568e-005 -0.00031159661 0.064123876 0.010104951 -3.8636874e-005 -0.00023862282 0.081848994 -0.019459184
47462500 0.068770573 -0.060071368 0.00018276811 -0.00042818236 0.058376584 -0.01491384 0.00021865148 -0.00048765313
0.00017965298 -0.00044315268 0.082325354 -0.03272504 0.00020242902 -0.00037584399 0.061418712 0.00076932472
0.058445007 -0.014968526 0.00013710713 -0.00036983876 0.084531933 -0.053816095 0.00017098682 -0.00043278837
0.0001918247 -0.00044951358 0.061366435 0.00073705253 0.00020731059 -0.00044522138 0.067618392 -0.026916476
53706250 0.038539629 -0.056193899 0.00047003056 -0.0013189423 0.047109544 -0.019639231 0.00046000423 -0.0014221675
0.00052587007 -0.0014719418 0.063759767 -0.030767428 0.0005678676 -0.0012994544 0.053562205 -0.0016509731
0.046980843 -0.019759672 0.00050567003 -0.0012858204 0.059109177 -0.054745372 0.00056013517 -0.00139133
0.00053255993 -0.0014727322 0.053650305 -0.0017100106 0.00049850444 -0.0013734096 0.051427893 -0.022444112
59950000 0.019277224 -0.029566351 -0.0020395161 -0.005489713 0.037984781 -0.010126292 -0.0023312801 -0.0058525321
-0.0020719974 -0.0055813631 0.060217675 -0.0081194444 -0.0018573708 -0.0054578236 0.056724228 0.012652029
0.038024507 -0.010034577 -0.0018460291 -0.0054465886 0.040753212 -0.03496515 -0.0019729566 -0.0057273353
-0.0022887127 -0.0058070393 0.056715325 0.012723607 -0.0019687961 -0.0056653535 0.051639918 0.0020589733
66193750 0.040757686 -0.0052239727 -0.0091385683 0.006166908 0.058311887 -0.003881363 -0.009504375 0.0065838322
-0.0091375448 0.0061809579 0.082208999 -0.021620708 -0.0090764528 0.0059218295 0.080004796 -0.011747856
0.058688398 -0.0038562356 -0.0091288695 0.0058845677 0.058986649 -0.015473705 -0.0094141131 0.0062384107
-0.0095090242 0.0066033038 0.07999438 -0.01182596 -0.0094851265 0.0062265992 0.077834509 -0.014838161
72437500 0.053107325 -0.026405653 0.0022022221 0.0039799949 0.060755186 -0.038771261 0.0024438242 0.0042314851
0.0022440345 0.0039126743 0.070109867 -0.042421158 0.0020312525 0.0039838478 0.061951432 -0.041204233
0.060905959 -0.038949251 0.002132769 0.0039698109 0.067854472 -0.039203841 0.0022901765 0.0040847478
0.0024810939 0.0041953446 0.061994884 -0.04120212 0.0022949975 0.0041206549 0.065266229 -0.039976455
78681250 0.035813894 -0.028230147 0.0010003846 0.0015181932 0.026731884 -0.046575744 0.0011062389 0.0016464598
0.0010957411 0.0015786794 0.048332423 -0.036450569 0.00098216441 0.0015854674 0.030571612 -0.037721381
0.026696302 -0.046607498 0.00094162906 0.0014718426 0.045052685 -0.042616818 0.0011009354 0.0015355352
0.0011295611 0.0016558333 0.030527502 -0.037734155 0.0010539262 0.0015651007 0.041044109 -0.035534918
84925000 0.034557529 -0.018095398 0.00059138262 0.00063921505 0.0077161109 -0.030644773 0.00074391859 0.00064457214
0.0006309055 0.00059198815 0.04166935 -0.025216566 0.00059253298 0.00061632524 0.015077407 -0.022873666
0.0077270409 -0.030699635 0.0005260543 0.00060976326 0.037527319 -0.029749665 0.00063560531 0.00062205381
0.00067728671 0.00062907278 0.015072256 -0.022819752 0.00058532821 0.00065836997 0.032636862 -0.024540689
91168750 0.039163832 -0.01501239 -0.0018625624 -0.00020173412 0.00054416509 -0.012106678 -0.0018874014 -0.00022788924
-0.0018284677 -0.0002203872 0.03911119 -0.017521469 -0.0017869228 -0.00014927826 0.0071317866 -0.0070693092
0.00055985997 -0.012083128 -0.0017964174 -0.00013603059 0.038506802 -0.020258076 -0.0018408526 -0.00013980296
-0.0019086188 -0.00022081587 0.0071904566 -0.0070477813 -0.0018818405 -0.00012955829 0.028694071 -0.016757306
97412500 0.047668926 -0.013708797 -0.0012234076 0.0063175079 0.007406089 0.0095069278 -0.001312502 0.0065374058
-0.0012759566 0.0063643893 0.039077807 -0.005003911 -0.0011843489 0.0061420971 0.0071680187 0.015831385
0.0073731313 0.0094140908 -0.0011301006 0.0060843243 0.047075037 -0.011466325 -0.0012654484 0.0063392823
-0.0013263481 0.0066112527 0.0071735517 0.015842965 -0.0012463429 0.0063942824 0.02801856 -0.003058481
103656250 0.051610488 -0.024956673 0.0029861659 0.0050641089 0.020811068 0.017203387 0.0030801806 0.0054008169
0.0029501251 0.0050950721 0.044328794 -0.00051303656 0.002835969 0.0049890312 0.018332845 0.028984098
0.020777553 0.017230079 0.0028496368 0.0049545937 0.055224467 -0.015538931 0.0029864165 0.0052130455
0.0031231036 0.0053299442 0.018335933 0.028961925 0.0029808239 0.0051963008 0.034044247 0.0018296271
109900000 0.045773774 -0.034991533 0.0053482796 0.0038631032 0.0332863 0.018486144 0.0056000091 0.0040477039
0.0053258054 0.0038602345 0.045701902 0.0035144226 0.0052028527 0.0038349044 0.029327452 0.037452396
0.033312727 0.018562289 0.0051941634 0.0038246817 0.057021622 -0.021846812 0.0054152776 0.0040218905
0.0055980529 0.0041032382 0.029346153 0.037497781 0.0054543018 0.0040306621 0.036282796 0.005436718
116143750 0.032611519 -0.038108524 0.0079747308 0.00011153997 0.041530851 0.015852477 0.0083866846 0.00010432184
0.0079839649 7.4973927e-005 0.046457872 0.01143421 0.007884562 0.00011695427 0.040948518 0.044492729
0.041527666 0.015934873 0.0078575164 0.00014704633 0.052094836 -0.025572529 0.0082555059 0.00012017553
0.0083198221 9.4831674e-005 0.040905893 0.044498429 0.0082636103 9.9794888e-005 0.03793776 0.012386899
122387500 0.022272324 -0.030571297 0.0049754004 -0.0043689925 0.049368754 0.013059492 0.0052071959 -0.0046135825
0.0049839988 -0.0043898141 0.051404059 0.022276953 0.0048795673 -0.0044418331 0.054664556 0.049180854
0.049432669 0.013135759 0.0048679556 -0.0044106892 0.048585605 -0.022734268 0.0050737392 -0.0046237004
0.005177035 -0.0045852535 0.054621283 0.049161315 0.0050746482 -0.0046607228 0.043248039 0.021726986
128631250 0.015148762 -0.018804464 0.0020926159 -0.003734397 0.051943529 0.0068569365 0.0022725544 -0.0038930164
0.002140268 -0.0037576444 0.06252294 0.039871115 0.0019457169 -0.0036331161 0.070096985 0.057639919
0.052114416 0.0069366819 0.0018929031 -0.0036394561 0.044912782 -0.018722964 0.0020513476 -0.0037778846
0.0022406757 -0.0038496035 0.070050329 0.057654683 0.0020535719 -0.0037660082 0.054065492 0.038553849
134875000 0.016225215 0.0055581592 0.0025936873 -0.0042655957 0.051330663 0.011491132 0.0027181534 -0.0044683916
0.0026053882 -0.0042832466 0.10338441 0.049075954 0.0025092454 -0.004016683 0.11092216 0.056932896
0.051537316 0.011460883 0.0025072682 -0.0039658085 0.044202928 -0.0028483034 0.0026776984 -0.0041884705
0.0027781783 -0.0044643395 0.11092064 0.056881286 0.0026969702 -0.0042087422 0.096572511 0.046762183
141118750 0.046312422 0.026139336 -0.00063526205 -0.006710554 0.069679685 0.017408334 -0.0007291644 -0.0069838506
-0.00059258222 -0.0067089414 0.13567956 0.017063808 -0.00045859406 -0.0064907614 0.13744698 0.015610839
0.069810696 0.017314181 -0.00041468604 -0.0064826985 0.06861145 0.012423472 -0.00052632327 -0.0067829569
-0.00067811389 -0.0070690243 0.13740031 0.015607078 -0.00049628149 -0.0068234322 0.1286245 0.010599326
147362500 0.08519832 0.020167826 -0.0042845169 -0.0042279004 0.091503263 0.0056772521 -0.0045736879 -0.0041902778
-0.004353994 -0.004219302 0.13951014 -0.018925186 -0.0041146171 -0.0042069317 0.13087384 -0.024735305
0.091566451 0.0056267744 -0.004145714 -0.004213444 0.10106082 0.0047918539 -0.0043699369 -0.0042233658
-0.0045929775 -0.0042296816 0.13083068 -0.024726933 -0.0043891585 -0.0042328122 0.1289051 -0.028041469
153606250 0.12267709 -0.016332351 -0.0047084969 -0.0013515372 0.11194447 -0.026462173 -0.0047238907 -0.001230786
-0.0046952358 -0.0013692303 0.12947416 -0.045345828 -0.0045656748 -0.0014593627 0.1097671 -0.048855964
0.11206301 -0.026450843 -0.0045813182 -0.0014471088 0.13284515 -0.029997459 -0.0046007019 -0.0013307071
-0.0047731632 -0.0012354007 0.10971895 -0.048847597 -0.0046219905 -0.001306632 0.11458183 -0.054046303
159850000 0.11761951 -0.075097628 -0.0046884017 0.00015266074 0.095338874 -0.072667599 -0.0046620122 0.00012097901
-0.0046988996 0.00011867284 0.11525957 -0.064460889 -0.0046205414 5.280122e-006 0.087349914 -0.060048174
0.095484696 -0.072773382 -0.0046482566 2.5980969e-006 0.12473366 -0.085250758 -0.0046127667 2.2687387e-005
-0.0046819355 0.00014290212 0.087261632 -0.060016155 -0.0046445001 2.7794789e-005 0.097403258 -0.070505679
166093750 0.080769256 -0.10911026 -0.0048889783 0.0025259163 0.055353258 -0.090532087 -0.0049332529 0.0025650426
-0.0049455208 0.0025347339 0.096816473 -0.078962393 -0.0049233381 0.0023805362 0.065705054 -0.063620999
0.055443317 -0.090663075 -0.0048950245 0.0023885791 0.087166317 -0.11569861 -0.0049398593 0.0024566296
-0.0049516782 0.0025823081 0.065640919 -0.063603498 -0.0049413377 0.0024660297 0.077677704 -0.081579201
172337500 0.039863199 -0.11766697 -0.0030452358 0.0044359956 0.020000421 -0.083886117 -0.0030178679 0.0045414185
-0.0030666699 0.0044597415 0.072573371 -0.088673718 -0.0030857951 0.0043883389 0.043580379 -0.062195014
0.020036029 -0.084047422 -0.0030717466 0.0043782326 0.047339413 -0.12117297 -0.0030976774 0.0044626794
-0.0030236728 0.0045556268 0.043544661 -0.062148906 -0.0030619493 0.0044782199 0.053322185 -0.08793781
178581250 0.0040178965 -0.10814895 -0.0022816556 0.0049544903 -0.0036615927 -0.064572178 -0.0023279737 0.0049962946
-0.0022867161 0.0049865767 0.040532924 -0.085992739 -0.002268452 0.0049114027 0.017993251 -0.050569173
-0.0036947306 -0.064678945 -0.0021863272 0.0047918186 0.014039371 -0.10999577 -0.0022579203 0.0049058502
-0.0022868104 0.0050597992 0.017981187 -0.050444804 -0.0022150206 0.0049919155 0.021617018 -0.081875123
184825000 -0.021881267 -0.084829405 -0.0016251934 0.0090614324 -0.014767721 -0.039093822 -0.0015930919 0.0092698401
-0.0015279461 0.0090972893 0.013330878 -0.060837097 -0.0016040952 0.0086943544 -8.4675003e-006 -0.01969298
-0.01474946 -0.039197482 -0.0016080901 0.0086778915 -0.0085703814 -0.086988151 -0.0016537855 0.0088825105
-0.0015722577 0.0092123123 -9.0531867e-006 -0.019678365 -0.0016087 0.0088685844 -0.0043713897 -0.052684665
191068750 -0.0307367 -0.054830588 0.0069490667 0.011385046 -0.010694129 -0.0143757 0.0071473527 0.011630091
0.0069424314 0.011324189 0.0063705235 -0.024837809 0.006502232 0.010975994 0.0037464947 0.017876931
-0.010797605 -0.014403411 0.0064594299 0.010919534 -0.014815578 -0.058907855 0.0066289487 0.011219383
0.0071578133 0.011627407 0.0037692783 0.01778955 0.0066547161 0.011276412 -0.0079648662 -0.012691404
197312500 -0.023742916 -0.031894539 0.013418945 0.0026779482 0.0038885251 -0.0010032211 0.013785957 0.0028054398
0.013452075 0.0027815811 0.0248577 0.01210637 0.012777408 0.0029297979 0.032273579 0.051777903
0.0038052537 -0.00091445679 0.012797594 0.0029872572 -0.0064476682 -0.038312856 0.01311638 0.0030317227
0.01372209 0.0028033166 0.032275781 0.051754285 0.01314598 0.0030328913 0.015952926 0.026139831
203556250 -0.018008282 -0.021204414 0.010215157 -0.0034961628 0.011290794 -0.00084604375 0.010496454 -0.0035460913
0.010276178 -0.0035179318 0.062778875 0.020900266 0.0099994252 -0.00309612 0.076740324 0.053768102
0.011373684 -0.00074176694 0.010084668 -0.0030749601 0.0006426184 -0.030310245 0.010290595 -0.0031128216
0.010589482 -0.0035012704 0.076675773 0.053770047 0.010352453 -0.0030379836 0.057882775 0.033066723
209800000 -0.016632592 -0.0054761861 0.007865035 -0.007527628 0.0093800519 0.0063723144 0.0082405536 -0.0077169482
0.0079051526 -0.0075995955 0.088473886 0.0082269544 0.0078402273 -0.0072726826 0.10451389 0.034009356
0.0095411083 0.0064289235 0.0078900112 -0.0072556869 0.0027796517 -0.018436054 0.008322957 -0.007402203
0.0082843704 -0.0077773118 0.10446408 0.033948615 0.0083393846 -0.0074488167 0.084504455 0.018727072
216043750 -0.004471533 0.019597061 0.0062267543 -0.0070177019 0.01515192 0.02755023 0.0066165896 -0.0072633075
0.0062327185 -0.0071207127 0.10390043 -0.001153885 0.0061478163 -0.0067024743 0.11896645 0.019613951
0.015310601 0.027451271 0.0061684218 -0.0067273732 0.013983295 0.0025853408 0.0065536653 -0.0069442871
0.0066237897 -0.007292253 0.11891752 0.01962442 0.0065860036 -0.0069318684 0.099589653 0.010214302
222287500 0.026299838 0.044381376 -0.00055872259 -0.0097132819 0.039850943 0.0533177 -0.00047216131 -0.010041441
-0.00047719185 -0.0096838223 0.11146981 -0.018558215 -0.0003587676 -0.0093257492 0.12454205 -0.00089419767
0.039737727 0.053224664 -0.00042357401 -0.009310537 0.041790042 0.023793923 -0.00038320626 -0.0097527839
-0.0005105813 -0.010128144 0.12438145 -0.00092769397 -0.00037594122 -0.0097461669 0.10701071 -0.00597016
228531250 0.082610257 0.036512598 -0.0041927272 -0.0098200347 0.093239933 0.050866242 -0.0042298869 -0.010146481
-0.00414766 -0.0098682614 0.12241823 -0.039405312 -0.0037968392 -0.0096374303 0.13422483 -0.022762002
0.093193732 0.051032618 -0.0038250817 -0.0096056564 0.094747424 0.015840754 -0.0038889616 -0.0099743614
-0.0042351442 -0.010253531 0.13415967 -0.022769725 -0.0038582985 -0.010026593 0.1202516 -0.02436004
234775000 0.11816765 -0.0106973 -0.0068197432 -0.0053688986 0.13215558 0.010032254 -0.0069975685 -0.005551842
-0.0068060467 -0.0053745415 0.12507831 -0.058778103 -0.0064566513 -0.0054000095 0.13642143 -0.042333946
0.13240936 0.010174951 -0.0064596054 -0.0054084864 0.13032556 -0.029745704 -0.0065741246 -0.0056082876
-0.0069595133 -0.0055466224 0.13629566 -0.042306121 -0.0065399278 -0.0055905567 0.12580322 -0.041481476
241018750 0.11558399 -0.064633064 -0.0067398092 -0.0021556937 0.1383287 -0.041903935 -0.0067655165 -0.0022013581
-0.0067894524 -0.0021243908 0.12154197 -0.082013018 -0.0065080994 -0.0023922455 0.13342436 -0.066242248
0.1386371 -0.041912992 -0.0065137045 -0.0023748071 0.13116537 -0.084813848 -0.0065576611 -0.0024724852
-0.0068617058 -0.0021702216 0.13333225 -0.0661925 -0.0065393988 -0.0024398111 0.1261571 -0.063855849
247262500 0.087317564 -0.10334783 -0.0067993701 -0.00025149703 0.11965972 -0.085332163 -0.0067816554 -0.00029875417
-0.0068000779 -0.00025721156 0.10766412 -0.10458036 -0.0067361435 -0.00052461342 0.11976068 -0.090439387
0.11985916 -0.085535459 -0.0067191892 -0.00057199685 0.10577267 -0.1286844 -0.0067136227 -0.00062185887
-0.006756328 -0.0003247936 0.1197217 -0.090445474 -0.0067293392 -0.00064972247 0.11572019 -0.086987652
253506250 0.048837729 -0.12061778 -0.0063873958 0.0017017768 0.087036766 -0.11351635 -0.0063309046 0.0016147613
-0.0063684704 0.0017757225 0.086459696 -0.12079121 -0.0065181861 0.0015012698 0.098046109 -0.1089507
0.087239251 -0.11373947 -0.0064581982 0.0015057857 0.067072943 -0.1538903 -0.0063728895 0.0014335857
-0.0062905541 0.0016715036 0.09798225 -0.10901029 -0.0064765378 0.0013788824 0.097664818 -0.10473649
259750000 0.010546749 -0.11851677 -0.0073344386 0.0036747372 0.047792677 -0.12510578 -0.007386025 0.0033506136
-0.007402576 0.0036794096 0.056921627 -0.12872922 -0.0074698515 0.0035644996 0.066192865 -0.11897358
0.047778342 -0.12533808 -0.0074314172 0.0035014502 0.024334071 -0.16013147 -0.0075131776 0.0033543219
-0.0073728235 0.0034119794 0.0661816 -0.11898436 -0.0074901949 0.0033889315 0.069906227 -0.11483973
265993750 -0.019564895 -0.10068893 -0.0075448221 0.0087619061 0.0090841241 -0.11933707 -0.0077604214 0.0085760579
-0.0075768698 0.0087539842 0.025671694 -0.12115605 -0.0075818566 0.0087284436 0.030983837 -0.11223035
0.009072504 -0.11951447 -0.007570419 0.0087407157 -0.014047538 -0.14849798 -0.007784815 0.0086244466
-0.0077530001 0.008602025 0.030957803 -0.11221913 -0.0077862819 0.0086408285 0.039306562 -0.10950762
272237500 -0.035722367 -0.074613295 -0.002525158 0.01566967 -0.021565791 -0.099132009 -0.0027352613 0.01596698
-0.002501955 0.015732674 0.0013442322 -0.09953066 -0.0024775132 0.015599721 0.0024820853 -0.088477768
-0.021594342 -0.099260494 -0.0024816042 0.015641762 -0.041015524 -0.12422087 -0.0026776397 0.015832489
-0.0026940913 0.015922258 0.0024908313 -0.088455409 -0.0026644282 0.015872024 0.015566876 -0.089054711
278481250 -0.038276128 -0.049518067 0.010387358 0.017620977 -0.040106136 -0.071234338 0.010620984 0.018008519
0.010431673 0.017717781 -0.0082404194 -0.068443701 0.01018058 0.017396335 -0.010016439 -0.05279775
-0.040132273 -0.07130909 0.010172291 0.017383512 -0.054327566 -0.095767342 0.010495147 0.017760685
0.010639396 0.018038834 -0.010003092 -0.052756138 0.010452726 0.017811516 0.0069897007 -0.059072368
284725000 -0.035587266 -0.028692722 0.021483574 0.0091217048 -0.04941529 -0.038985275 0.022123635 0.0091552874
0.021546606 0.009130355 -0.00037769842 -0.033820115 0.021217532 0.0090251025 -0.0026539473 -0.011634915
-0.049514472 -0.039019689 0.021210298 0.0089834481 -0.058948472 -0.067216218 0.02180475 0.009174251
0.022131547 0.0092083616 -0.0025962181 -0.011634299 0.021804007 0.009131832 0.01553497 -0.026085189
290968750 -0.02863241 -0.0088359648 0.023983154 -0.0065015405 -0.04646438 -0.0028423746 0.024684846 -0.0069470387
0.024117181 -0.0065065203 0.027770838 -0.016177092 0.023693485 -0.0064515793 0.028985247 0.012840228
-0.046446357 -0.0028259051 0.023706233 -0.00650386 -0.054327216 -0.038090061 0.024423826 -0.0068768742
0.024742054 -0.0069455383 0.028998142 0.012751549 0.024402838 -0.0069024907 0.044726416 -0.010887342
297212500 -0.015041727 0.011393351 0.014725533 -0.018822633 -0.027470702 0.033550341 0.015010615 -0.019672779
0.014785276 -0.018936677 0.050288469 -0.01721199 0.01445026 -0.018593997 0.058539603 0.016775349
-0.027563389 0.033539224 0.014411707 -0.018644132 -0.038957279 -0.0099884989 0.014736924 -0.019462101
0.015102304 -0.019727848 0.058462061 0.016763659 0.014781279 -0.019449569 0.067226321 -0.015065736
