# Hz S  RI   R 50
10000000 0.038564093 0.065086767 0.0012225211 -0.00034818612 0.015334836 0.023527551 0.0010853851 0.00011065138
0.0011762022 -5.8993151e-005 0.051770441 0.051542506 0.0011252696 9.7988457e-005 0.015661575 0.026508393
0.015530674 0.023716189 0.00087982183 7.0822462e-005 0.046420466 0.060712952 0.00080773665 0.00030843529
0.00097224256 0.00010427871 0.015804637 0.026632432 0.00070047542 0.00028492295 0.057974372 0.039555196
16243750 0.073356576 0.056845073 0.0013313737 -0.00023328149 0.029516621 0.029755048 0.0010592237 3.9051105e-005
0.0012519858 -0.00034897804 0.075934134 0.042402156 0.0010737126 0.00010889314 0.030830083 0.034700003
0.029407896 0.029719582 0.0012093018 6.8523063e-006 0.077308185 0.052329775 0.00099036493 0.00034858499
0.0012548859 -0.00010455609 0.030849036 0.034629352 0.00099103292 0.00020315217 0.07411667 0.028582092
22487500 0.097328685 0.042383414 0.001333983 -0.000466798 0.044120304 0.028450523 0.0012307242 -0.00015922992
0.001331998 -0.00046623699 0.090468876 0.034418643 0.0011861152 -0.00021115449 0.047506705 0.034725398
0.044151824 0.028526779 0.001332234 -0.0002527553 0.098730803 0.040314037 0.00108878 4.9189464e-005
0.0013109059 -0.00018637933 0.047506295 0.034801915 0.0012225531 1.8252214e-005 0.080821633 0.022979228
28731250 0.1130579 0.012800794 0.0012566061 -0.00062877923 0.05620965 0.021269303 0.0013674876 -0.00048798235
0.0013304503 -0.00064935768 0.10212652 0.015595951 0.001262819 -0.00038772338 0.061823871 0.027974075
0.056355067 0.021157414 0.0013237763 -0.00043886073 0.11430526 0.014993615 0.0012705782 -0.00020510425
0.0013348061 -0.00049799657 0.061728079 0.028040646 0.0013115571 -0.00020491557 0.087606162 0.010455065
34975000 0.11274444 -0.019795526 0.0012117521 -0.00098049932 0.063361056 0.0095820837 0.0013003068 -0.00077229209
0.0012810245 -0.00095958717 0.10483668 -0.0051987902 0.0012724077 -0.00074138847 0.070984989 0.016117662
0.063505657 0.0094522759 0.0012504663 -0.00067743188 0.11699695 -0.013681423 0.0013714009 -0.00050644454
0.0013222892 -0.00080776255 0.071005777 0.016103957 0.001380449 -0.00052921037 0.089396603 -0.0027004643
41218750 0.095854171 -0.046311401 0.0011772652 -0.0013157813 0.064188518 -0.003814827 0.0012055415 -0.0011708682
0.0010886687 -0.0013122784 0.097346202 -0.023151826 0.001247336 -0.0011316907 0.073201753 0.0019691447
0.06422808 -0.003853617 0.0012174303 -0.0010425528 0.10550694 -0.038409885 0.0013889689 -0.00092718791
0.0012205342 -0.0011379892 0.07314188 0.0019260673 0.001339769 -0.0009408308 0.085214034 -0.01392343
47462500 0.068573363 -0.060390815 0.0012146459 -0.0019144128 0.058185324 -0.015145157 0.0013097469 -0.0018424888
0.0012058067 -0.0019089446 0.082561433 -0.034498807 0.0012976844 -0.0017505491 0.067595065 -0.0098552322
0.058234364 -0.015285414 0.0013204784 -0.0017624917 0.084378801 -0.054010231 0.0014210074 -0.0016833361
0.0013221032 -0.0018404109 0.067618132 -0.0098927701 0.0015038834 -0.0016927655 0.076656573 -0.022087071
53706250 0.03808406 -0.056371137 0.00074996363 -0.0036797929 0.046573415 -0.019676097 0.00081004418 -0.0035569931
0.00075084169 -0.0035819602 0.064931564 -0.032554936 0.00089920976 -0.0034549742 0.056719005 -0.012147548
0.046580616 -0.019915767 0.0010334831 -0.0035404996 0.058578495 -0.054782942 0.0011581447 -0.0034662525
0.00084076484 -0.0034965803 0.056722853 -0.012246129 0.0010980536 -0.0033893564 0.065371566 -0.02114898
59950000 0.018515024 -0.029104996 -0.0033177494 -0.0060340781 0.037246596 -0.0094589237 -0.0029994817 -0.0062348209
-0.0032890851 -0.0061926176 0.065417133 -0.010569686 -0.0029887266 -0.0063367872 0.059826739 0.0034749154
0.037360817 -0.0094661117 -0.0028287314 -0.0060940124 0.040094603 -0.034252428 -0.0024587226 -0.0062732687
-0.0030958778 -0.0062264814 0.059820369 0.0033109931 -0.0025590919 -0.0062418361 0.069500752 -0.0035445271
66193750 0.041254707 -0.0045869639 -0.011959719 0.0011311151 0.059204187 -0.003329085 -0.01184285 0.00072213914
-0.012039994 0.001283563 0.09352196 -0.033409636 -0.011798931 0.00066113909 0.087116733 -0.024266455
0.059191078 -0.003320544 -0.011709929 0.0006482664 0.059638288 -0.014838739 -0.011598336 0.00019756547
-0.011850259 0.00072573393 0.087090932 -0.024180025 -0.011688421 0.00028079594 0.098628454 -0.03073974
72437500 0.05345352 -0.026624367 -0.002941495 0.0058200718 0.061130479 -0.039096627 -0.0030776695 0.0056090383
-0.0029447908 0.0059151771 0.071722358 -0.062915675 -0.0031745236 0.0055954102 0.061985433 -0.057048697
0.061161332 -0.039176367 -0.0032001138 0.0056685642 0.068147205 -0.039429411 -0.0034346343 0.0053111906
-0.0031516231 0.0055959001 0.06196795 -0.056983832 -0.0033162218 0.0053106281 0.075251274 -0.065674625
78681250 0.03585412 -0.028234508 -0.0015384216 0.0062014237 0.026683949 -0.046556219 -0.001695545 0.0060374406
-0.0015478 0.006147563 0.040714748 -0.05804383 -0.0017250276 0.0060302699 0.025555808 -0.052288383
0.026787654 -0.046603456 -0.0016736137 0.0060639414 0.045094553 -0.042587724 -0.0020049629 0.0059242309
-0.0017659806 0.0060607088 0.025546798 -0.052372474 -0.0019309567 0.0059402399 0.038551737 -0.0643503
84925000 0.034614585 -0.01801669 0.00071036821 0.0059396899 0.0077173132 -0.030659208 0.00056638313 0.0059134103
0.00072972715 0.005933031 0.027167372 -0.042551223 0.00050707185 0.005954673 0.0072612935 -0.032743603
0.007741427 -0.030714534 0.00056269055 0.0059278901 0.037573874 -0.029767759 0.00025037141 0.0060138456
0.00054752099 0.0059767892 0.0071930257 -0.032787506 0.0002971286 0.0060349051 0.018326541 -0.047534015
91168750 0.039173327 -0.014901205 0.00070146582 0.0048915311 0.00060987449 -0.011996855 0.00067223096 0.0050384533
0.00074782094 0.004964462 0.022730386 -0.028123425 0.00068421627 0.0050516985 0.00075172225 -0.01160277
0.00058814441 -0.012049116 0.00065997132 0.0050707506 0.038537085 -0.020186875 0.00061001832 0.0052142544
0.00062174723 0.0050646514 0.00074846164 -0.011495359 0.00056806509 0.0052034082 0.0092322351 -0.028023856
97412500 0.047869343 -0.013502043 0.0035527488 0.0097732134 0.0074972161 0.0096170418 0.0034980688 0.0097648213
0.0035174787 0.0097384518 0.025928911 -0.010697403 0.0034939633 0.0096083265 0.0057142405 0.013092734
0.0075544431 0.009618015 0.0035261668 0.0096246498 0.047167685 -0.011332257 0.0034697221 0.0096856672
0.0035318369 0.0097483173 0.0057497108 0.013110622 0.0035326642 0.0097205089 0.011867845 -0.0039193425
103656250 0.051997256 -0.024746284 0.0089336187 0.0065726708 0.021112423 0.017259846 0.0088382857 0.0065903836
0.0089491401 0.0066105016 0.036920875 -0.0033570952 0.0088032074 0.0065367683 0.021828135 0.026091749
0.021164738 0.017372413 0.0088008689 0.0065276022 0.055528399 -0.015465263 0.0087506231 0.0066166106
0.0088986913 0.0065969368 0.021852644 0.026099589 0.008767508 0.0065752668 0.026512057 0.0092917755
109900000 0.046337213 -0.035030156 0.011421301 0.0023430078 0.03376808 0.018521752 0.011329028 0.0024020108
0.011469542 0.0023246082 0.047153123 -0.001322552 0.011318581 0.0023183213 0.039130095 0.03064836
0.033803012 0.018583925 0.01125655 0.0023412132 0.057446621 -0.021871803 0.011261341 0.0024274071
0.011372364 0.0023261015 0.039139576 0.03064253 0.011255243 0.0023971703 0.043196511 0.013981461
116143750 0.033190895 -0.038579009 0.011010885 -0.0031825905 0.042009812 0.0154395 0.011006942 -0.0030122984
0.011062721 -0.0031438379 0.055002462 -0.0040562386 0.010937142 -0.0031452326 0.054026101 0.026790643
0.042064957 0.015501772 0.010916816 -0.003162215 0.052621938 -0.025976004 0.010931649 -0.0029699015
0.011019844 -0.0030434653 0.054042213 0.026762756 0.010943327 -0.0029708813 0.058024984 0.0094751799
122387500 0.022380782 -0.031317256 0.0085666301 -0.0055741584 0.049490143 0.012319906 0.0087175928 -0.0054903934
0.0085528139 -0.0055991965 0.056049537 -0.0055537233 0.0084475391 -0.0055503985 0.060094632 0.020940917
0.049551595 0.012339848 0.0083687278 -0.0055056619 0.048716106 -0.023453277 0.008664527 -0.0053651943
0.0086839525 -0.0055013117 0.060107086 0.020835862 0.0086510489 -0.0054068216 0.06377542 0.0021575463
128631250 0.014685464 -0.019644152 0.0078705 -0.0089815725 0.051553175 0.0061176256 0.008227841 -0.0090809567
0.0079161106 -0.009012023 0.059536152 0.0051099309 0.0079095215 -0.0088553661 0.064791746 0.025827393
0.051662065 0.0061141727 0.0078378841 -0.0088269264 0.044465877 -0.01951685 0.0082614431 -0.0089117344
0.0081652505 -0.0090596769 0.064843602 0.025667198 0.0082471399 -0.0088739274 0.067139633 0.0054947287
134875000 0.015002461 0.005412234 0.0033889315 -0.015584949 0.050280634 0.01126465 0.0037614394 -0.016014792
0.0033750872 -0.015598803 0.087541886 0.011477219 0.0034955316 -0.015494868 0.090984717 0.027582634
0.050350714 0.011306082 0.003496869 -0.015424134 0.043109488 -0.0030614741 0.0040016272 -0.015830513
0.0037572857 -0.015948657 0.090837419 0.027352557 0.003991893 -0.015842563 0.091467738 0.0068013035
141118750 0.045610361 0.027216868 -0.013343634 -0.016926046 0.069024727 0.018401513 -0.013483927 -0.017893553
-0.013309395 -0.016948421 0.11351109 -0.0073532551 -0.013054441 -0.017067058 0.11303538 0.0058740508
0.069142863 0.018405933 -0.012965186 -0.01704751 0.067971073 0.013427251 -0.013017613 -0.018054325
-0.013411703 -0.017909359 0.1127637 0.0057190014 -0.01300251 -0.018018594 0.11210061 -0.014599038
147362500 0.085953988 0.021086875 -0.020682255 0.0057239817 0.092195444 0.0065300381 -0.021651391 0.0053484412
-0.02071354 0.0056854696 0.12632963 -0.039655894 -0.020725284 0.0052823275 0.12076788 -0.027083412
0.09230607 0.0065070447 -0.020691914 0.0052285269 0.10174059 0.0056671565 -0.021590229 0.0047697714
-0.021660397 0.0052360594 0.12049937 -0.027084025 -0.021609206 0.004721263 0.11900019 -0.046806909
153606250 0.12323695 -0.016845075 -0.0009709805 0.01466899 0.11239516 -0.026932521 -0.0016195285 0.014980383
-0.00099076901 0.014719509 0.12185028 -0.074510299 -0.0013696566 0.014556016 0.1110454 -0.059685089
0.11259879 -0.026966715 -0.0013559809 0.014519386 0.13334607 -0.0304965 -0.0019556615 0.01477534
-0.0016643623 0.015024391 0.1109013 -0.059584178 -0.0019835893 0.014798502 0.10892907 -0.078150108
159850000 0.11739735 -0.075117148 0.0053901654 0.0031645023 0.095078826 -0.072697438 0.0051330961 0.0034804314
0.0053901258 0.0031970602 0.099311374 -0.10378464 0.0051708869 0.0032649857 0.084676862 -0.083913498
0.095254332 -0.0727925 0.005151222 0.0032920416 0.12454261 -0.085285887 0.004923535 0.0035201353
0.0051348601 0.0034777203 0.084569827 -0.083810829 0.0049265632 0.0035391592 0.083201669 -0.10072215
166093750 0.080839567 -0.10886965 5.5461664e-005 -0.00058049004 0.055418622 -0.090245761 -9.0982903e-005 -0.00032361309
9.1730195e-005 -0.0005725373 0.067509398 -0.11703182 3.7006808e-005 -0.0004501353 0.051944114 -0.090397649
0.055509306 -0.090423681 1.7390956e-005 -0.00044118296 0.087225482 -0.11543062 -0.00012059277 -0.00025643216
-6.8525806e-005 -0.00034212731 0.051907718 -0.090309888 -0.00012703238 -0.00026812643 0.052573491 -0.10579171
172337500 0.04005681 -0.11750796 -0.0029420671 0.0018542904 0.020195141 -0.083694972 -0.0030386702 0.0020253072
-0.002987518 0.0018121958 0.035073519 -0.11628165 -0.0029334475 0.0019003464 0.022004012 -0.082911365
0.020248184 -0.083858363 -0.0028931103 0.001923491 0.047560569 -0.1209989 -0.0029915345 0.0020585579
-0.0030465829 0.0020279661 0.022015827 -0.082857125 -0.0029975167 0.0020986318 0.026035659 -0.098236591
178581250 0.004209171 -0.10801632 -0.0039302432 0.0053962837 -0.0034031218 -0.064404368 -0.0039476347 0.0055760802
-0.0039079082 0.0054002153 0.0051591531 -0.10162085 -0.0037310438 0.0053325784 -0.0023393605 -0.063183479
-0.0034294415 -0.064463593 -0.0036841889 0.0053481087 0.014368068 -0.10986295 -0.0037065304 0.005475
-0.0039006968 0.0055464045 -0.0023255455 -0.063218646 -0.0037629316 0.0054648686 0.0053665028 -0.080806188
184825000 -0.021502912 -0.084643699 -0.0027271479 0.011445809 -0.014415825 -0.0390095 -0.0027117473 0.011484648
-0.0027033798 0.011417977 -0.014048099 -0.073209584 -0.0025204236 0.011177783 -0.014286678 -0.032688752
-0.014439192 -0.039049599 -0.0024516894 0.011105217 -0.0082496908 -0.086862236 -0.0025240092 0.011212933
-0.0027620443 0.011506286 -0.014314977 -0.032778155 -0.0026033632 0.011263683 -0.004161221 -0.054855477
191068750 -0.029897656 -0.054865435 0.00549747 0.016751723 -0.01000469 -0.01433574 0.0054677045 0.016990738
0.0055349455 0.016805325 -0.016118029 -0.04071511 0.0054757334 0.016300127 -0.008857565 -0.0013370146
-0.0099933241 -0.014384719 0.0054248092 0.016266257 -0.014191285 -0.058896556 0.0053528934 0.016500786
0.0054248143 0.016948607 -0.0088906791 -0.001449688 0.0053716451 0.016431076 0.00086215226 -0.029604387
197312500 -0.022795508 -0.032683223 0.018628847 0.013813297 0.004791941 -0.0016728101 0.018635465 0.014139998
0.018687721 0.013864382 -0.0023885367 -0.013407219 0.018217595 0.013459989 0.010970644 0.02222231
0.0047284062 -0.0016511311 0.018108483 0.013434189 -0.0055687465 -0.038956065 0.018180605 0.013815204
0.018614225 0.014207893 0.010888604 0.022095494 0.018147171 0.013781095 0.01675741 -0.011818918
203556250 -0.018018598 -0.023041137 0.024198337 0.00033318365 0.011310027 -0.0025274144 0.024689002 0.00065516995
0.024242057 0.00041377443 0.016204346 0.0031161576 0.023697842 0.00028725533 0.033720721 0.033594083
0.011334273 -0.0024618236 0.023680316 0.0003450957 0.00068141409 -0.031918976 0.024091138 0.00073766103
0.024608037 0.00071094534 0.033574216 0.033360254 0.024096211 0.00073665893 0.0325533 -0.0039590276
209800000 -0.018484641 -0.0065796725 0.019981746 -0.012828977 0.0075599845 0.0052919439 0.0207047 -0.013064489
0.020003127 -0.012860488 0.043233018 0.013894126 0.019702127 -0.012801166 0.063018464 0.038932346
0.0077048312 0.0053366995 0.019735191 -0.012714611 0.0010530343 -0.019543305 0.0204744 -0.012839474
0.020724306 -0.012987597 0.062769182 0.038750444 0.020488514 -0.01284012 0.053265952 0.0019708041
216043750 -0.0065218895 0.020848436 0.010697443 -0.013363007 0.0132474 0.028601423 0.01093822 -0.014255646
0.010752162 -0.013379303 0.07503169 0.015179189 0.010442642 -0.013420998 0.096011564 0.03501416
0.013299017 0.028657224 0.010499387 -0.013405541 0.012064886 0.0036053916 0.010870583 -0.014138109
0.011034032 -0.014274423 0.095667414 0.034910545 0.010905298 -0.014161612 0.078921713 0.0026228302
222287500 0.027565351 0.046601076 0.0053377757 -0.011977762 0.04096505 0.055397138 0.0050903875 -0.012812626
0.0054017673 -0.012081424 0.098133206 -0.0062206769 0.004927102 -0.012126341 0.11933047 0.0081803882
0.040912542 0.055354718 0.0048758602 -0.01208417 0.042758811 0.025907008 0.0047501335 -0.012821357
0.0050234995 -0.012887486 0.11891828 0.0082616191 0.0047364528 -0.012836402 0.097697474 -0.016933283
228531250 0.084547579 0.035800498 0.0050317803 -0.015545115 0.095088311 0.05026713 0.0044029811 -0.016049102
0.0050246413 -0.015629882 0.11757209 -0.035356585 0.0045959791 -0.015408863 0.13750102 -0.026119636
0.095167406 0.050384048 0.0046074628 -0.015396372 0.096543729 0.015431018 0.0041639288 -0.01583313
0.0043666535 -0.016068121 0.13715228 -0.025907038 0.0041124811 -0.015827719 0.11484154 -0.042881526
234775000 0.11801542 -0.012200549 -0.00033520794 -0.016547687 0.13206615 0.0086272173 -0.0010013526 -0.016656132
-0.0003080813 -0.016541228 0.12068376 -0.064410493 -0.00048351786 -0.016281165 0.13787973 -0.05972736
0.13236664 0.0087756664 -0.00048278563 -0.016249971 0.1303689 -0.030974675 -0.00099914195 -0.016396035
-0.0010143643 -0.016699394 0.13759604 -0.059562657 -0.0010368514 -0.016431365 0.11779718 -0.068966128
241018750 0.114734 -0.06501773 -0.0056568775 -0.015126562 0.13746369 -0.042245593 -0.0063248542 -0.01508909
-0.0056861681 -0.015145445 0.11372709 -0.094047643 -0.0057505439 -0.014952363 0.12690654 -0.092942543
0.13781022 -0.042301469 -0.0056918338 -0.014921358 0.13040271 -0.085202992 -0.00619725 -0.014987072
-0.0063297679 -0.015069112 0.12672994 -0.092726007 -0.0061988323 -0.014967834 0.11231716 -0.096976519
247262500 0.086842917 -0.10301194 -0.01052768 -0.011809614 0.11914235 -0.085043319 -0.01106075 -0.011719554
-0.010508089 -0.011878787 0.095815428 -0.12025738 -0.010575484 -0.011750233 0.10399626 -0.12112518
0.1193568 -0.08522369 -0.010560326 -0.011781265 0.1052862 -0.12844166 -0.011007158 -0.01172436
-0.011085677 -0.011663006 0.10382503 -0.12080366 -0.010990596 -0.011715897 0.096379951 -0.1233604
253506250 0.048880242 -0.12015198 -0.013134579 -0.0068599647 0.087017857 -0.11308566 -0.013735872 -0.0066188578
-0.013262767 -0.0069188871 0.070312977 -0.13884924 -0.013303055 -0.006795859 0.072604842 -0.13971335
0.08711151 -0.11323615 -0.01330531 -0.0067671984 0.066979729 -0.15348519 -0.013771079 -0.0066696052
-0.013702561 -0.0065515488 0.07259018 -0.13952316 -0.013744881 -0.0066909743 0.071537606 -0.14428204
259750000 0.010860255 -0.11835978 -0.014944887 -0.0016496131 0.047922339 -0.1248884 -0.015438279 -0.0011313885
-0.014935833 -0.0015900676 0.037915759 -0.14759891 -0.015218579 -0.0014070374 0.034184806 -0.14587045
0.048062574 -0.12514369 -0.015179664 -0.0014434457 0.024500433 -0.15989073 -0.015589841 -0.0010601517
-0.015459356 -0.0011228604 0.03413507 -0.14575616 -0.015589178 -0.0011238501 0.037168872 -0.15586486
265993750 -0.01912904 -0.10073876 -0.014351627 0.0054277973 0.0094566029 -0.11930697 -0.014603095 0.0060211788
-0.014347289 0.0054804198 0.0054599117 -0.14256875 -0.014375105 0.0056536808 -0.003517749 -0.13547769
0.0093441242 -0.11953463 -0.014464974 0.0055974466 -0.013755662 -0.1483268 -0.014733532 0.0060906853
-0.014690894 0.0060137473 -0.0035573635 -0.13531236 -0.014743576 0.0060815667 -5.8768157e-005 -0.1525294
272237500 -0.035463307 -0.074832901 -0.0093973409 0.012040695 -0.021315238 -0.099298395 -0.0095522702 0.012694849
-0.009466053 0.012073246 -0.02075295 -0.12661496 -0.0093518561 0.012191237 -0.033148002 -0.11128289
-0.021362312 -0.099450618 -0.0093651814 0.012104361 -0.040827267 -0.12434557 -0.0094961012 0.012703713
-0.0095797153 0.012705689 -0.033163175 -0.11128327 -0.0094909417 0.012686599 -0.03303514 -0.13501476
278481250 -0.038286015 -0.049887117 -0.00066310598 0.014030045 -0.039985675 -0.071543664 -0.00037256346 0.014710022
-0.0006215527 0.014091218 -0.037265219 -0.10471959 -0.00065256254 0.014001827 -0.050140921 -0.078955494
-0.040089395 -0.071648061 -0.00061020372 0.014010939 -0.054325745 -0.096069783 -0.00049233128 0.014522065
-0.00042840163 0.014652988 -0.050169539 -0.078848921 -0.0005037029 0.014594024 -0.056221124 -0.1071231
284725000 -0.035768222 -0.029057939 0.0059236884 0.011522497 -0.049599309 -0.039351523 0.0063702352 0.012016769
0.0059196516 0.011516238 -0.046541426 -0.07872884 0.0057786247 0.011480836 -0.055107363 -0.04161052
-0.049639113 -0.039442487 0.0057670595 0.011460437 -0.059099752 -0.067490295 0.0061065145 0.012006609
0.0063402592 0.012068633 -0.055199288 -0.041603386 0.0061603244 0.01200568 -0.068735711 -0.071209624
290968750 -0.029088881 -0.0089106066 0.010507372 0.0058084112 -0.0468316 -0.0029536071 0.011091796 0.0059882025
0.010528072 0.0058115344 -0.04370755 -0.051746108 0.01028065 0.0059144883 -0.043376219 -0.0047669462
-0.046878632 -0.0028976605 0.0102875 0.0059433933 -0.054741587 -0.038211398 0.010882583 0.0062677837
0.011251104 0.0060829171 -0.043407507 -0.0048618084 0.01088932 0.0062398044 -0.064061806 -0.032980993
297212500 -0.015324392 0.011757988 0.0091842776 -0.0013142427 -0.027716279 0.033865001 0.0098250052 -0.0014614143
0.0091684433 -0.0013475775 -0.030500611 -0.029649051 0.0092032934 -0.00091771747 -0.017240638 0.023789048
-0.027818393 0.033904038 0.0092328368 -0.00097120873 -0.039163262 -0.0097103994 0.009906996 -0.0010455789
0.0098823523 -0.0014281952 -0.017478609 0.023620933 0.0099080233 -0.00095646468 -0.04380054 -0.0011754152
303456250 0.010820252 0.029082121 0.003329427 -0.0026303343 0.011057726 0.06232892 0.0038628865 -0.0031546908
0.0033741375 -0.0025940577 -0.0097670974 -0.014910957 0.0038092283 -0.0024750717 0.01853258 0.039716467
0.011004419 0.062339712 0.0038323039 -0.0025267403 -0.0099948207 0.012366179 0.0043874616 -0.0029913934
