!Agilent Technologies,N5224A,MY51441544,A.10.00.00
!Agilent N5224A: A.10.00.00
!Date: Wednesday, July 15, 2015 14:47:32
!Correction: S11(Full 4 Port(1,2,3,4)) 
!S12(Full 4 Port(1,2,3,4)) 
!S13(Full 4 Port(1,2,3,4)) 
!S14(Full 4 Port(1,2,3,4)) 
!S21(Full 4 Port(1,2,3,4)) 
!S22(Full 4 Port(1,2,3,4)) 
!S23(Full 4 Port(1,2,3,4)) 
!S24(Full 4 Port(1,2,3,4)) 
!S31(Full 4 Port(1,2,3,4)) 
!S32(Full 4 Port(1,2,3,4)) 
!S33(Full 4 Port(1,2,3,4)) 
!S34(Full 4 Port(1,2,3,4)) 
!S41(Full 4 Port(1,2,3,4)) 
!S42(Full 4 Port(1,2,3,4)) 
!S43(Full 4 Port(1,2,3,4)) 
!S44(Full 4 Port(1,2,3,4)) 
!S4P File: Measurements: <S11,S12,S13,S14>,
!<S21,S22,S23,S24>,
!<S31,S32,S33,S34>,
!<S41,S42,S43,S44>:
# Hz S  RI   R 50
10000000 0.0025717551 0.00071546633 0.99550104 -0.046709929 0.00012228006 -1.1048834e-005 8.4667015e-005 0.00011749857
0.99522537 -0.04695686 0.0048688576 0.00019633616 0.00011577918 -4.0407071e-005 9.8184573e-006 -0.00010100661
5.3890599e-006 3.9793355e-005 -5.5535944e-005 -3.4125926e-005 0.0035488519 0.0025772781 0.99436891 -0.047000207
8.8904329e-005 3.5581881e-005 -1.5098728e-005 2.5498992e-005 0.99509043 -0.046829779 0.0039168904 0.0015823646
16243750 0.004199144 0.00017577353 0.99243194 -0.075899929 -0.00012898077 -5.4651286e-005 -2.2328895e-005 -9.7952863e-005
0.9923144 -0.075790539 0.0045895968 0.00011203025 -0.00012065647 -9.1761416e-005 -3.3202876e-005 1.8292732e-005
8.2482715e-005 4.6239926e-005 -2.9668228e-005 -1.7176872e-005 0.0043159472 0.0021050479 0.99275136 -0.075394705
-7.1500624e-005 -9.7455057e-005 -2.2835926e-005 -2.2626333e-005 0.99268562 -0.075286917 0.0040743067 0.0021893918
22487500 0.0046140538 0.00011706121 0.98912203 -0.10385486 -3.4828787e-005 3.0485884e-005 -4.3001433e-005 2.8646002e-005
0.98934835 -0.10382947 0.0056882342 -0.00011139365 2.4625768e-007 5.9222311e-005 -9.3859075e-005 -8.469724e-005
2.6003305e-005 -1.2473851e-005 -5.0610863e-005 -1.8309796e-005 0.0049579656 0.0024821253 0.98897475 -0.1034499
-3.4771048e-005 4.6770119e-006 4.552113e-005 -8.3627574e-006 0.98944187 -0.10342067 0.005600709 0.0021750776
28731250 0.0051400703 -0.00056508032 0.98500597 -0.13180313 -4.2640455e-005 6.7652436e-005 3.9602139e-005 1.0945982e-005
0.98532897 -0.13157701 0.0056964546 -0.00063466467 -3.2237262e-005 3.4387027e-005 7.3466406e-005 -3.2874559e-005
2.9725787e-005 4.1798274e-005 7.6881051e-006 3.6305988e-005 0.0055904253 0.0024242376 0.98512113 -0.13129123
5.4911317e-007 -7.5794878e-006 7.9785583e-005 -3.2403761e-005 0.98568702 -0.13119234 0.0060294624 0.0023893532
34975000 0.0057950066 -0.0011520728 0.98049253 -0.15947998 5.4744692e-006 2.7747605e-005 1.3857534e-005 -2.3479004e-005
0.98062575 -0.15967138 0.0059275939 -0.0012982301 1.9029774e-005 -1.9005616e-005 2.4406421e-005 3.5310618e-006
1.8623208e-005 -3.2753527e-005 4.4951481e-005 2.8263845e-005 0.0061386968 0.0025396012 0.98018432 -0.15878934
4.5739758e-005 -3.7703081e-005 5.3195396e-005 -9.023866e-007 0.98094332 -0.15889212 0.0068992898 0.0021196397
41218750 0.0063979174 -0.001686519 0.97488397 -0.18695189 -5.1956864e-005 7.8183497e-005 9.9319705e-006 2.5750116e-005
0.97512943 -0.18709356 0.006535626 -0.002218903 -1.132432e-005 4.5072506e-005 -7.3064289e-006 1.2422829e-005
-2.8606659e-005 -2.31884e-006 -2.0895586e-005 -1.5923982e-006 0.0067904256 0.0021983075 0.97492069 -0.18621197
-1.7261313e-005 -1.1861964e-006 1.679698e-006 4.4282251e-006 0.97541952 -0.18634899 0.007471465 0.0018562768
47462500 0.0066852933 -0.0024486589 0.96869987 -0.21434644 -3.55423e-005 -1.8281404e-005 1.520357e-005 1.2356351e-005
0.9690538 -0.21449223 0.0067264987 -0.0027028089 -1.2865082e-005 2.7276164e-005 1.3913909e-006 2.0557174e-005
-1.3438987e-005 -1.1177034e-005 -2.0469877e-005 -4.9276464e-006 0.0075227567 0.0019397116 0.96879536 -0.21352074
6.0177913e-006 -6.0553384e-006 4.0696479e-005 -1.4200005e-005 0.96923047 -0.2134618 0.0078670625 0.0016493764
53706250 0.0067109172 -0.0032855205 0.96175921 -0.24165548 -2.7049787e-006 2.7399812e-005 3.9863849e-006 5.0484763e-005
0.96214443 -0.24122636 0.0069436557 -0.0038521357 -2.4122137e-005 -5.3464148e-005 2.0744234e-005 6.100375e-005
-4.7798771e-005 4.066922e-005 0.00010726919 -0.00010727256 0.0076893433 0.0018088579 0.96198845 -0.24014024
-9.0923977e-006 6.5153683e-005 3.4923407e-005 0.000126357 0.96262765 -0.24043544 0.0079929335 0.0014864561
59950000 0.0072938064 -0.0045783175 0.95419627 -0.26816294 3.4715853e-005 -1.1795956e-005 -2.7133712e-005 3.7715181e-005
0.95453638 -0.26809925 0.0067272992 -0.0044465899 3.7836846e-005 -7.9474623e-005 -4.6749603e-005 4.5992128e-006
-5.69189e-005 -4.6910554e-005 -2.0199823e-005 -2.4547759e-005 0.0080939373 0.0010824208 0.95465124 -0.26694301
7.8504949e-005 2.8903148e-006 -2.5342088e-005 2.0675709e-005 0.95477021 -0.26709884 0.0087990332 0.00070862577
66193750 0.0063273883 -0.0054079886 0.94618511 -0.29463658 -0.00010680725 -2.0207186e-005 -1.4973092e-005 9.4459116e-005
0.94580418 -0.29456362 0.0069882497 -0.0053597866 -4.6476194e-005 -1.6962398e-005 -8.3771731e-005 7.6386845e-005
2.6360919e-006 -2.2535667e-005 -2.7732372e-005 1.8062927e-005 0.0085830614 0.0010311753 0.94619781 -0.29334471
2.3558898e-005 3.3029683e-005 -3.5379104e-005 1.195387e-005 0.94653368 -0.29336038 0.0088684345 0.00077311019
72437500 0.0066249133 -0.0065499609 0.93717217 -0.32087487 -5.7881357e-006 -2.6603802e-005 -9.982894e-006 -4.4083015e-005
0.93700546 -0.32103139 0.0068011954 -0.0062246118 -4.9070655e-005 -5.4025273e-005 5.3897795e-005 -8.361073e-006
5.8448109e-005 -2.6103777e-005 6.4045148e-006 5.9534497e-005 0.0086271847 0.00038021174 0.93716806 -0.31957358
-5.1184397e-006 2.0447356e-005 3.9901901e-005 1.7187924e-005 0.93753821 -0.3196502 0.0091480566 0.00032933947
78681250 0.0062903371 -0.007260134 0.9270606 -0.34684932 2.9195653e-005 -5.6998633e-005 2.8921637e-005 3.9529099e-005
0.92720169 -0.34697637 0.0063354988 -0.0072194273 4.1319527e-005 8.9654195e-006 3.3235745e-005 -2.5596933e-005
4.4889541e-005 -1.0538578e-005 -5.1841158e-005 -4.0466046e-005 0.0090394532 -2.5049116e-005 0.92734426 -0.34541795
2.1129388e-005 3.2001883e-006 3.2091215e-005 -4.9716356e-005 0.92797744 -0.34543815 0.0092749922 -0.00010408679
84925000 0.0061977142 -0.0080270544 0.91678208 -0.3727999 5.4407415e-006 -1.534052e-005 2.4479452e-005 -2.9710374e-005
0.916655 -0.37258315 0.0061337133 -0.008003898 2.19254e-005 3.9618458e-006 1.0005021e-005 -6.6012713e-006
-7.8453477e-006 -3.9319806e-005 1.1999193e-005 -3.5434165e-005 0.0091257393 -0.00056793267 0.9170534 -0.37099147
2.8805813e-005 -2.0786616e-005 2.660129e-005 -1.9656857e-006 0.91751629 -0.37108868 0.009612334 -0.00051077909
91168750 0.0061924271 -0.0089751203 0.90566224 -0.39806032 1.5548698e-005 6.4944411e-006 -4.0613384e-005 -3.3850141e-005
0.9053629 -0.39791086 0.0058298134 -0.008816842 2.2928767e-005 -2.4659303e-006 -3.3687578e-005 -7.5851653e-006
-5.8908816e-005 4.9376253e-005 -9.341905e-007 8.339133e-007 0.0093123345 -0.0010663603 0.90593052 -0.39623234
-3.917998e-005 -1.0982892e-005 -2.1739474e-005 -3.3255969e-006 0.9064793 -0.39630836 0.009864592 -0.0012061178
97412500 0.0056108795 -0.0098763341 0.89375204 -0.4229252 1.3105657e-005 3.2141357e-005 1.8557997e-005 -1.2350243e-005
0.89361978 -0.42301232 0.0056924885 -0.0095187435 -6.5480426e-006 4.2917407e-005 3.5778712e-006 1.1446123e-006
-2.00218e-005 -1.9187901e-005 3.1326232e-005 -3.2231551e-006 0.0094109029 -0.0015275206 0.89421141 -0.42109266
-2.3347069e-005 1.6540582e-005 5.4805391e-006 3.9873634e-005 0.89460337 -0.42114183 0.0098562455 -0.001488885
103656250 0.0054575461 -0.010697936 0.88127798 -0.44766593 1.3573365e-005 -2.5600686e-005 2.6545861e-006 9.6264876e-007
0.88089406 -0.44769609 0.0052780923 -0.010596288 -1.8655879e-005 -1.8179293e-005 1.4948443e-005 -1.7633738e-005
1.2764805e-005 2.0860055e-006 1.6787564e-005 -2.366847e-006 0.0093992753 -0.0019578589 0.88187438 -0.44561484
-3.1890715e-005 1.5513571e-005 -1.8634062e-006 -4.7561334e-005 0.88209128 -0.44569311 0.0098343585 -0.0019929195
109900000 0.0049841842 -0.011646337 0.86810017 -0.47201613 -3.805693e-006 -1.5452155e-005 2.5423942e-005 4.1361018e-006
0.86782598 -0.47173357 0.0047550341 -0.011255068 2.4932744e-005 -3.5315359e-005 2.8977531e-006 8.3645318e-006
-1.2543524e-005 -2.439335e-005 1.9241328e-005 -1.0814824e-005 0.0094476799 -0.0025246365 0.86899394 -0.46979159
-4.3328146e-005 6.4579417e-006 -6.5957129e-006 1.1466794e-005 0.8689819 -0.46988866 0.0097861718 -0.0024227789
116143750 0.0044907317 -0.012194876 0.85415083 -0.49597025 -8.1755452e-006 -2.8115635e-005 3.6611393e-005 1.3046158e-005
0.85387886 -0.49566078 0.0041475655 -0.012243692 2.2477585e-005 6.618106e-006 1.2295611e-006 2.2469571e-006
2.8715398e-005 -3.4603941e-005 -4.8259108e-006 6.6464127e-006 0.0093497597 -0.0028212778 0.85521907 -0.49357697
2.2869945e-005 -1.0422306e-005 1.9809888e-005 2.1573393e-005 0.85543752 -0.49374494 0.0097731398 -0.0029895359
122387500 0.0037297076 -0.013186663 0.83972329 -0.51936096 2.7331513e-005 2.2521333e-006 8.4367066e-006 -1.6238424e-005
0.83927602 -0.51915592 0.0035152831 -0.012989774 1.3439196e-005 9.0365184e-008 -1.4415913e-005 -9.6281956e-006
-8.6525542e-006 -6.7467745e-006 -1.9254923e-005 9.3133558e-006 0.0093301311 -0.0031638376 0.8409403 -0.51705599
1.6438869e-005 -1.1754131e-006 -6.9163762e-006 1.6716891e-005 0.84107602 -0.51719177 0.0096801771 -0.0035753499
128631250 0.0030022608 -0.013694123 0.82463443 -0.54245704 1.4901992e-005 6.6608509e-006 -7.5205921e-006 -4.1849726e-006
0.82439637 -0.54233456 0.0029225606 -0.013786793 -1.0227641e-005 8.0242971e-006 -1.5920808e-005 -3.0995507e-006
5.2283303e-006 2.403004e-005 2.7735805e-005 -1.253903e-005 0.0091157183 -0.0036749567 0.82596725 -0.54001516
2.1960437e-005 -1.0423286e-006 1.0931279e-005 5.5588112e-006 0.82617766 -0.54010725 0.009769314 -0.003931595
134875000 0.0021512585 -0.014388474 0.80887395 -0.56497723 -3.8410901e-005 4.1775827e-005 1.4310618e-005 -1.9542207e-005
0.80854905 -0.56500167 0.0023003086 -0.01467274 -3.7874626e-005 2.3120558e-005 2.7184629e-005 -2.6220767e-005
2.2562649e-006 -2.41947e-005 -8.0494901e-006 3.1304353e-005 0.0089357197 -0.0041361176 0.81039184 -0.56258595
-8.1830503e-006 2.9743348e-006 -4.4821195e-006 1.8168462e-006 0.81064844 -0.56274718 0.0096294498 -0.0043718177
141118750 0.0013928169 -0.014992993 0.79252678 -0.58725274 -1.7606364e-005 9.6753874e-006 2.1137219e-005 -2.3535154e-005
0.79236054 -0.58699763 0.0016901309 -0.015370881 8.944553e-006 8.2976285e-006 2.5043273e-006 2.9077798e-006
-1.6235441e-005 -2.2888134e-005 -3.6454542e-006 2.4790372e-005 0.0087609887 -0.0046216832 0.79414177 -0.58461183
-2.5632382e-005 7.6773649e-006 -2.2281536e-005 -4.0338687e-006 0.7943697 -0.58479488 0.0096207503 -0.0049167266
147362500 0.00053565489 -0.015776495 0.77561283 -0.60882592 6.5901449e-006 2.4722965e-005 1.1411043e-005 4.8588495e-006
0.77538794 -0.60861981 0.0009228299 -0.015789205 5.3153612e-006 1.0383708e-005 8.9104742e-006 2.3904497e-005
-2.5777914e-005 9.1066049e-006 -2.3355773e-005 1.1514707e-005 0.0086283451 -0.0049454472 0.77733785 -0.60621375
1.810749e-005 -3.3155535e-005 -6.0645289e-006 2.4993367e-006 0.77761263 -0.60635173 0.0094317263 -0.0054531745
153606250 -0.00027782808 -0.016365649 0.7580511 -0.62981981 1.1306906e-005 -2.9521174e-005 -2.8832187e-006 -3.3669592e-005
0.7580176 -0.62990057 0.00010526695 -0.016390806 -1.72817e-005 -1.2414035e-005 -1.2873086e-005 -2.7510989e-005
1.0970577e-005 4.8804696e-007 1.7913568e-005 1.1641459e-005 0.008466837 -0.0053944113 0.75997311 -0.62735856
-3.0766112e-006 1.6258487e-005 1.5109083e-006 4.2073398e-006 0.76027089 -0.62755132 0.0091634775 -0.0058315722
159850000 -0.0011175593 -0.016842574 0.7399171 -0.65046245 1.6763077e-005 -2.1707341e-005 1.161814e-005 2.2917777e-005
0.73990887 -0.65053147 -0.00050693634 -0.017086374 1.0539921e-005 9.1540433e-006 4.8209208e-006 -8.1319631e-006
-1.495327e-005 2.8759407e-006 4.6201453e-006 -1.8724104e-005 0.0083081191 -0.0056987437 0.74203527 -0.64794958
1.0773706e-005 -1.9064533e-005 -7.4016953e-006 -2.29572e-005 0.74238104 -0.64817351 0.0089563513 -0.0062714624
166093750 -0.0020252031 -0.01735656 0.72112685 -0.67063022 -8.3676141e-006 1.2909781e-005 1.528449e-005 1.9964902e-005
0.72126549 -0.67071801 -0.001387689 -0.017655909 -2.2696782e-005 1.7070421e-005 1.3231304e-005 4.7413382e-006
-3.711124e-006 -1.0053925e-006 -2.1278262e-005 -4.5265056e-006 0.0081677726 -0.006060889 0.72359174 -0.66810024
1.9156605e-006 1.0624075e-005 -1.1706233e-005 -7.4259822e-007 0.72389591 -0.66831464 0.0087674977 -0.0067576114
172337500 -0.0027803644 -0.017721081 0.70195001 -0.69026709 -1.0427261e-005 -1.0848141e-005 -1.5522426e-006 -7.4539948e-006
0.70207912 -0.69034714 -0.0021244907 -0.018283146 3.8086844e-006 -1.6974308e-006 -1.121105e-005 -5.2916321e-006
-8.6140653e-006 -1.7945102e-005 -2.6071095e-007 1.4723717e-005 0.0078584915 -0.0064441795 0.70459467 -0.68764812
2.5737283e-005 -9.981416e-006 1.2991328e-005 1.058333e-005 0.70484817 -0.68802118 0.0085449899 -0.0073214765
178581250 -0.003577169 -0.018294711 0.6823619 -0.70951891 -4.8254924e-006 -6.5433287e-006 1.3919321e-005 -1.3410159e-006
0.68231195 -0.70925462 -0.0030354229 -0.01859566 -4.0991585e-005 4.5893546e-005 -3.2801695e-006 -2.3802763e-006
-2.3758768e-005 2.1262873e-005 4.8796242e-006 -1.1407639e-006 0.0076713134 -0.0066711884 0.68502861 -0.70668167
-3.1225583e-005 -3.0260315e-005 -8.5993526e-007 -3.9404e-005 0.68540633 -0.70705479 0.0081378957 -0.0077103185
184825000 -0.0047092163 -0.018593708 0.66216642 -0.72790796 6.1825167e-006 -1.5821748e-005 -5.2159444e-006 -4.9493723e-005
0.66202605 -0.72789901 -0.0040171486 -0.019256907 -2.6564323e-005 9.9504541e-006 4.4152166e-005 -4.2299842e-005
-9.7135207e-006 -1.2777991e-005 3.6869835e-005 -3.0265661e-005 0.0072872592 -0.0071750721 0.66492712 -0.7254079
6.5558784e-006 -5.7122543e-005 3.1926404e-005 -3.0861327e-005 0.66543341 -0.72574288 0.0080398293 -0.0082078148
191068750 -0.0055341548 -0.01906497 0.64139253 -0.74588919 1.9581594e-005 1.448161e-006 -2.9835215e-005 4.4841305e-005
0.64152861 -0.7458145 -0.0050649163 -0.019530876 2.0388015e-005 -3.5039553e-005 2.6317117e-005 1.6820772e-005
9.4612442e-006 -1.4869202e-005 -1.8268001e-005 -1.4701227e-005 0.0069069425 -0.0075680036 0.64457202 -0.74327838
-3.0129664e-005 -1.921591e-005 1.6807368e-005 7.236868e-006 0.64488161 -0.74368411 0.0077447272 -0.0086054141
197312500 -0.0066105174 -0.019309895 0.62011349 -0.76323944 1.0774149e-005 4.462045e-007 -4.2496784e-005 -1.8548231e-005
0.62029409 -0.76312566 -0.0058245859 -0.019626781 -3.836006e-005 -5.991551e-006 -4.2903859e-005 3.5734076e-005
-2.3536795e-005 -6.2100189e-005 1.0016197e-005 -1.961602e-005 0.0067249197 -0.0079338728 0.62338704 -0.76064658
3.7281955e-006 -6.6863504e-006 -3.9448474e-005 -4.7576746e-006 0.62372494 -0.76102132 0.0074481312 -0.008873797
203556250 -0.0076124659 -0.019399792 0.59860289 -0.7798419 1.1972165e-005 -3.1613064e-005 1.6789634e-006 3.3432182e-006
0.59862012 -0.77981246 -0.006858557 -0.020011393 9.4022525e-006 -4.1065746e-007 -1.6600323e-005 -3.6454953e-006
-2.6394178e-005 -2.4004534e-005 2.1245443e-005 -2.0263908e-005 0.0062286309 -0.0081226155 0.60199326 -0.77731729
-3.5491899e-005 1.2886218e-005 -6.8057993e-006 -5.7291734e-005 0.60233724 -0.77786857 0.0071865614 -0.0094019696
209800000 -0.0085919183 -0.019653808 0.5763694 -0.79586297 4.2918356e-005 -1.2120545e-005 -1.0082419e-005 -5.9909403e-006
0.57630235 -0.79587644 -0.0078984266 -0.020368949 -1.3196937e-005 2.0129994e-006 4.1594387e-005 -9.8089413e-006
-1.1574117e-005 -1.2723982e-005 -2.8586946e-005 2.2505053e-005 0.0060721361 -0.0084696896 0.57994169 -0.79360276
-4.3688992e-006 -3.5295798e-005 -2.0382324e-005 1.8021743e-005 0.58018589 -0.79391444 0.006893056 -0.0095152725
216043750 -0.0094886431 -0.019708065 0.55375063 -0.81137311 2.220138e-005 -1.0276617e-006 3.1730644e-005 -2.1797376e-005
0.55389869 -0.81156379 -0.0090519181 -0.020496696 1.1551813e-005 -7.1943366e-005 -3.1297081e-005 -1.3458442e-005
-4.976106e-005 4.1695868e-005 -3.0128132e-005 -3.3600303e-005 0.0057374113 -0.0087620653 0.55772972 -0.80932951
1.8111306e-006 1.3996636e-005 1.0828102e-005 -3.2934768e-005 0.55793828 -0.80947524 0.0063666441 -0.0097873881
222287500 -0.010596503 -0.019771961 0.53095144 -0.82632464 -1.3097596e-005 -6.4097998e-007 -4.0866897e-005 1.4957505e-005
0.53098565 -0.82620978 -0.0098624341 -0.020639518 -2.3989156e-005 3.6421217e-005 -1.2555712e-005 -1.3507495e-005
3.8304397e-006 2.3286335e-005 4.6639059e-008 1.6636539e-005 0.0052973679 -0.0088981967 0.53499633 -0.82415915
-3.1368663e-006 -1.1890906e-005 1.4090179e-005 2.6049789e-005 0.53513891 -0.82448649 0.005932536 -0.010055025
228531250 -0.011488351 -0.019666532 0.50760782 -0.84040087 2.7985914e-005 -2.2222735e-005 4.5954275e-005 -1.551443e-005
0.50760353 -0.84062886 -0.01087124 -0.020359391 2.7568228e-006 -7.5656358e-006 1.5779415e-005 3.4057986e-005
2.6654676e-005 -2.006795e-005 1.0558098e-005 2.1951266e-005 0.0048224009 -0.0092367241 0.51177692 -0.83839113
1.4649602e-005 -4.0853359e-007 -1.5865984e-005 3.6719396e-006 0.5119223 -0.83863354 0.0055871108 -0.010369191
234775000 -0.012381542 -0.019543367 0.48393169 -0.85391748 2.7207127e-006 -3.6375563e-006 -9.0610565e-006 -1.4034171e-005
0.48400828 -0.85406977 -0.012137256 -0.02046195 2.8368077e-006 -8.4044495e-006 -4.0701969e-005 -1.5062676e-005
3.1795171e-006 -3.6810861e-006 1.7622819e-005 8.0196742e-006 0.0043535135 -0.0095303059 0.48813769 -0.85190535
1.1639861e-005 2.3625009e-006 4.560407e-006 -3.4854427e-005 0.48835537 -0.85224009 0.0052245189 -0.010564542
241018750 -0.013457328 -0.019596335 0.45982888 -0.86670911 -1.1380441e-005 -2.078585e-005 1.2597025e-005 -5.4187287e-005
0.45972869 -0.8667863 -0.012967299 -0.02028111 1.6702059e-005 4.1206556e-005 -2.6532762e-005 -2.4381237e-005
-3.8819948e-005 -6.534292e-006 1.7385353e-005 -2.0044039e-005 0.0041215005 -0.0096789598 0.46443957 -0.86506367
-2.3851413e-005 -5.8225678e-006 -1.1155183e-005 -1.8350762e-005 0.46447948 -0.86533105 0.0046051284 -0.01067141
247262500 -0.014506852 -0.019252729 0.43523401 -0.87874103 2.4996416e-005 -4.8787424e-005 2.0379202e-006 -1.195206e-005
0.43546203 -0.87916613 -0.014042342 -0.020289075 -3.5376961e-005 -5.3047671e-008 3.3289405e-005 2.0188714e-005
-1.1718288e-006 1.3696555e-007 -1.5354313e-005 -4.4580661e-006 0.0036248832 -0.0099265417 0.44005826 -0.87711924
1.5123453e-005 3.420038e-005 8.1140288e-006 1.7308435e-005 0.44035277 -0.87774688 0.0042032632 -0.010971446
253506250 -0.015011854 -0.019111039 0.4106836 -0.89046425 5.3898184e-006 -1.3413654e-005 -3.004182e-005 -4.1754793e-005
0.41057253 -0.89040524 -0.014933376 -0.019988997 -8.1835911e-005 -2.3861121e-005 -6.4417611e-005 0.00011220611
-1.0511488e-005 1.879332e-005 -1.4359584e-005 -5.0702056e-005 0.0031700761 -0.010036566 0.41552573 -0.88914794
-8.3649626e-005 3.1863427e-005 8.4117501e-006 -1.4515509e-005 0.41577968 -0.88938892 0.0039540734 -0.011001505
259750000 -0.016223179 -0.019143151 0.38581696 -0.90156192 -2.7299726e-005 6.9494631e-006 -6.8156362e-005 0.00010081098
0.38559118 -0.90096289 -0.01572624 -0.019474663 -8.395355e-005 5.4474724e-005 3.5011337e-005 -1.2767027e-005
1.6684704e-005 3.2863031e-006 5.6229703e-005 -4.7974409e-005 0.0029081912 -0.010247334 0.39060256 -0.89988691
-1.0291481e-005 -3.5361485e-005 -3.2206372e-005 9.9872914e-006 0.39071614 -0.90034682 0.0033781426 -0.011105989
265993750 -0.017299404 -0.018760391 0.36047566 -0.91173971 3.079043e-005 2.1662403e-005 5.5612734e-005 -1.4066678e-005
0.36016467 -0.9110508 -0.017158583 -0.019464459 4.5601093e-005 -2.1789776e-005 7.739015e-006 9.2511864e-006
-2.5185023e-005 -5.2662044e-006 -4.2481197e-006 -2.1869324e-005 0.0023986369 -0.010368534 0.36549181 -0.90997964
-1.479636e-005 -2.0708776e-005 -1.893324e-005 -3.1382922e-005 0.36554807 -0.91053534 0.0029443549 -0.011315782
272237500 -0.018232793 -0.018589025 0.33486584 -0.92106712 3.0107003e-005 1.626282e-005 5.6413926e-005 -1.4433989e-005
0.3345536 -0.92035663 -0.017862989 -0.018592762 -3.1182458e-006 8.7841581e-006 3.5828962e-005 -3.5878173e-005
