# Hz S  RI   R 50
10000000 0.047287814 0.053326171 0.00059202628 -0.00018250274 0.014389254 0.025900325 0.0006625533 -6.2243125e-005
0.00063959957 -7.6727083e-005 0.052464422 0.057199545 0.00062881538 -4.8756538e-006 0.017059341 0.026953986
0.014496626 0.026118139 0.00073910668 -7.0466296e-005 0.05839115 0.036645304 0.00053628563 -1.5682939e-005
0.00050030532 -0.00010362989 0.016866295 0.026849847 0.00063828571 -4.3935637e-005 0.059497144 0.043659184
16243750 0.072993971 0.045972519 0.00045246319 -0.00011937939 0.028623674 0.034915168 0.00053335592 -0.00021500106
0.00060488092 -8.8922156e-005 0.079153508 0.048984688 0.00045733582 -0.00016574342 0.031588819 0.034780767
0.028808178 0.034905408 0.00044553002 -0.0001737859 0.072268784 0.026173968 0.00059034937 -2.9389983e-005
0.00054363062 -0.00012584498 0.031606369 0.034716461 0.00050095178 -0.00011076673 0.077405393 0.033639148
22487500 0.089629628 0.038417067 0.00042195804 -0.00023947546 0.044879753 0.036545049 0.00048575437 -0.00020149325
0.0004900358 -0.00022799411 0.09582971 0.040890377 0.00039177042 -0.00025388229 0.047081638 0.035169523
0.044848401 0.036530145 0.00050025375 -0.00022744037 0.077674277 0.022603163 0.00044853659 -0.00019418164
0.00059167331 -0.00023321227 0.047031973 0.035227608 0.00052274414 -0.00028728036 0.085495792 0.028113706
28731250 0.10339263 0.019427696 0.00048588178 -0.0001368652 0.05954149 0.031971671 0.00038767912 -0.00021651969
0.00038306823 -0.00023538817 0.10861357 0.021579504 0.00045190597 -0.00014363705 0.060043063 0.029936232
0.059633031 0.03182216 0.00043379859 -9.196403e-005 0.084524848 0.013537671 0.00045109942 -0.00011780122
0.00048321689 -0.00019034595 0.060061045 0.029906437 0.00045170076 -0.00022669132 0.092792779 0.0155044
34975000 0.10822392 -0.0020012478 0.00044238189 -0.00023347844 0.070698604 0.02199927 0.00047924096 -0.0001395225
0.00047903901 -0.00016316595 0.11142677 0.001155958 0.00047673858 -0.00010852415 0.06845428 0.020863496
0.070884623 0.021927247 0.00047700526 -0.00012316853 0.089277282 0.0034078155 0.00053125626 -0.00019001511
0.00049828592 -7.7456461e-005 0.068344191 0.020913921 0.00046387949 -0.00018261628 0.094465382 0.0032346854
41218750 0.10302756 -0.021215132 0.00060520688 -0.00017070321 0.076512463 0.0087058172 0.00062214182 -8.3057013e-005
0.00062383182 -0.00010283424 0.104184 -0.014215381 0.00061295327 -0.00012176052 0.071209624 0.011318529
0.076603137 0.0085581066 0.00052594749 -9.8859076e-005 0.090234675 -0.0063697617 0.00066873222 -0.00015359271
0.00067887141 -0.00017882418 0.071188882 0.011390519 0.00062993378 -0.0001651831 0.090560637 -0.0052595688
47462500 0.091064371 -0.035437524 0.001036171 -0.00023641317 0.076024562 -0.0050774044 0.0010962376 -0.00032837447
0.0010509521 -0.00031518086 0.092921324 -0.020059608 0.0010153051 -0.00022738022 0.070335776 0.0061896392
0.076047964 -0.0051625189 0.0010278141 -0.00025168585 0.088518783 -0.016554279 0.0010620084 -0.0003092557
0.0010795037 -0.00030828614 0.070459343 0.0061844825 0.0010756737 -0.00029050958 0.08538641 -0.007929842
53706250 0.07557185 -0.041269436 0.0016461512 -0.00095481181 0.069544092 -0.015474804 0.0017076604 -0.0010350453
0.0017358606 -0.00096741749 0.090085529 -0.013525583 0.0016444164 -0.00083878898 0.075467221 0.0086200079
0.069626652 -0.015523324 0.0016791519 -0.00089168397 0.083271839 -0.024825519 0.0016837092 -0.00097553537
0.0017068943 -0.001042015 0.075701065 0.0085896235 0.0017495228 -0.0010626393 0.088773474 -0.0022037465
59950000 0.062105112 -0.035896376 0.0016361002 -0.0035386763 0.060665749 -0.018164109 0.0018341453 -0.003614024
0.0016916484 -0.003539219 0.11060788 -0.024009325 0.0018279772 -0.0033423016 0.10040875 -0.008690876
0.060807906 -0.018236283 0.0018554656 -0.0034446206 0.076735154 -0.027380016 0.0019069616 -0.0034825304
0.0017750569 -0.0036140799 0.10026745 -0.0088436455 0.0018996511 -0.0035117362 0.11409626 -0.016872479
66193750 0.065029316 -0.023152782 -0.0027604953 -0.0050999452 0.06292022 -0.01327745 -0.0028570227 -0.0054278551
-0.0028792226 -0.0051924461 0.095165715 -0.052518684 -0.0025344272 -0.0054367906 0.08406435 -0.045056362
0.063051581 -0.013245835 -0.0024685899 -0.0054437527 0.080220424 -0.024217611 -0.0025603871 -0.0056431042
-0.0028234511 -0.0053682914 0.083983123 -0.045067146 -0.0025230125 -0.0055860919 0.099547476 -0.053108048
72437500 0.080949984 -0.042785149 -0.0083372872 -0.0020743886 0.075004593 -0.037298046 -0.0088485936 -0.0023724299
-0.0083252471 -0.002041562 0.075423598 -0.059470415 -0.0084339892 -0.0024240853 0.058467496 -0.056583595
0.07496912 -0.037491422 -0.0083524641 -0.0023750805 0.093108118 -0.050951693 -0.0088529289 -0.0026568647
-0.0088424226 -0.0022585811 0.058530498 -0.056501653 -0.0089254789 -0.002691682 0.075150661 -0.066355281
78681250 0.050443221 -0.057439771 -0.0053416067 0.00592747 0.038247429 -0.054298211 -0.00576013 0.0062520304
-0.0053610965 0.00600714 0.051156431 -0.053605601 -0.0056386921 0.0057904669 0.026434645 -0.050364934
0.038208865 -0.054325309 -0.0055624777 0.0058758892 0.055417083 -0.072564423 -0.0059707412 0.0061195437
-0.0057764733 0.0062663057 0.026461873 -0.0503194 -0.005979998 0.0060747424 0.042659052 -0.063270114
84925000 0.033261765 -0.0445312 -0.00031937659 0.006564429 0.014262323 -0.038048245 -0.00044075103 0.0069586476
-0.00035793285 0.0065153623 0.040928271 -0.037497029 -0.00044613788 0.0065423339 0.0096367486 -0.028159333
0.014313988 -0.038114581 -0.00047714595 0.0065492988 0.027862584 -0.05980964 -0.0007087852 0.007042313
-0.00051370455 0.0069202245 0.0096744383 -0.028207976 -0.00066832744 0.0070071248 0.024030879 -0.044050615
91168750 0.026297316 -0.031322133 0.0032413111 0.0047801561 0.003979045 -0.017675905 0.0033326182 0.0051805396
0.003271681 0.0048247701 0.040221788 -0.022930009 0.0031877256 0.0049008471 0.0069019878 -0.0040643606
0.0039723339 -0.017725088 0.0031610343 0.0048725861 0.013242074 -0.040582035 0.0032559615 0.0053294315
0.0034297353 0.0051795323 0.0068565784 -0.0040773256 0.0032368179 0.0052602272 0.018539393 -0.022317875
97412500 0.028338 -0.015663963 0.0029400599 0.0016531848 0.0073934309 0.0064001838 0.0031920134 0.0019587232
0.0029418978 0.0016822303 0.045575529 -0.012285516 0.0029637723 0.0018369573 0.01573883 0.016414231
0.0073177302 0.0064393543 0.0030038643 0.00181093 0.013004377 -0.015958045 0.0031929212 0.002105511
0.003160967 0.0019400778 0.015688203 0.016309174 0.0031506661 0.0020435008 0.024079591 -0.0032020838
103656250 0.034222182 -0.0091343997 0.0034735538 0.00099758909 0.019116683 0.019802313 0.003784385 0.0012387244
0.0034921411 0.0010110928 0.051756147 -0.0047523105 0.0035952569 0.0011038329 0.030288598 0.03105435
0.01911456 0.019843765 0.0036003103 0.0010844026 0.022689873 -0.0010892485 0.0038411443 0.0012420757
0.0037579245 0.0011680572 0.030216403 0.030936804 0.0038547814 0.0012188273 0.035348278 0.011059416
109900000 0.039588671 -0.0037886326 0.0033915557 -0.0010630413 0.033605289 0.028053178 0.0037116506 -0.0010783098
0.0034218079 -0.0010904173 0.060968436 0.002279588 0.003535494 -0.0010917448 0.050427794 0.040064208
0.033653107 0.028089823 0.0034751114 -0.001099014 0.036515728 0.0083645443 0.0038189858 -0.0010436729
0.0036572034 -0.0010071693 0.050344307 0.040063418 0.003740608 -0.0010312217 0.052449878 0.020673953
116143750 0.046258301 -0.00026120117 0.00091366796 -0.0021427134 0.049688574 0.029575434 0.0011728217 -0.0022277769
0.00094039086 -0.0021482401 0.077004313 0.0044520241 0.0010072812 -0.0022528854 0.076805025 0.038826637
0.049761847 0.029601071 0.0010503506 -0.0022111437 0.052638885 0.0099461926 0.0012971705 -0.0023204079
0.0011931675 -0.0022192025 0.076732539 0.038845215 0.0012841439 -0.0023186957 0.076495335 0.020752203
122387500 0.052136369 0.0014714092 0.00081298925 -0.0001459687 0.062648587 0.024611915 0.00097191829 -0.00030325406
0.00080650899 -0.00016250428 0.08760678 -0.0042612967 0.00078288303 -0.00039193183 0.094514392 0.022175638
0.062725641 0.024671774 0.00078354322 -0.00039528866 0.065457717 0.0039412719 0.00091986376 -0.00048927189
0.00088310015 -0.00026929827 0.0944262 0.022187898 0.00091996504 -0.00052612839 0.092736207 0.0058268001
128631250 0.057637494 0.0056107729 0.0027534605 -0.0018431114 0.070517682 0.019613158 0.0028275154 -0.0019482669
0.0027078551 -0.0018107005 0.095018439 -0.006863175 0.0026294512 -0.0019066628 0.1034307 0.0096459575
0.07064601 0.019639362 0.0025990477 -0.001881081 0.071999602 -0.002788973 0.0027246024 -0.0020483406
0.0028348127 -0.0019365666 0.10339192 0.0097317854 0.00270432 -0.0020667659 0.1010306 -0.0048233913
134875000 0.072196893 0.01457903 0.00060837338 -0.0064361584 0.082105376 0.020112718 0.00064509438 -0.0067364075
0.00061585178 -0.0064119417 0.11121124 -0.014233043 0.00062418584 -0.0065103238 0.1159583 -0.0061561479
0.082262978 0.020171776 0.0006308672 -0.0065013422 0.080668479 -0.0029670233 0.0006733003 -0.0067935488
0.00067919493 -0.0066785831 0.11601569 -0.0060904771 0.0006805567 -0.0067878719 0.11421712 -0.018325398
141118750 0.10178359 0.004023836 -0.0077619483 -0.0073291222 0.10564025 0.0044142297 -0.0080913855 -0.0076635699
-0.0077993018 -0.0073497444 0.1232708 -0.035427615 -0.0078244042 -0.0076731751 0.12081536 -0.032504532
0.10587887 0.0044247326 -0.0077897618 -0.0076526101 0.10207567 -0.017395549 -0.0081308009 -0.0080439579
-0.0080467658 -0.0076408912 0.12079235 -0.032486469 -0.0081124334 -0.0080003934 0.12124755 -0.043349568
147362500 0.1126048 -0.022606486 -0.015395038 0.0014745552 0.10869478 -0.024140289 -0.016094778 0.0014289934
-0.015447478 0.0014712039 0.12097535 -0.060660921 -0.016011585 0.0011915786 0.10936344 -0.058298975
0.10893791 -0.024166174 -0.015965795 0.0011803199 0.10382228 -0.044459611 -0.016677817 0.0011296143
-0.01608591 0.0015326826 0.10934517 -0.058214862 -0.016653189 0.0011906653 0.11260547 -0.06916786
153606250 0.11370177 -0.048814714 -0.012469795 0.015524103 0.10191767 -0.0477902 -0.013022297 0.016166518
-0.012491734 0.015587357 0.10883681 -0.076287359 -0.013249725 0.015865143 0.088834994 -0.069033608
0.10215547 -0.047912285 -0.013224597 0.0158615 0.096825331 -0.066021957 -0.013771783 0.016518531
-0.012961335 0.016212991 0.088833697 -0.069009431 -0.01374397 0.016528198 0.094883189 -0.080911316
159850000 0.10141192 -0.075699128 0.0008020142 0.022221012 0.08375819 -0.068414755 0.00095186045 0.023154061
0.00080892059 0.022261599 0.10240323 -0.085453294 0.00056165864 0.02298186 0.077824019 -0.069317959
0.083965644 -0.068646848 0.0005759261 0.022932902 0.079888046 -0.084793456 0.00070207939 0.023917187
0.0010141983 0.023159744 0.07786607 -0.069386512 0.0007453711 0.023913043 0.087221436 -0.083388045
166093750 0.078615196 -0.092651762 0.013628797 0.017836781 0.058829743 -0.076593928 0.014335015 0.018408658
0.013656165 0.017878637 0.095964357 -0.10368884 0.013904982 0.018433448 0.071567349 -0.078052357
0.058934383 -0.076767944 0.013878532 0.018356886 0.057451498 -0.091969036 0.014633488 0.018915549
0.014373726 0.018362323 0.071523488 -0.078114368 0.014640193 0.018900666 0.083579764 -0.096342355
172337500 0.051531643 -0.099416792 0.019333854 0.008466457 0.034121148 -0.073993541 0.020081563 0.0084676212
0.019393714 0.0084541431 0.072836258 -0.12225343 0.01971503 0.0087123578 0.052296448 -0.0880761
0.034176107 -0.074136496 0.019643059 0.008684163 0.036026958 -0.090289235 0.020385085 0.0086969957
0.020068586 0.0084148059 0.052220318 -0.088076435 0.020387571 0.0086558256 0.064846747 -0.11168569
178581250 0.023701977 -0.093592666 0.019542525 -5.5582466e-005 0.012926545 -0.060523987 0.020063262 -0.00026598875
0.019585941 -4.480869e-005 0.039976735 -0.12323094 0.019852331 1.6218801e-005 0.02645741 -0.082656227
0.012857166 -0.060669404 0.019839492 3.85241e-005 0.017575407 -0.080269061 0.020317629 -0.00019949061
0.020044629 -0.00032874043 0.026398396 -0.082628153 0.020269422 -0.00016707525 0.037749212 -0.11163688
184825000 0.0030260375 -0.075740822 0.016228624 -0.0060849874 0.0013958336 -0.038513206 0.016509879 -0.0062735742
0.016252939 -0.0060845953 0.013810182 -0.10632133 0.016507216 -0.0060353344 0.008929153 -0.062970802
0.0014154757 -0.038552985 0.016514702 -0.0061584264 0.0067842407 -0.063836336 0.016757246 -0.0062896167
0.016473612 -0.0062677138 0.0088884598 -0.062898546 0.016738171 -0.006239349 0.017139509 -0.09686882
191068750 -0.0064578946 -0.054425277 0.013538714 -0.0081952512 0.001851075 -0.016784128 0.013805584 -0.0082797203
0.013550407 -0.0082156258 0.0015891144 -0.079457074 0.013848579 -0.0083117001 0.0051140822 -0.036835443
0.00179695 -0.016831314 0.013828077 -0.0082896054 0.004322222 -0.048491839 0.014117756 -0.00838512
0.013848985 -0.0083024316 0.0050917454 -0.036818027 0.014162931 -0.008397935 0.0082442025 -0.074774615
197312500 -0.0083464952 -0.032638453 0.01263218 -0.011308857 0.0086583598 0.0020005626 0.013121729 -0.011540014
0.012675173 -0.011384032 0.0079835551 -0.053530261 0.012813902 -0.011543193 0.018263649 -0.014260354
0.0086675677 0.0019475342 0.012774585 -0.011492943 0.0042924136 -0.034789458 0.013234577 -0.011697416
0.013100876 -0.011580073 0.018270353 -0.01426888 0.013261382 -0.011708059 0.014818715 -0.054117925
203556250 -0.001223941 -0.011103485 0.0097935293 -0.015528603 0.02232603 0.018363887 0.010184347 -0.015970156
0.0097892787 -0.015559582 0.025217265 -0.03881827 0.0098812152 -0.015694762 0.039799064 -0.0041506197
0.022425875 0.018464636 0.0098660579 -0.015735321 0.0082197823 -0.019808626 0.010327575 -0.016186345
0.010233544 -0.016042307 0.039856125 -0.0041260389 0.010342302 -0.016201632 0.029088845 -0.043427259
209800000 0.017137794 0.0049971621 0.0062090261 -0.021560911 0.044992391 0.028797876 0.0065657054 -0.022332244
0.0061949068 -0.021641975 0.042324409 -0.039092448 0.0062975427 -0.021841791 0.059486344 -0.0090817213
0.045081332 0.028874267 0.0063037458 -0.021786375 0.020294121 -0.0058926758 0.0066842148 -0.0225638
0.0065593962 -0.022416599 0.059440263 -0.0091435248 0.0066662971 -0.02260649 0.041661635 -0.045001838
216043750 0.03583996 0.012305156 -0.0032158352 -0.019852955 0.066169448 0.030234592 -0.0033092289 -0.020836536
-0.0031241102 -0.019977914 0.05976269 -0.039986458 -0.00333733 -0.020169757 0.077804603 -0.013924911
0.06642402 0.030358918 -0.0033424115 -0.020081328 0.033059217 0.0039362186 -0.0034931689 -0.021106234
-0.0033327327 -0.020841915 0.077806175 -0.013855352 -0.00351026 -0.021062143 0.054403447 -0.0436408
222287500 0.050470557 0.0046893768 -0.015840186 -0.019544886 0.08212515 0.016945049 -0.016535707 -0.020574067
-0.015708728 -0.019509666 0.067467377 -0.051385507 -0.016092068 -0.019773319 0.086110644 -0.028775644
0.082468428 0.017191656 -0.016035533 -0.019710304 0.044853706 0.002287002 -0.016743485 -0.020732883
-0.01647022 -0.020417502 0.0860487 -0.028743843 -0.016849056 -0.020703288 0.059689242 -0.050629079
228531250 0.074783757 0.0015496276 -0.018669302 -0.015560224 0.10678123 0.0088619245 -0.01966038 -0.015994515
-0.018729763 -0.015611318 0.075551867 -0.068653993 -0.018971017 -0.015572791 0.094908468 -0.049264655
0.1070622 0.0088462252 -0.01888366 -0.015507207 0.070733018 0.0066624586 -0.019867044 -0.015929366
-0.019666536 -0.015962912 0.094835058 -0.049234074 -0.019869439 -0.015916735 0.068914406 -0.062522784
234775000 0.098983906 -0.0080018211 -0.023084601 -0.003778999 0.12996276 -0.0057845605 -0.02407592 -0.003327996
-0.023193793 -0.0037346876 0.076687098 -0.083727792 -0.023177657 -0.0037469612 0.096132986 -0.067827083
0.13013422 -0.0057653734 -0.023152076 -0.0037366203 0.099908262 0.0023252422 -0.024115989 -0.003325386
-0.024051795 -0.0033738499 0.096085005 -0.067746118 -0.024081139 -0.0033331967 0.073714234 -0.073177293
241018750 0.11989393 -0.04531404 -0.019552466 0.0061965929 0.1487035 -0.047034848 -0.019869989 0.0069709201
-0.019582994 0.0062441067 0.072712392 -0.099520221 -0.01960426 0.0061816601 0.091582499 -0.087691173
0.14902677 -0.047195457 -0.019550409 0.0061114114 0.1283589 -0.032006428 -0.019867726 0.0068506221
-0.019834105 0.0068861837 0.091522843 -0.087732136 -0.019820577 0.0067900801 0.075273931 -0.08759439
247262500 0.10533264 -0.0873418 -0.014559343 0.011646998 0.1320394 -0.09223552 -0.01464126 0.012191699
-0.014596909 0.011692795 0.063673303 -0.11501657 -0.014697512 0.011588827 0.080113314 -0.10751281
0.13219783 -0.092516556 -0.014668932 0.011517379 0.12336753 -0.075259984 -0.014759516 0.012002793
-0.014676699 0.012126313 0.080076396 -0.1074765 -0.014782643 0.011990814 0.071151249 -0.10487851
253506250 0.077868238 -0.11263049 -0.0082835304 0.014155381 0.10201149 -0.12058358 -0.0081892852 0.014532167
-0.0082325423 0.014143595 0.048517808 -0.12816888 -0.0083878543 0.014213833 0.06063807 -0.12409735
0.10210423 -0.12089257 -0.0084440736 0.014096496 0.10432085 -0.10749625 -0.0084452983 0.014425495
-0.0082813101 0.014555137 0.060580004 -0.12405029 -0.0084445262 0.014449569 0.058999222 -0.12233222
259750000 0.042299401 -0.11631189 -0.0047104862 0.015346246 0.062548943 -0.12742683 -0.0048674615 0.015817257
-0.0048318817 0.015428948 0.027796622 -0.13455044 -0.005059212 0.015296431 0.033665158 -0.13197908
0.062699199 -0.12756862 -0.0051445179 0.015331968 0.072135285 -0.12316894 -0.0051286062 0.015718468
-0.0049290485 0.015803218 0.033580877 -0.13183862 -0.0051557096 0.015727686 0.037630126 -0.13398767
265993750 0.017349267 -0.10521829 -0.00099060847 0.018220307 0.032902207 -0.11791149 -0.00086534373 0.018764919
-0.001016585 0.018196104 0.0071082972 -0.13199781 -0.001376843 0.018167997 0.005962078 -0.12730153
0.03305243 -0.11827146 -0.0014108042 0.01829337 0.044457931 -0.12432904 -0.0013612672 0.018942479
-0.00095195818 0.018850261 0.0057795448 -0.12728879 -0.0013771034 0.01892083 0.012862569 -0.13504557
272237500 0.0038855814 -0.091887288 0.006467266 0.021256186 0.014269227 -0.10430832 0.0069831954 0.021996757
0.006512335 0.021295579 -0.0092610121 -0.12353054 0.0060922592 0.021724761 -0.016105162 -0.11310776
0.014161019 -0.10452057 0.0060346313 0.021646721 0.022431077 -0.12084026 0.0065449071 0.02236315
0.0069756554 0.022045681 -0.01618397 -0.11299886 0.0065662577 0.022457438 -0.0088603795 -0.126974
278481250 -0.0056858906 -0.081155792 0.019591436 0.019784497 -0.00011083393 -0.091305092 0.020635152 0.020280395
0.019611211 0.019906353 -0.020752754 -0.11221371 0.019533299 0.020454502 -0.030045239 -0.092865668
-0.00014775353 -0.091313548 0.019529333 0.020439014 0.00038084894 -0.11480283 0.020536922 0.021004057
0.020687057 0.020364948 -0.03005847 -0.092833988 0.020581935 0.02101187 -0.025115741 -0.11244636
284725000 -0.014956139 -0.063904509 0.029472541 0.0098203616 -0.012609249 -0.069660038 0.03079915 0.0098213945
0.029530022 0.0098797968 -0.030300675 -0.10069467 0.029850567 0.010409182 -0.037351456 -0.071772136
-0.012591555 -0.069754265 0.029871363 0.010435616 -0.021532023 -0.096048899 0.031180399 0.010480657
0.030858444 0.0098957289 -0.037355613 -0.071656361 0.031208195 0.010444351 -0.0369712 -0.095872343
290968750 -0.013083841 -0.044008926 0.035465285 -0.0053258697 -0.010956861 -0.044632293 0.037007719 -0.0060066902
0.035550013 -0.0053202501 -0.03744806 -0.085774936 0.036030162 -0.0051548248 -0.037387777 -0.048572607
-0.011012387 -0.044767123 0.036037933 -0.0051514604 -0.029162664 -0.069479614 0.037609313 -0.0058047473
0.03705493 -0.0060495809 -0.037440293 -0.048541505 0.03754928 -0.005785218 -0.043071445 -0.075580113
297212500 -0.0049010185 -0.03136497 0.031573802 -0.025262496 -0.00053856068 -0.028036896 0.032656599 -0.026795696
0.031737734 -0.025309164 -0.040003005 -0.066923715 0.032077108 -0.025440808 -0.029362582 -0.025081964
-0.00046074775 -0.028099759 0.031929314 -0.025397522 -0.025880352 -0.048311099 0.033115137 -0.026910618
0.032803196 -0.026951846 -0.029387947 -0.02506911 0.033123348 -0.026937483 -0.042160697 -0.05295784
303456250 0.0019636906 -0.02162005 0.014355995 -0.041339546 0.010167825 -0.016382359 0.014448232 -0.043485716
0.014396948 -0.04145737 -0.032796577 -0.046135675 0.014578461 -0.041538961 -0.010098525 -0.0047567952
0.0102351 -0.016334895 0.014613244 -0.041526753 -0.019894786 -0.030447735 0.014756716 -0.043636147
