# Hz S  RI   R 50
10000000 0.038801894 0.065067694 0.00011306501 -4.1990301e-005 0.015443897 0.023495952 0.00027884726 -0.00034753169
0.00028713653 -0.00014920226 0.053603534 0.045503896 0.00027474851 -3.277247e-005 0.01372761 0.023816463
0.015387327 0.023370439 0.00016466054 -0.00021867825 0.04638581 0.060745083 6.2670872e-005 -0.00018008506
0.00022987515 -0.00013833265 0.013600909 0.023704804 7.4637865e-005 -5.3185919e-005 0.053578138 0.041122321
16243750 0.073485702 0.056702141 7.0656715e-005 -0.00020655704 0.029264135 0.029776128 9.0085829e-005 -0.00036851296
9.4727548e-005 -0.00031399852 0.07310693 0.035707932 0.00013469622 -0.00029805629 0.026618354 0.031394735
0.029490899 0.029674679 7.5569209e-005 -0.00026701912 0.077340975 0.052234061 2.4382543e-005 -0.00029556808
0.00014083966 -0.00040571686 0.026562702 0.031382706 -2.0023908e-005 -0.00035046649 0.070688292 0.030052599
22487500 0.09738896 0.042240128 -0.00010796676 -0.00028942651 0.04420118 0.028386839 -2.9009545e-006 -0.0003569299
1.4259411e-005 -0.00038041375 0.083700061 0.030192502 1.6017855e-005 -0.0003834535 0.040978841 0.032483947
0.044325233 0.028475303 -2.7239626e-005 -0.00026229408 0.098839648 0.040315919 -1.8688515e-005 -0.00030379609
1.7329385e-005 -0.00034978823 0.040998731 0.032478597 -5.5830355e-005 -0.00031030155 0.078092173 0.023521913
28731250 0.11303552 0.012628376 -0.00013693041 -0.00035443355 0.056293182 0.021046823 -0.00016248606 -0.00030294634
-0.00015699092 -0.00036466322 0.093719289 0.015702464 -0.00020870223 -0.00032609791 0.053841103 0.027817288
0.056353811 0.021063095 -0.00015244586 -0.00034510411 0.1143705 0.014926187 -0.00011964455 -0.0004066627
-0.00013510912 -0.00030979206 0.053841572 0.027837751 -0.00013136618 -0.00036898081 0.084538497 0.0094707645
34975000 0.112788 -0.019991277 -0.00028660955 -0.00027827334 0.063425206 0.0093084509 -0.00025541487 -0.00036034721
-0.00019581265 -0.00030781416 0.09775997 -0.00015740606 -0.0003098445 -0.00035001535 0.063061982 0.018544223
0.063532569 0.0092543568 -0.00028957817 -0.00026291929 0.11699154 -0.014013691 -0.00029701798 -0.00035350057
-0.00021252358 -0.00033389084 0.063089848 0.018547434 -0.00028833508 -0.00029958083 0.085011132 -0.0046076886
41218750 0.095835 -0.04666131 -0.00027660569 -0.00022358281 0.064144008 -0.004098224 -0.00027091653 -0.0002282205
-0.00034410355 -0.00022173494 0.094727986 -0.014483577 -0.00027913056 -0.00020693633 0.066920154 0.0065247864
0.064174347 -0.0042513483 -0.00029083036 -0.00019821066 0.10549755 -0.038738813 -0.00028451695 -0.00022658872
-0.0002682216 -0.00020113528 0.066980451 0.0065538054 -0.00028221938 -0.00023031716 0.078911208 -0.015966862
47462500 0.068365179 -0.060870379 -5.502129e-005 -0.00023568273 0.058095351 -0.015700271 -9.1106551e-005 -0.00023383107
-4.0522045e-005 -0.0002712904 0.086920537 -0.026194789 -8.1987753e-005 -0.00019718807 0.064663962 -0.0053586084
0.058091164 -0.015763527 -0.0001514099 -0.00021897985 0.084211625 -0.054489419 -0.00018762903 -0.00029981893
-9.2975322e-005 -0.00028388819 0.064718492 -0.0053847535 -0.0001170629 -0.00023599336 0.068972349 -0.023739962
53706250 0.037585665 -0.057125438 0.00011788918 -0.00060975063 0.046026457 -0.020522445 0.00016942344 -0.00073070196
0.0001119877 -0.00061221898 0.07511925 -0.031943381 7.9338963e-005 -0.00051761483 0.056388874 -0.0132248
0.04603589 -0.020512292 -3.8847393e-005 -0.0005166168 0.058119267 -0.055511985 0.00018590834 -0.00062513095
0.00020367352 -0.00060808077 0.05636828 -0.01319155 0.00020583563 -0.00059852732 0.056355141 -0.024855098
59950000 0.017219275 -0.029497989 -0.00016876418 -0.0021834525 0.036141369 -0.0099679977 -0.00017428939 -0.0023088786
-0.00029443292 -0.0022464376 0.063160636 -0.026927462 -0.00010189632 -0.002236505 0.045403752 -0.010505542
0.036035579 -0.0099533172 -0.00020360773 -0.0021803614 0.038832683 -0.034740888 -2.6970185e-005 -0.0021761227
-9.5980911e-005 -0.0023208619 0.045537055 -0.010447951 -2.8988001e-005 -0.00223161 0.045001693 -0.014612021
66193750 0.040255073 -0.0034315176 -0.0046449434 -0.0030665905 0.058085814 -0.0021134706 -0.0047391527 -0.003324799
-0.0045933388 -0.0031713466 0.071100518 -0.0081863888 -0.0043397998 -0.0031320043 0.053896513 0.0076122242
0.058119837 -0.0020198599 -0.0043714335 -0.0031146589 0.058761142 -0.013653401 -0.0046540126 -0.0033902521
-0.0047737621 -0.0033453112 0.053970858 0.0075572184 -0.0045658997 -0.0033892433 0.057525557 0.0095096305
72437500 0.053839654 -0.02620556 -0.0038734169 0.0058849338 0.061522957 -0.038641393 -0.0041457829 0.0061621503
-0.0039299047 0.0059038145 0.094094157 -0.049708758 -0.0040009222 0.0057286159 0.076030143 -0.035804182
0.061603941 -0.038703635 -0.0040600891 0.0056792637 0.06865114 -0.039102096 -0.0041627581 0.0059987167
-0.0041428134 0.0062797093 0.076085798 -0.035786308 -0.004139585 0.0059675025 0.085679166 -0.03396913
78681250 0.035836138 -0.028149858 0.00041195241 0.0025254306 0.026768196 -0.046545085 0.00059681217 0.0026080518
0.00043964776 0.0025305895 0.055316813 -0.060783893 0.00042210068 0.0025440545 0.034599919 -0.044890195
0.02680202 -0.046563301 0.00045871502 0.0024903263 0.045092117 -0.042521149 0.00047601692 0.0026288596
0.00049694802 0.0026043907 0.034542315 -0.044884622 0.00052523223 0.0025550218 0.047962178 -0.044515342
84925000 0.034471333 -0.018073644 -0.0001515903 0.00094194739 0.0076141129 -0.030656213 -0.00017325458 0.00089653343
-0.00016394036 0.00095108111 0.035199769 -0.049574632 -0.00014789845 0.00094104063 0.014314936 -0.0297777
0.0076643014 -0.030704726 -0.00017360355 0.00092096673 0.037480794 -0.029708333 -0.00019829105 0.00091812847
-0.00013512417 0.0009052495 0.014336817 -0.029769173 -0.0001763265 0.00089793286 0.031031631 -0.033270467
91168750 0.038977742 -0.014881455 -0.002712091 0.00074227946 0.00041352166 -0.011946294 -0.0028562553 0.00064084737
-0.0027180943 0.000736291 0.023875952 -0.035324384 -0.0026020482 0.00068237132 0.0051759887 -0.011810817
0.00049249345 -0.011908871 -0.0025644691 0.00068347662 0.03835541 -0.020175649 -0.0027083843 0.000642178
-0.0028550003 0.0006499333 0.0051354128 -0.011805814 -0.0027431501 0.00059088983 0.022778029 -0.021155315
97412500 0.047785535 -0.013471557 -0.00087263575 0.0063400469 0.0074263769 0.0096943928 -0.0010074521 0.0065356456
-0.00085044734 0.0063238232 0.02327675 -0.01597007 -0.00085624354 0.0060044392 0.008642274 0.010101357
0.0074418616 0.0096994229 -0.00087327388 0.0060056094 0.047081579 -0.011221283 -0.00098428933 0.0061560911
-0.001037318 0.0065596537 0.0086491359 0.010132842 -0.00098708493 0.0062314784 0.024475204 -0.0049112667
103656250 0.051869292 -0.024751509 0.0018838993 0.0045623644 0.021012476 0.017404754 0.0019089106 0.004711749
0.0018851628 0.0045857993 0.029290304 -0.0053186943 0.0017676599 0.0043304367 0.019843556 0.020572523
0.021034326 0.01742767 0.0017512238 0.0043734643 0.055421684 -0.015380823 0.0017539862 0.0045056543
0.0019389363 0.004747123 0.019833114 0.02055149 0.0017571227 0.0045376378 0.031402782 0.00083220704
109900000 0.046357501 -0.035115283 0.0028720868 0.0043807011 0.033805594 0.018503604 0.0029466804 0.0045455568
0.0028569452 0.0043792482 0.036751244 0.0019657579 0.0026238519 0.0042406414 0.031612184 0.025195565
0.033810657 0.018498575 0.0026272929 0.0042523374 0.05746796 -0.021887384 0.00272696 0.0044602547
0.0029216234 0.0045334096 0.031583238 0.025183473 0.0026892577 0.0044521224 0.037055522 0.003025925
116143750 0.03328244 -0.038960557 0.0059534102 0.0036439307 0.042137679 0.015112052 0.0062355958 0.0037506865
0.0060033952 0.0036475537 0.04309573 0.0054324931 0.0057835844 0.0036896644 0.04018826 0.024297005
0.04213734 0.015132966 0.0058026761 0.0036913739 0.052718163 -0.026349414 0.0060596904 0.0037845711
0.0062539368 0.0037447519 0.040180165 0.024323646 0.0060727922 0.0037828458 0.039254159 0.0025949895
122387500 0.022120086 -0.031959035 0.0065119341 -0.0014195726 0.049203742 0.011714247 0.006721383 -0.001610557
0.0065285396 -0.0014307246 0.047279209 0.010533907 0.0064268033 -0.0014253779 0.044066284 0.024663437
0.049294841 0.011769009 0.0064338897 -0.0013937301 0.048441574 -0.024033627 0.0066262675 -0.0015790322
0.0067413296 -0.0016110317 0.044059128 0.024639539 0.0066361018 -0.0015497839 0.037719943 0.0061977776
128631250 0.013825513 -0.020472933 0.0022845545 -0.0028935636 0.050745171 0.0051897545 0.0022863462 -0.0030328634
0.0022789051 -0.0028333538 0.051816128 0.02111358 0.0022156553 -0.0029297988 0.045920886 0.031747583
0.050844375 0.0053134831 0.0022433978 -0.0029519375 0.043668605 -0.020340485 0.0022406676 -0.0030809718
0.0022844383 -0.0030386406 0.045852311 0.031711977 0.00225129 -0.0031117767 0.036668293 0.018649949
134875000 0.013173512 0.0051820599 0.00099801971 0.0022131873 0.048321806 0.011054005 0.00099863787 0.0022989751
0.00096616737 0.0022680878 0.075500526 0.039207865 0.00067906722 0.0020776701 0.066146009 0.048722945
0.048565865 0.011109321 0.00072910701 0.0020581989 0.041279197 -0.0033068489 0.00073312852 0.0021326775
0.0010230732 0.0023234063 0.066140719 0.048651591 0.00074240618 0.0021395592 0.057907607 0.041775975
141118750 0.044251945 0.028471921 0.012306112 0.0025142075 0.067565672 0.0196811 0.012841187 0.0023578557
0.012288339 0.0025017795 0.11819558 0.027910369 0.011820216 0.0027350541 0.10566647 0.037107721
0.067786835 0.01959821 0.01181409 0.0027250675 0.066545963 0.014705228 0.012347356 0.0025938444
0.012842808 0.0023717002 0.10562921 0.037112799 0.012378763 0.0026135419 0.101792 0.033700258
147362500 0.085381351 0.022626586 0.012112507 -0.01710576 0.091659248 0.0081181005 0.012274772 -0.018165397
0.012124317 -0.017126279 0.13823996 -0.011037838 0.012104269 -0.016604653 0.12198123 -0.0007772313
0.091786399 0.0080214329 0.01204502 -0.016553616 0.10126511 0.0072124745 0.01225581 -0.017605148
0.012258449 -0.018201057 0.12194423 -0.000763338 0.012262745 -0.017635537 0.12284055 -0.0037237159
153606250 0.1236224 -0.015741568 -0.01021504 -0.019517956 0.11285041 -0.025781546 -0.011165738 -0.020177348
-0.010233369 -0.019553304 0.13555081 -0.049361706 -0.0098754708 -0.019342607 0.11617094 -0.035796102
0.11302578 -0.02591097 -0.0098571209 -0.019300686 0.13387913 -0.029389277 -0.010793178 -0.019937839
-0.01119651 -0.020198343 0.11611233 -0.035834972 -0.010811069 -0.019972716 0.12132979 -0.040332638
159850000 0.11777528 -0.074507646 -0.017134279 -0.0039908411 0.095495827 -0.072101213 -0.018012373 -0.003786071
-0.017179785 -0.0040127146 0.11467434 -0.08062689 -0.016920052 -0.0040754559 0.093935534 -0.062323101
0.095616825 -0.072248101 -0.016916657 -0.0040786094 0.12497622 -0.08472158 -0.017735794 -0.0038259488
-0.018036025 -0.0037283618 0.093842864 -0.062295247 -0.01776078 -0.0038246545 0.1021687 -0.069889717
166093750 0.081243083 -0.10847764 -0.01294829 0.0052992222 0.05581785 -0.089908674 -0.013334263 0.0058576907
-0.012961 0.0053045247 0.084616251 -0.095219709 -0.012824574 0.0052051782 0.064901404 -0.071551278
0.055881988 -0.090088755 -0.012806979 0.0051709316 0.087618299 -0.11510894 -0.013220401 0.0056897318
-0.013341321 0.0058461982 0.064856917 -0.071539626 -0.013202361 0.0057162978 0.075074449 -0.083066419
172337500 0.040415429 -0.11731657 -0.007424484 0.0084962174 0.020535327 -0.083594345 -0.0074485177 0.0089333355
-0.00741769 0.0085244682 0.055278912 -0.096858911 -0.0073121535 0.008374691 0.038937435 -0.068655856
0.020549035 -0.083722606 -0.0073042307 0.0083425436 0.047917806 -0.1208834 -0.0073415088 0.0088303341
-0.0074106702 0.0089487592 0.038921092 -0.068611287 -0.0073719043 0.0088206809 0.049572792 -0.084663041
178581250 0.0043986714 -0.10801331 -0.0045784996 0.0089251688 -0.0032808981 -0.064396411 -0.0044530854 0.0092278924
-0.0045393081 0.0089954743 0.028538266 -0.08707726 -0.004440397 0.0087737776 0.017132293 -0.055853911
-0.0032517298 -0.064489357 -0.0044186362 0.0087588588 0.014469856 -0.10988992 -0.0043036351 0.0090166703
-0.0045066494 0.0092266742 0.017132044 -0.05578712 -0.0043539857 0.0090501644 0.026500508 -0.07633438
184825000 -0.021541113 -0.084657483 -0.0030026734 0.011925114 -0.014403971 -0.038961004 -0.0029904223 0.012201546
-0.003061038 0.012033702 0.011546399 -0.067073151 -0.0029511678 0.011648125 0.0060112686 -0.034504227
-0.014362418 -0.039041385 -0.0029466627 0.011543223 -0.0081556365 -0.086833522 -0.0028662542 0.011828533
-0.0030079342 0.012228291 0.0060037328 -0.034484569 -0.0029185454 0.011875927 0.012733747 -0.05861982
191068750 -0.029874131 -0.054765284 0.0033375903 0.015176051 -0.0099007944 -0.014275818 0.0034379119 0.01549261
0.0033387034 0.015230959 0.0061004395 -0.049401153 0.0031705764 0.014615602 0.0068093906 -0.017518165
-0.0099465065 -0.0143465 0.0031233686 0.014662293 -0.014050587 -0.058876164 0.0032647562 0.014979761
0.0035254343 0.015539987 0.0068752072 -0.017465096 0.0032862639 0.014977006 0.0098067857 -0.044336863
197312500 -0.022561517 -0.032870635 0.012911767 0.013652441 0.004963608 -0.001904841 0.013238609 0.013878518
0.012932853 0.013604609 0.0020361834 -0.034454696 0.01234512 0.013187871 0.0083571058 -0.0051079053
0.0049564335 -0.0019431514 0.012351708 0.013199125 -0.0053238724 -0.039224412 0.012662088 0.013467534
0.013284525 0.013882997 0.0084449137 -0.0051234541 0.012708874 0.013442238 0.0066062431 -0.033483908
203556250 -0.018368607 -0.023806084 0.01983049 0.0041177515 0.011083205 -0.0033436816 0.02041615 0.0040121572
0.019882604 0.0040600896 -0.00044929821 -0.019728957 0.019077076 0.0040042899 0.010468997 0.0058139591
0.011093117 -0.0032037436 0.01903679 0.0040471638 0.00047948048 -0.032736205 0.019643124 0.0040130122
0.020440804 0.0040516034 0.010442078 0.0058015171 0.019644862 0.0040360843 0.0032674186 -0.022273736
209800000 -0.019988324 -0.0070006535 0.01970586 -0.0093136951 0.0061436533 0.0048093349 0.020281786 -0.0097323209
0.01976932 -0.0093115224 -0.0054094568 -0.0018832959 0.019085625 -0.0088061942 0.0088916281 0.019161088
0.0062479186 0.0048825792 0.019001961 -0.0088370442 -0.00028739087 -0.020033443 0.019555131 -0.0092447922
0.020224076 -0.0097831069 0.0088484837 0.019114351 0.019621043 -0.0093004433 -0.0039338148 -0.0063242381
216043750 -0.0082145529 0.0218904 0.0093116704 -0.018043153 0.011441779 0.029616177 0.0094059715 -0.018891785
0.0093860477 -0.018024115 -0.005236363 0.033972118 0.009141963 -0.017238673 0.011073198 0.05060133
0.011664015 0.029566096 0.0092018684 -0.017254667 0.01033134 0.0045196945 0.0093330517 -0.018005652
0.0094652819 -0.018831523 0.011011985 0.050551396 0.0093493918 -0.017997267 -0.0062492131 0.030602433
222287500 0.027475171 0.04875375 -0.0043083732 -0.014078765 0.040695492 0.057532243 -0.0047860369 -0.014580214
-0.004295574 -0.014163423 0.028362175 0.080536067 -0.0040841424 -0.013639288 0.046665456 0.092777133
0.040736996 0.057418231 -0.004033043 -0.013590133 0.042579774 0.028045489 -0.0044275224 -0.014102256
-0.0046501253 -0.014633987 0.046616647 0.092809282 -0.0043985001 -0.014087196 0.027986335 0.080417626
228531250 0.085647173 0.036857553 -0.0067711421 -0.0078287525 0.096220084 0.051457744 -0.0072244522 -0.0080335578
-0.0067538158 -0.007829071 0.1009727 0.085576385 -0.0063931565 -0.0076952968 0.12096295 0.091616347
0.096200727 0.051461898 -0.0063865893 -0.0076516476 0.097604774 0.016595909 -0.0067807548 -0.007924635
-0.0071740896 -0.0081466045 0.12100215 0.091663241 -0.0067782113 -0.0079467837 0.10499521 0.085944705
234775000 0.11863896 -0.012073133 -0.0068827211 -0.003507995 0.13293995 0.0088497372 -0.0073001692 -0.0035921042
-0.0069179325 -0.0035419143 0.15102085 0.0440422 -0.0066074962 -0.0035866597 0.16933697 0.042319074
0.13302216 0.0088783009 -0.0065430063 -0.003616052 0.13118394 -0.030802479 -0.0069245091 -0.0036724214
-0.0073283087 -0.0036379599 0.1693013 0.042253707 -0.0069623506 -0.0037204814 0.15747949 0.040921193
241018750 0.11494191 -0.065024279 -0.0060397931 -0.000678059 0.13787039 -0.042292532 -0.0064438097 -0.000602671
-0.0059887804 -0.00070263597 0.16920079 -0.0058871214 -0.0058422275 -0.00098359212 0.18198812 -0.014042329
0.138091 -0.042362083 -0.0058783181 -0.00094690075 0.13081044 -0.085279174 -0.0061793565 -0.00092202064
-0.0064772726 -0.00068665342 0.18191636 -0.014109856 -0.0062370021 -0.00094419572 0.17469928 -0.01253699
247262500 0.086909488 -0.10299303 -0.0053363401 0.00086508441 0.11920752 -0.085081331 -0.0056420509 0.0010516394
-0.0053647193 0.000862127 0.16690476 -0.052716952 -0.0054137972 0.00060137082 0.17133138 -0.064154454
0.119439 -0.085231394 -0.0053764195 0.00060171227 0.10537701 -0.12851967 -0.0056678355 0.00071542169
-0.0057163499 0.0010308129 0.17111237 -0.064132512 -0.0057184361 0.00072481838 0.16912489 -0.061008468
253506250 0.048884246 -0.12007034 -0.004391938 0.0024570869 0.086957 -0.11304814 -0.004552267 0.0027558373
-0.0043978905 0.0025446287 0.15013784 -0.09183754 -0.0045957109 0.0022573031 0.14497662 -0.10222378
0.087114654 -0.11322173 -0.0046499567 0.0022656335 0.066954553 -0.15355003 -0.0048137349 0.0024580914
-0.0046410202 0.0027711552 0.1447988 -0.10224703 -0.0048770616 0.0025113642 0.14834507 -0.099460572
259750000 0.010703519 -0.11826946 -0.0043772282 0.0036388121 0.047728684 -0.12496554 -0.0044309753 0.0038668113
-0.0043724799 0.0035652055 0.12120105 -0.12167783 -0.0045706439 0.0035688977 0.10716931 -0.12646472
0.047833137 -0.1250578 -0.0046884948 0.0035775597 0.024262046 -0.15980774 -0.0047114594 0.0037881425
-0.0044408906 0.0039056507 0.10710546 -0.1264407 -0.0047781351 0.0037838754 0.11548153 -0.12599628
265993750 -0.019380195 -0.10056921 -0.003837398 0.0066610565 0.0091879908 -0.11920454 -0.0038539027 0.0068792212
-0.0038483026 0.0066738329 0.085863419 -0.13672268 -0.0039731706 0.0067584058 0.065781683 -0.13195415
0.0091440091 -0.1193746 -0.0040079304 0.0067680082 -0.01400099 -0.14825609 -0.0040322803 0.0069812899
-0.0038400479 0.0069827661 0.065643266 -0.13185811 -0.0040198918 0.0070253341 0.077443726 -0.13568674
272237500 -0.035729297 -0.074541055 -0.00023507816 0.010362308 -0.021565877 -0.098846644 -9.5938951e-005 0.010524783
-0.00012148135 0.010326096 0.050571159 -0.13834374 -0.00015193652 0.01032318 0.02893037 -0.12148517
-0.021624856 -0.09909191 -0.00019367559 0.010354197 -0.041135289 -0.12400141 -0.00011281557 0.01059061
-1.7976005e-005 0.010585214 0.028974304 -0.12138941 -2.4437528e-005 0.01066109 0.042402361 -0.13047767
278481250 -0.038442329 -0.049506634 0.0071755298 0.010138188 -0.04018864 -0.071168758 0.0075124218 0.010297089
0.0072106365 0.010171076 0.019320484 -0.12941715 0.0070835124 0.010087145 0.0013770114 -0.10032366
-0.040191855 -0.071259461 0.0071287262 0.01002266 -0.054456074 -0.095715396 0.0075272876 0.010218902
0.0076147323 0.010332989 0.0012991742 -0.10027153 0.0075429017 0.010238167 0.014125186 -0.1151103
284725000 -0.036094423 -0.028622631 0.011166572 0.0057546217 -0.049848679 -0.038929943 0.01169033 0.0055341208
0.011280972 0.0056976452 -0.010213721 -0.10821419 0.011089575 0.0056474763 -0.020022612 -0.06925109
-0.049939264 -0.039064817 0.011130189 0.0056552421 -0.059387691 -0.067017511 0.011568497 0.0055012712
0.011726177 0.0055094832 -0.019914042 -0.069174327 0.011622421 0.005472213 -0.010683825 -0.089418083
290968750 -0.02951077 -0.0083318437 0.012821316 0.00088203454 -0.047234878 -0.0022435985 0.013019849 0.00041213533
0.012842026 0.00090334192 -0.024321703 -0.071208246 0.012747605 0.00085859816 -0.022657182 -0.0263143
-0.04730339 -0.0023380718 0.012754296 0.0008816981 -0.055079885 -0.03748652 0.013088315 0.00038013636
0.013153996 0.00032451405 -0.022620054 -0.026319964 0.013074616 0.00036535115 -0.019182755 -0.050196361
297212500 -0.015491733 0.012692546 0.013256259 -0.0034311695 -0.027953317 0.034867775 0.013086955 -0.0040392759
0.013282896 -0.0034299726 -0.013035982 -0.03508101 0.01325417 -0.0037042832 0.0012794961 0.010825828
-0.027978767 0.034787778 0.013200955 -0.0037534658 -0.039423849 -0.0087860785 0.013133996 -0.0042869798
0.013184438 -0.0040811542 0.001201133 0.010665434 0.013094138 -0.0043152263 -0.0024943745 -0.014334034
303456250 0.01092425 0.030272648 0.01304455 -0.009583557 0.011234121 0.063569963 0.012669608 -0.01012196
