# Hz S  RI   R 50
10000000 0.049674343 0.046333175 0.00032421172 -0.00037199201 0.012764674 0.024022399 0.00034765297 -0.00026510691
0.00057674642 -0.00016805252 0.052039266 0.051430225 0.0004577605 -0.00027093187 0.015716955 0.026742926
0.012995722 0.023975726 0.00054820877 -0.00016009614 0.047940388 0.051148579 0.00035414723 -5.9416259e-005
0.00031148424 -0.00020635371 0.015756458 0.026685704 0.00042064217 -8.4935382e-005 0.058129616 0.039645847
16243750 0.071457088 0.037676025 0.00027331678 -0.00027338686 0.026109906 0.031919837 0.00040025494 -0.00012922406
0.00029454555 -0.00017788328 0.075863808 0.042375743 0.0003226909 -0.0003158976 0.030930247 0.034702599
0.026126247 0.031862509 0.00031032023 -0.00025881932 0.071276277 0.042546269 0.00031120609 -0.00023635772
0.00035896749 -0.00029288058 0.030887103 0.034682054 0.00038520186 -0.00012835204 0.074114099 0.028654909
22487500 0.084021032 0.030562768 0.00024507727 -0.00037953528 0.040714942 0.032991678 0.00018606344 -0.00031117594
0.00027919689 -0.00026177606 0.090435922 0.034418762 0.00020361258 -0.00017594534 0.047501877 0.034853354
0.040810492 0.033000134 0.00019840637 -0.00016653682 0.08584474 0.035091672 0.00020902348 -0.00022343222
0.00011802227 -0.00026306725 0.047424681 0.034784731 0.00010739666 -0.00021080645 0.080827907 0.023061788
28731250 0.094675906 0.014005421 0.00021614783 -0.00023935092 0.053876922 0.028241452 0.00019437943 -0.00014184701
0.00015578775 -0.00018320042 0.10217786 0.015636018 0.00016538617 -0.00012228279 0.0618321 0.028014112
0.053999469 0.028285692 0.00018759782 -0.00014617098 0.097756557 0.017301776 0.00013076446 -0.0002124741
0.00016783051 -0.00023093526 0.061750095 0.027992496 0.00016889893 -0.00023887285 0.087634876 0.010411817
34975000 0.097813845 -0.0042989193 9.1262729e-005 -0.0001266394 0.063278131 0.018762259 0.0001979127 -0.0002053856
0.0001465325 -0.0001583587 0.10488623 -0.005228044 0.00014112004 -0.00011222909 0.071084671 0.016086236
0.063342743 0.018700914 0.00013660324 -0.00011259952 0.1013727 -0.0026311853 0.000116981 -0.00015294748
0.00010967407 -0.00023557598 0.071061902 0.016044509 0.00012637474 -0.00013357232 0.08946529 -0.0027185462
41218750 0.092469484 -0.02042024 0.00011774088 -0.00011745256 0.067197405 0.0064561064 0.00012147773 -0.00011504206
0.00020274689 -0.00010452045 0.097493052 -0.023207687 0.00021198281 -8.0595681e-005 0.073252805 0.0018371706
0.067256257 0.0063593006 0.000155897 -8.9767409e-006 0.095515423 -0.020057594 0.00020301285 -8.9722213e-005
0.00018186973 -3.6687183e-005 0.073233485 0.0018024716 0.00018970679 -8.8287081e-005 0.085255973 -0.014048484
47462500 0.08118213 -0.032346815 0.00048092418 3.0533796e-005 0.064668566 -0.0053823823 0.00042475335 2.1972271e-005
0.00046838861 -1.2458888e-005 0.082652211 -0.034614015 0.00052527979 1.2486578e-005 0.067753002 -0.010038145
0.064685658 -0.0054239449 0.00053702231 7.8143476e-006 0.083071277 -0.032513764 0.00047509919 1.0671195e-005
0.00044150866 2.301188e-005 0.0677092 -0.010056462 0.00053089968 2.1533849e-006 0.076798744 -0.02216501
53706250 0.066047221 -0.035735346 0.001327388 -0.00021191209 0.056232642 -0.011992489 0.0012567554 -7.4694413e-005
0.001367036 -0.00010093636 0.064875543 -0.032843664 0.0013846188 -0.00021516741 0.056938723 -0.012360457
0.056323048 -0.012102973 0.0013642798 -0.00019399999 0.066786565 -0.035435893 0.0014114965 -0.00010861807
0.0012714572 -0.00010584354 0.056862298 -0.012449075 0.0014070185 -5.6042129e-005 0.06563969 -0.021344185
59950000 0.056753565 -0.026383953 0.0029212784 -0.0030913993 0.050511446 -0.0080198506 0.0029010565 -0.0030672536
0.0028935603 -0.0031185327 0.06520731 -0.011172485 0.0028679986 -0.0031406812 0.059809923 0.0027948506
0.050483007 -0.0080242101 0.0029458001 -0.0031701389 0.056764763 -0.024695108 0.0029343523 -0.0030318352
0.002934115 -0.0030172125 0.059690699 0.0028300784 0.0030099996 -0.003004451 0.069436893 -0.0042683003
66193750 0.064270705 -0.014868585 -0.0020310606 -0.0081816427 0.058531117 -0.0013750494 -0.0016067722 -0.0082575902
-0.0020446996 -0.0082075149 0.093109757 -0.033337668 -0.0019969505 -0.0083737588 0.086739272 -0.024241254
0.058550593 -0.001339755 -0.0021003338 -0.0083701741 0.065183133 -0.011377432 -0.0016612383 -0.0083955349
-0.0016611716 -0.0082419617 0.08667618 -0.024220455 -0.0016565283 -0.008368657 0.098125719 -0.030708017
72437500 0.075809509 -0.050999071 -0.010811635 0.00074036722 0.067459099 -0.040875848 -0.010825458 0.00030100156
-0.010793551 0.00071058772 0.071585305 -0.06281586 -0.011127871 0.00065589324 0.0619075 -0.056982137
0.067605846 -0.040971193 -0.011011781 0.00073238061 0.07778804 -0.046583828 -0.011050142 0.0002890114
-0.010771758 0.00038206929 0.061861292 -0.056851603 -0.011018137 0.00026467815 0.075167544 -0.065481983
78681250 0.040521938 -0.052530997 -0.0049128304 0.0064848643 0.028782191 -0.042914253 -0.0050643841 0.0063369004
-0.0049311602 0.006433723 0.040640526 -0.058062859 -0.004999456 0.0065635992 0.025458343 -0.052331481
0.02882559 -0.042982452 -0.0049799397 0.0065577989 0.04455797 -0.047631197 -0.0051932037 0.0064771357
-0.005084306 0.0063262647 0.025456343 -0.052358802 -0.0051487247 0.0064558974 0.038469348 -0.06432315
84925000 0.025867146 -0.037626229 -0.00073535932 0.0068610809 0.011517339 -0.025733141 -0.00084237894 0.0067921914
-0.00075876038 0.0068432097 0.027177976 -0.042564496 -0.00079515099 0.0069676572 0.0072020032 -0.032726377
0.011500115 -0.025748352 -0.0008013054 0.0070246034 0.032395348 -0.033605143 -0.00089165365 0.0069441404
-0.00085997873 0.0068127993 0.0072145141 -0.032764338 -0.00092407124 0.006953238 0.018330155 -0.047567669
91168750 0.021179419 -0.022749534 0.0026616303 0.0062776855 0.0061633908 -0.0070257406 0.0025694198 0.0063188849
0.0026300482 0.0063250684 0.022733657 -0.028157607 0.0026758902 0.0064933561 0.0007960815 -0.011614277
0.0061148363 -0.0070125954 0.0026372746 0.0065259743 0.029494349 -0.02099828 0.0026020731 0.0064809313
0.0025556358 0.0063295043 0.00077669736 -0.011603015 0.0026049372 0.0064851646 0.0092603592 -0.028082151
97412500 0.023046913 -0.0090391291 0.004952448 0.0029736948 0.0095468005 0.010753687 0.0048559974 0.0030297227
0.0049284021 0.0030145845 0.025939874 -0.01081128 0.0049939165 0.0031445615 0.0057988917 0.013030526
0.0095568066 0.010751562 0.0049578175 0.0031082495 0.031952776 -0.010217706 0.0048582982 0.0031869395
0.004832339 0.0030150269 0.0057576201 0.013004285 0.0048570083 0.0031609724 0.011963848 -0.0039965636
103656250 0.02938416 0.0010305729 0.005381735 0.0011519438 0.019576564 0.023555033 0.0053434321 0.001221918
0.0054248031 0.0011942177 0.037077785 -0.0034016955 0.0054788562 0.0013142077 0.021996208 0.025986833
0.019592868 0.02355022 0.0054621105 0.0013055219 0.037430156 -0.003283306 0.0054320022 0.0013523903
0.0053992397 0.0012011097 0.022035686 0.02600956 0.0054145199 0.0013818536 0.026615189 0.0092039136
109900000 0.037460972 0.0077713327 0.0059166877 -0.0017244059 0.032407049 0.030815527 0.0058891736 -0.0016909549
0.005949012 -0.00174708 0.047364864 -0.00160497 0.0059752883 -0.0016337145 0.03942908 0.030419262
0.03247403 0.030893166 0.0060346341 -0.0015637066 0.043344274 0.00081983604 0.0059945295 -0.0015129065
0.0059195743 -0.0017290113 0.039407652 0.030428119 0.0059590815 -0.0015606073 0.043425027 0.013738959
116143750 0.046550214 0.013286063 0.0038750686 -0.0052710543 0.045868907 0.03448566 0.0039603165 -0.0051486189
0.0038866783 -0.0052904137 0.055260289 -0.0044968696 0.0039791944 -0.0051207179 0.054254346 0.026315283
0.045932081 0.034539796 0.0040310565 -0.0051064128 0.049439628 0.0050443942 0.0040371162 -0.0049880021
0.0039359215 -0.0052154996 0.054313868 0.02630497 0.0040764892 -0.0050019906 0.058233161 0.0090691391
122387500 0.060354866 0.015321931 0.001092454 -0.0059214244 0.06239507 0.032849129 0.001289285 -0.0059621693
0.0011265044 -0.0059273881 0.056184664 -0.0061803018 0.0013131212 -0.0057865977 0.060252778 0.020319
0.062466711 0.032885499 0.0012423125 -0.0057887919 0.060171552 0.0071629877 0.0014925951 -0.0058231158
0.0013176079 -0.0059632934 0.060246728 0.020248188 0.0015060053 -0.0058149053 0.063890472 0.0015847271
128631250 0.07279557 0.010845894 -0.0013415571 -0.0081077022 0.075128548 0.023916043 -0.0011412269 -0.0083690817
-0.0013001348 -0.0081177186 0.059478402 0.0040865992 -0.001089888 -0.0079859421 0.064883403 0.02481273
0.075281374 0.023953635 -0.0011228581 -0.0079461718 0.07025449 0.0038834806 -0.00096394483 -0.0082239266
-0.0011429592 -0.0084015587 0.064767651 0.024693446 -0.00096463127 -0.0082317377 0.067210123 0.0044586533
134875000 0.083072685 0.0035803036 -0.0076167416 -0.0077254488 0.083315998 0.012802448 -0.0076976349 -0.0081572914
-0.0076797255 -0.0077516376 0.086755067 0.010438835 -0.0072995918 -0.0076229787 0.090145625 0.026420964
0.083452083 0.012791795 -0.0073107844 -0.0076382477 0.079240926 -0.001568459 -0.0073762648 -0.0080220979
-0.007743292 -0.008144944 0.090063371 0.026386099 -0.0073840078 -0.0080477595 0.090668954 0.0056887507
141118750 0.090712853 -0.0066149305 -0.012652651 -0.0053882683 0.087108187 0.0004945065 -0.012968371 -0.005697079
-0.012709036 -0.0053813453 0.11249103 -0.0075712656 -0.012327618 -0.0053702085 0.11184779 0.0055479738
0.087259732 0.00048100724 -0.012354055 -0.005376074 0.086950965 -0.010068736 -0.012654562 -0.0056859748
-0.01300265 -0.0057017989 0.1117242 0.0055567417 -0.012624267 -0.0057192324 0.11091235 -0.01487586
147362500 0.094126627 -0.0177409 -0.020941945 0.0030693787 0.086034648 -0.010361294 -0.021513987 0.002913961
-0.021023694 0.0030626992 0.12576424 -0.039815657 -0.020591564 0.0029899378 0.11999732 -0.027188092
0.086154327 -0.010371556 -0.020575788 0.0029722492 0.091273837 -0.020196734 -0.021148458 0.0028667941
-0.021530066 0.0028912132 0.11997521 -0.027202206 -0.021139234 0.0028226429 0.11829985 -0.046893898
153606250 0.096516803 -0.025087077 -0.018574072 0.020901775 0.084511474 -0.015054085 -0.01908965 0.021249907
-0.018608436 0.020959157 0.12108857 -0.074502051 -0.018193427 0.02066021 0.11022171 -0.059605069
0.084646761 -0.015073266 -0.01820506 0.020645944 0.094902031 -0.027524617 -0.018757429 0.020976374
-0.019200508 0.021283217 0.11017311 -0.059563443 -0.018735727 0.020978721 0.1081678 -0.07805489
159850000 0.10675953 -0.037163019 -0.0012699199 0.030697871 0.092350133 -0.022605451 -0.0014338368 0.031212172
-0.0013247062 0.030825397 0.098900877 -0.10354691 -0.0011186838 0.030211013 0.084257118 -0.083651811
0.092473455 -0.022607971 -0.0011041383 0.030229719 0.10594508 -0.040322248 -0.0012275995 0.030711321
-0.0014457789 0.031297423 0.084182017 -0.083557248 -0.0012510901 0.030744771 0.08282049 -0.10048
166093750 0.10814234 -0.066408321 0.015852829 0.025337726 0.093832873 -0.046186842 0.016030772 0.025633639
0.015916727 0.02540525 0.067353413 -0.11703142 0.01573097 0.024903363 0.05179007 -0.09038505
0.094043992 -0.046318412 0.015725184 0.024860803 0.10779944 -0.07027033 0.015889237 0.025169864
0.016066477 0.025712242 0.05174676 -0.090309285 0.015923053 0.025207805 0.052397501 -0.1057701
172337500 0.085734427 -0.093279064 0.023498036 0.01310025 0.074238375 -0.067859225 0.02365162 0.01319997
0.023615077 0.013162443 0.034840509 -0.11648834 0.023212615 0.012880906 0.021803122 -0.083073087
0.074368075 -0.067985088 0.023207493 0.01283864 0.085691102 -0.097995937 0.023397731 0.012924875
0.023738388 0.013227804 0.021801213 -0.083041959 0.023395153 0.012932371 0.025791064 -0.098392114
178581250 0.052081265 -0.10148081 0.023290066 0.0028939922 0.045450293 -0.072205856 0.023383152 0.0029265773
0.023396686 0.0029417304 0.0049140034 -0.10186305 0.022981575 0.00280922 -0.0025509777 -0.063431919
0.04549307 -0.072402187 0.022989102 0.0027984604 0.051874731 -0.10704405 0.023051597 0.0028380672
0.023458688 0.0028990768 -0.0026082161 -0.063374393 0.023032611 0.0028549472 0.0051049683 -0.080948837
184825000 0.020590194 -0.092133544 0.021168621 -0.0036266369 0.019895853 -0.061157059 0.021154145 -0.0035400027
0.021242915 -0.0036012726 -0.014136475 -0.073504798 0.020846363 -0.0034724991 -0.014428106 -0.03298578
0.019986939 -0.06121828 0.020890763 -0.0034019155 0.020063823 -0.097932398 0.020794082 -0.0034576624
0.021198828 -0.0036251177 -0.01442014 -0.033006996 0.020839563 -0.0034556559 -0.0043321038 -0.055125553
191068750 -0.0030730837 -0.068538576 0.0180682 -0.0082581947 0.0025764767 -0.037780404 0.018072285 -0.0081470711
0.018128071 -0.0083646197 -0.016195826 -0.041259222 0.017950315 -0.0080807703 -0.0089330627 -0.0019459296
0.0026076343 -0.037879422 0.017871363 -0.0080863582 -0.0035366383 -0.074220471 0.017909447 -0.0080324737
0.018057868 -0.0082222158 -0.0089647137 -0.0019431722 0.017897576 -0.0080272174 0.00075173494 -0.030143362
197312500 -0.0089344047 -0.034708507 0.017771479 -0.010013086 0.0024427038 -0.0061886259 0.017886803 -0.009845796
0.017904483 -0.01008352 -0.0027370192 -0.014319665 0.017627047 -0.0099092871 0.010587487 0.02134338
0.0024532401 -0.0062376652 0.017597489 -0.0098997597 -0.009103681 -0.040194869 0.017667856 -0.0097016133
0.017923329 -0.0098226536 0.01060864 0.021323044 0.017641015 -0.0097271614 0.016458038 -0.012636058
203556250 0.0046803299 -0.0073442431 0.019114915 -0.020321041 0.020655859 0.017563617 0.01955436 -0.020139765
0.019128127 -0.020455141 0.015565519 0.0020740996 0.018753601 -0.019920519 0.033069402 0.032449957
0.020607827 0.017625775 0.018753815 -0.019823279 0.0052286019 -0.012725594 0.019131951 -0.019678332
0.019558042 -0.020190915 0.032986369 0.032370295 0.019117931 -0.019742265 0.031943742 -0.0050529619
209800000 0.026160046 0.0052715992 0.0087260082 -0.035528932 0.045409966 0.025720708 0.0093129128 -0.035887171
0.0087453127 -0.035622638 0.04176845 0.012730442 0.0088105025 -0.034733672 0.061455902 0.037671912
0.045479592 0.025789877 0.0087983068 -0.034640145 0.027812701 -0.00066005508 0.009383346 -0.034980655
0.0093766078 -0.035886817 0.061413091 0.037591398 0.0093839113 -0.034961961 0.051800903 0.00074936828
216043750 0.047861442 0.015638582 -0.015043621 -0.032420274 0.068591535 0.03118968 -0.014843137 -0.033381548
-0.015055539 -0.03251709 0.072838463 0.014731423 -0.014327503 -0.031625059 0.093600512 0.034492776
0.068730906 0.031253535 -0.014295644 -0.031543024 0.049660914 0.0085028382 -0.014115063 -0.032459363
-0.014822475 -0.033412505 0.093497276 0.034414187 -0.014117993 -0.032487366 0.076633126 0.0020693594
222287500 0.067798726 0.011468089 -0.035259999 -0.017109092 0.08842282 0.022276731 -0.035745185 -0.017852109
-0.035387352 -0.017200114 0.096120715 -0.0057600928 -0.034308128 -0.017071141 0.11708215 0.008759981
0.088498771 0.022192579 -0.034265984 -0.017061671 0.068845555 0.0028227177 -0.034766931 -0.017792352
-0.035803411 -0.017916348 0.1169526 0.0087867603 -0.034742873 -0.01782169 0.095487125 -0.016376875
228531250 0.094964989 -0.0034575246 -0.030970721 0.0014427514 0.11453841 0.0034119496 -0.031675886 0.0011049709
-0.031061834 0.0014040495 0.11597154 -0.034209311 -0.030107148 0.0010898502 0.13582082 -0.024909381
0.11471973 0.0033818434 -0.030067176 0.0010192809 0.095163077 -0.012671035 -0.030754399 0.00078910129
-0.031734232 0.0011041287 0.13562807 -0.024807874 -0.030733751 0.00075891695 0.11323968 -0.0416377
234775000 0.11283856 -0.026271431 -0.020749344 0.015371841 0.13002776 -0.022661351 -0.021498689 0.015357812
-0.020827193 0.015447014 0.11972406 -0.06317924 -0.020248497 0.014914577 0.13690135 -0.058387417
0.13019715 -0.022652222 -0.020254051 0.014884742 0.11105014 -0.035584226 -0.02099188 0.014866766
-0.021573814 0.015395605 0.13671297 -0.058341332 -0.020978786 0.014925477 0.11686099 -0.067637168
241018750 0.11841904 -0.056793343 -0.008619342 0.019300671 0.13225175 -0.055440627 -0.0092939865 0.019550707
-0.0086259954 0.019381035 0.11318798 -0.09300144 -0.0082684373 0.018937251 0.12640499 -0.091751143
0.13253096 -0.055520736 -0.0082171513 0.018909464 0.11455373 -0.065381959 -0.0089495666 0.019131612
-0.0093520628 0.019605817 0.12628883 -0.091619231 -0.0089850854 0.019157534 0.11193258 -0.095734522
247262500 0.1103175 -0.086829409 0.00024886776 0.017414058 0.1200432 -0.086356908 -0.00041147944 0.017830916
0.00027381719 0.017449703 0.095611259 -0.11944401 0.0005199514 0.017144863 0.10368729 -0.12016335
0.12028442 -0.086572751 0.00056391617 0.017095201 0.10412986 -0.093725286 -6.609207e-005 0.017536134
-0.00034650136 0.017914139 0.10367616 -0.12001118 -2.3252924e-005 0.017537836 0.09620145 -0.12244613
253506250 0.092263475 -0.11119156 0.0060235411 0.013164356 0.097482391 -0.10986178 0.0056158886 0.013854589
0.006081007 0.013179177 0.070278294 -0.13829039 0.0064141685 0.012837859 0.072650179 -0.13901621
0.097762652 -0.11003464 0.006469964 0.012743073 0.08427038 -0.11489321 0.0059937309 0.013462049
0.0056459117 0.013850803 0.072575532 -0.13898762 0.0059865899 0.013499814 0.071591526 -0.14358863
259750000 0.065973327 -0.12656356 0.0073036943 0.0091007585 0.067395315 -0.12228969 0.0070734061 0.0099016838
0.007364626 0.0090610208 0.037881359 -0.14725037 0.0076861228 0.0085114185 0.034075532 -0.14546326
0.067415461 -0.12257599 0.007666463 0.0084736384 0.057663996 -0.12635127 0.0073854858 0.0093395198
0.0071750288 0.0098585291 0.03414103 -0.14537802 0.0074836207 0.0092904363 0.037110776 -0.15541831
265993750 0.036693305 -0.13131724 0.0076650665 0.0075349216 0.035530239 -0.12214877 0.0078043295 0.0084673129
0.0077160294 0.0075611719 0.0054993029 -0.14239973 0.0077724447 0.0069499295 -0.0035919759 -0.13521245
0.035543762 -0.12237561 0.0078308154 0.0069207242 0.030081345 -0.12635952 0.0080084475 0.007750479
0.0078380909 0.0084136892 -0.0036546176 -0.1352028 0.0079563661 0.0077896034 -0.00011472794 -0.15233412
272237500 0.0068091084 -0.12612428 0.0088003725 0.0072972467 0.0057312283 -0.11078556 0.009343341 0.0079533169
0.0088047469 0.0072362642 -0.020858608 -0.12656671 0.0088190027 0.0065753865 -0.033374861 -0.11128938
0.0057129893 -0.11093695 0.0088745952 0.0066303439 0.0046905391 -0.11753573 0.0093240952 0.0073710224
0.0093503213 0.0079795392 -0.033316962 -0.11117245 0.0093411356 0.0073512834 -0.033115387 -0.13496163
278481250 -0.021218617 -0.1068995 0.012282517 0.0082824556 -0.019298119 -0.085907444 0.013148536 0.008756916
0.012209656 0.0083452994 -0.037422724 -0.10489438 0.012187589 0.0075894156 -0.050315302 -0.079129852
-0.019390885 -0.086070687 0.012134829 0.0075880527 -0.017224865 -0.097669154 0.012967778 0.0080383318
0.013082686 0.0088046398 -0.050247144 -0.079077281 0.01304586 0.0080434252 -0.056302611 -0.10730006
284725000 -0.036263015 -0.071532518 0.020418083 0.0075578727 -0.029394463 -0.046726592 0.021411849 0.0073054191
0.020496018 0.0075877914 -0.046931576 -0.07934887 0.019815227 0.0067101996 -0.055580471 -0.042237297
-0.029503873 -0.046845276 0.01984342 0.0068013086 -0.027020153 -0.065891601 0.020852804 0.0065961154
0.021438546 0.0073773521 -0.055520918 -0.042204287 0.020817855 0.0066110254 -0.069097131 -0.071738884
290968750 -0.02490239 -0.03536864 0.02988236 -0.0048512309 -0.012216697 -0.0085183643 0.03041489 -0.0056053568
0.029971918 -0.0047880583 -0.044673543 -0.052594077 0.02898133 -0.0049853511 -0.044270735 -0.0055741216
-0.012239366 -0.0084884819 0.028931055 -0.0049764169 -0.013790052 -0.034899738 0.029519603 -0.0057568965
0.030505722 -0.0055694156 -0.04434479 -0.0056191357 0.029534409 -0.0056912852 -0.064933188 -0.03379681
297212500 0.0015463398 -0.018134929 0.025155194 -0.022781176 0.020686215 0.0092912978 0.025012147 -0.023576057
0.025280058 -0.02291793 -0.032087628 -0.030346688 0.024637517 -0.022395575 -0.018964361 0.022991085
0.020723823 0.0093606682 0.02464602 -0.022433255 0.011722561 -0.021692352 0.024511006 -0.023237795
0.025107738 -0.023656156 -0.018954167 0.023013679 0.024532314 -0.023196692 -0.045450512 -0.0018750945
303456250 0.025604947 -0.017415902 0.010713452 -0.032393843 0.051992457 0.0082792835 0.01022984 -0.032950338
0.010710424 -0.032555558 -0.012041737 -0.015168207 0.010682048 -0.031963438 0.016178163 0.039509751
0.052040875 0.0082949866 0.010637333 -0.031961039 0.034037173 -0.024031598 0.010193435 -0.032522254
