!Agilent Technologies,N5224A,MY51441544,A.10.00.00
!Agilent N5224A: A.10.00.00
!Date: Wednesday, July 15, 2015 09:54:20
!Correction: S11(Full 4 Port(1,2,3,4)) 
!S12(Full 4 Port(1,2,3,4)) 
!S13(Full 4 Port(1,2,3,4)) 
!S14(Full 4 Port(1,2,3,4)) 
!S21(Full 4 Port(1,2,3,4)) 
!S22(Full 4 Port(1,2,3,4)) 
!S23(Full 4 Port(1,2,3,4)) 
!S24(Full 4 Port(1,2,3,4)) 
!S31(Full 4 Port(1,2,3,4)) 
!S32(Full 4 Port(1,2,3,4)) 
!S33(Full 4 Port(1,2,3,4)) 
!S34(Full 4 Port(1,2,3,4)) 
!S41(Full 4 Port(1,2,3,4)) 
!S42(Full 4 Port(1,2,3,4)) 
!S43(Full 4 Port(1,2,3,4)) 
!S44(Full 4 Port(1,2,3,4)) 
!S4P File: Measurements: <S11,S12,S13,S14>,
!<S21,S22,S23,S24>,
!<S31,S32,S33,S34>,
!<S41,S42,S43,S44>:
# Hz S  RI   R 50
10000000 0.0031473027 0.0039161574 0.99435151 -0.058344472 2.7058119e-005 3.7054931e-005 -6.559406e-005 0.00016415644
0.99356371 -0.056854278 0.0050415131 0.0032598272 -9.3253679e-005 7.210936e-005 2.1305781e-005 5.0605558e-005
6.8420821e-005 -8.734055e-007 -3.6053741e-005 1.5983751e-005 0.0040614018 0.0056730965 0.99390185 -0.057922453
-8.3067302e-005 -9.9111094e-005 3.4200777e-005 -8.8530745e-005 0.99399012 -0.057428557 0.0043942616 0.0045219222
16243750 0.0047593107 0.0048665395 0.99049842 -0.093441188 -4.3919277e-005 5.5024469e-005 -7.4286378e-005 -2.6035415e-005
0.99049336 -0.091902964 0.00496969 0.0048295185 4.2120475e-005 3.6236404e-005 -0.00010312957 3.1268883e-005
2.6706435e-005 -1.085896e-005 -0.00010488258 -3.339507e-005 0.0050419266 0.0064538913 0.99138445 -0.092579104
5.1575189e-005 2.6527116e-005 7.1267841e-006 1.6619257e-005 0.99055839 -0.092305832 0.0047172685 0.0065848571
22487500 0.0053359093 0.0062205652 0.98593116 -0.12761749 -1.3504856e-005 2.0596619e-005 2.0538686e-005 2.4553376e-005
0.98588616 -0.1265339 0.0062842392 0.0062443716 2.0959393e-005 -6.4058739e-005 6.0289924e-005 2.3613542e-005
1.1165453e-006 4.6220139e-005 -8.4845437e-005 7.8904894e-005 0.0058365925 0.0083251121 0.98623949 -0.12726508
3.0301519e-005 4.1997992e-005 2.2667622e-005 1.0348413e-005 0.98604637 -0.12667419 0.0062645362 0.0080288537
28731250 0.0060815411 0.0073633627 0.98036015 -0.16148566 1.4512591e-005 1.2707256e-005 -6.2451027e-006 -1.6841341e-005
0.98013812 -0.16060477 0.0066402047 0.0072949557 5.2650343e-005 -4.3497607e-006 -3.1832165e-005 -6.2632043e-006
2.6686957e-005 5.5938213e-005 6.869974e-007 -3.2875523e-005 0.006569373 0.0099103348 0.98059511 -0.16121417
2.1331482e-005 2.0359443e-005 6.0761544e-005 -4.3409891e-006 0.98056269 -0.16090716 0.0068815243 0.0098862769
34975000 0.0070028296 0.0085473768 0.97353828 -0.19548014 5.4728564e-005 -3.7186004e-005 -2.0675543e-005 -3.9922834e-005
0.97329807 -0.19479999 0.0071883984 0.0084379949 -1.739614e-005 -4.282378e-005 5.9363006e-006 -9.9219669e-006
-1.9191079e-005 9.2139334e-007 2.7965564e-007 -1.3576529e-005 0.0074133682 0.011637278 0.97348523 -0.19511472
-1.5911821e-006 -4.1000685e-006 -2.1129616e-005 -2.2265101e-006 0.97374552 -0.19492117 0.0080801537 0.011369666
41218750 0.0081608854 0.0097190151 0.96536171 -0.22878569 -8.7338185e-006 -1.8448727e-005 1.8601242e-005 -3.5578829e-005
0.96538174 -0.22831053 0.0082294177 0.0093325432 -1.8163053e-006 2.275618e-006 2.4630772e-005 -5.1928799e-007
-6.8742947e-006 5.777672e-006 -4.9868402e-005 1.3423433e-005 0.0085968422 0.013125565 0.96566534 -0.22849666
-2.5978194e-005 -4.3976556e-006 -2.3450899e-005 -1.7961334e-005 0.9655636 -0.22850342 0.0090346998 0.012763656
47462500 0.0089929001 0.010712892 0.9563188 -0.26202974 -3.7985912e-005 2.432019e-005 4.4003496e-005 -2.7266583e-006
0.95640641 -0.26161343 0.0089648739 0.010519195 -1.2692379e-005 -1.4699731e-006 -1.5564594e-005 2.8918666e-005
-1.4010666e-005 -3.2379336e-005 1.5457603e-005 1.5245201e-006 0.0098707015 0.014457474 0.95656067 -0.26170552
4.0991432e-005 1.8223373e-005 3.9509894e-005 7.4015206e-006 0.95650607 -0.26150665 0.010026151 0.0142162
53706250 0.0098727206 0.011433373 0.946316 -0.29461846 5.3744647e-005 7.0050366e-005 -5.2870466e-005 -2.6462341e-005
0.94617438 -0.2938031 0.0099918647 0.011155974 4.4640929e-005 -4.7598598e-005 2.6198326e-005 5.246358e-005
1.3553426e-005 -4.7313784e-005 4.5868746e-005 -0.00012846626 0.010812364 0.015966052 0.94636893 -0.293827
-2.9520574e-005 3.2538723e-005 1.0194037e-005 -1.0674406e-005 0.94656736 -0.29375243 0.010865971 0.015777579
59950000 0.011356829 0.01197305 0.9347623 -0.3266902 -8.6463142e-006 4.9188595e-005 2.4370498e-005 -7.5093863e-005
0.93482399 -0.32625404 0.010465911 0.012258518 -7.2486953e-005 -1.8130591e-005 -5.8745602e-005 -3.9130638e-005
-3.4595232e-005 5.7011039e-005 -3.3052733e-005 -4.8748909e-005 0.012221846 0.016852785 0.93526888 -0.32632282
-7.3711095e-007 -6.1539677e-006 1.992987e-005 1.8710152e-005 0.93506014 -0.32609898 0.01253342 0.016534327
66193750 0.011540798 0.01280775 0.92294371 -0.35853779 -5.4612901e-005 -6.3859559e-005 5.4732591e-005 -9.2639675e-005
0.92230576 -0.35800233 0.011889199 0.012679569 -2.9524133e-005 1.7489338e-005 -3.9926414e-005 6.8485271e-005
-9.0824542e-005 -9.6665281e-005 9.4604518e-005 -8.5124309e-005 0.013862841 0.018029841 0.9228608 -0.35809356
-3.7550039e-005 -3.1019092e-005 -2.8085238e-005 -4.5440747e-006 0.92296433 -0.35802433 0.013564657 0.018021276
72437500 0.012929277 0.013056654 0.90950066 -0.38987836 -2.1749209e-005 2.8965973e-005 -4.5056559e-006 3.2821597e-005
0.90891874 -0.38960135 0.012853758 0.013385441 4.6994393e-007 4.034437e-005 4.2866566e-005 4.3131415e-005
2.3680321e-005 1.3259239e-005 5.2604089e-005 -3.3785898e-005 0.015260815 0.018848516 0.90971524 -0.38953081
-4.9941111e-005 1.1567218e-005 -3.3385313e-005 9.8038436e-006 0.90938407 -0.3895278 0.015146933 0.019039717
78681250 0.013799065 0.013783203 0.89472169 -0.42084029 -7.2888688e-006 5.7537727e-005 3.7538999e-007 4.3855434e-005
0.8946771 -0.42049453 0.0137213 0.013727281 -1.6173737e-005 4.247831e-005 -3.3311218e-005 -8.5125557e-006
-3.1497609e-006 -1.3111125e-005 -7.7230288e-006 1.9804835e-005 0.016839307 0.019648848 0.89487314 -0.42041972
-6.1507617e-006 1.6639951e-005 1.674347e-005 -3.1539308e-005 0.89505762 -0.42024323 0.016480081 0.019825831
84925000 0.015178938 0.014199737 0.87949783 -0.45120609 7.7253908e-006 -1.3060849e-005 -5.0029007e-006 2.7878457e-005
0.87910146 -0.45080766 0.014841711 0.014341796 -2.3509792e-005 1.6219015e-005 1.7346589e-005 5.8194601e-005
-5.7468842e-006 -9.0500134e-006 -7.4783864e-005 -4.2417447e-005 0.018322818 0.020308353 0.87951154 -0.45069078
3.6229332e-005 -2.6303689e-005 4.5861398e-005 3.4970828e-005 0.87966388 -0.45058739 0.018148297 0.020595334
91168750 0.016469298 0.01441316 0.86296964 -0.48101217 -2.4439498e-005 -5.3646487e-005 -2.3164288e-005 -6.1367056e-005
0.862553 -0.48044068 0.01591244 0.014715546 2.3363902e-005 -3.5071218e-005 4.2066666e-005 -5.4887456e-005
-2.9880544e-005 -1.0546087e-005 1.1540107e-005 1.8605275e-006 0.019852394 0.020871967 0.86313719 -0.48045269
-2.6881893e-005 1.1773212e-005 -2.2343776e-005 9.5195146e-006 0.86293066 -0.48032472 0.019612277 0.021026408
97412500 0.017408118 0.01474099 0.84549236 -0.50994122 1.0395479e-005 2.7919545e-005 2.5555846e-005 -1.4340083e-005
0.84503657 -0.50967425 0.01717825 0.015091271 -2.5147279e-005 8.3871591e-006 -1.4151237e-005 1.3869403e-005
-4.2753709e-005 1.8009609e-005 2.0065515e-006 6.6964924e-007 0.021606354 0.021393236 0.84577453 -0.50957429
-5.2340179e-006 -1.9305571e-006 -4.1019907e-006 1.6160326e-005 0.84562892 -0.50935107 0.02121212 0.021852147
103656250 0.018795045 0.014951166 0.82708442 -0.53851861 8.4138392e-006 -2.0099236e-005 -3.985293e-006 -2.3138022e-005
0.8265717 -0.538073 0.018283589 0.015137266 -1.518233e-005 -1.2731355e-005 -3.6523797e-006 -9.5778414e-006
-3.0552103e-005 -1.2277288e-005 -1.3332041e-005 1.0005213e-005 0.023224911 0.021897547 0.82727695 -0.53805101
-2.5627611e-005 5.5865112e-006 -1.4640476e-005 3.0120358e-005 0.82716233 -0.53772187 0.022594372 0.022384491
109900000 0.019964693 0.015040409 0.80785173 -0.5664475 -1.2977322e-005 -2.5296833e-005 4.0785094e-006 1.9333538e-007
0.80730766 -0.56583142 0.019397242 0.015595199 -2.2827375e-007 -1.0365309e-005 2.5115552e-005 1.5667902e-005
-8.3088498e-006 -3.2639632e-006 2.2080562e-006 -1.4242943e-005 0.024878915 0.022127723 0.80803323 -0.56574988
2.1992173e-005 1.6968605e-005 -2.1127447e-005 5.0934982e-006 0.80774009 -0.56556058 0.024173936 0.022924518
116143750 0.021242123 0.015386704 0.7873978 -0.59365851 1.6184669e-005 2.5923728e-005 -2.1831449e-005 2.2360427e-005
0.78696448 -0.59290856 0.020486498 0.015590212 -1.4698588e-005 -2.2941773e-005 -5.2617565e-006 1.1450349e-005
7.255378e-006 9.5488758e-006 -9.6172698e-006 -4.4505286e-006 0.026619785 0.022569535 0.78775787 -0.59284842
1.2491245e-005 -3.2833108e-005 -1.0429822e-005 -5.9168224e-006 0.78765589 -0.59272635 0.025838638 0.023278438
122387500 0.022234557 0.015238648 0.76634336 -0.61987895 -1.9567131e-005 7.6404176e-006 1.7227732e-005 -1.243391e-005
0.7657851 -0.61929899 0.02161454 0.015746299 1.0872805e-005 -4.8560373e-006 1.7280447e-005 -2.5042922e-005
-1.3035692e-005 -7.7992399e-006 -6.8071367e-006 -1.4278136e-005 0.028416222 0.02282552 0.76667631 -0.61921531
-1.5128822e-006 -1.0946595e-005 1.9750716e-005 -1.5910744e-005 0.76648247 -0.61910361 0.02747138 0.023440592
128631250 0.023426611 0.015459337 0.74425745 -0.64560026 -1.773673e-006 -3.0909814e-005 -3.0884494e-006 9.3799572e-006
0.74389374 -0.64498264 0.022851801 0.015778266 -3.2958012e-006 2.5449179e-005 -8.8160523e-006 7.5986e-006
8.2043916e-006 -4.1539606e-006 2.5319718e-005 7.0469523e-006 0.030056566 0.022838986 0.74469447 -0.64490741
-9.5186738e-007 6.8609856e-006 2.8468455e-006 2.1051949e-006 0.74454623 -0.6446445 0.029325619 0.023720611
134875000 0.024447072 0.015374668 0.72142249 -0.67035884 -2.1995531e-005 3.2175627e-005 3.1447922e-005 -1.1003698e-005
0.72101748 -0.66989893 0.02407342 0.01561792 3.3841684e-006 -8.4546809e-006 4.2337684e-005 4.2703814e-006
-4.2341908e-006 -3.1854615e-005 -8.9855112e-006 3.7381792e-006 0.031777114 0.022736602 0.72188538 -0.6697315
1.0678567e-005 -8.8311281e-006 -5.7137713e-006 1.9133411e-005 0.72182333 -0.66954571 0.031046996 0.023744747
141118750 0.025646236 0.015233621 0.69772273 -0.69451362 5.0469584e-006 9.561046e-007 1.2651339e-005 -2.2184058e-006
0.69732624 -0.69374651 0.025382394 0.015340348 -3.854706e-007 -2.1854625e-005 1.7923932e-005 -1.6148257e-005
-1.9294919e-005 1.1343134e-005 4.8922284e-006 -2.0959569e-005 0.033507477 0.022445317 0.69810277 -0.69362432
1.7242928e-005 1.2212522e-005 -1.21988e-006 1.247037e-005 0.69802171 -0.69350135 0.032826398 0.023604404
147362500 0.026629288 0.014797034 0.67326134 -0.7175746 -7.6671377e-006 6.5470517e-006 7.3518058e-006 -2.3107962e-006
0.67292815 -0.71703422 0.026554093 0.015337227 -2.4888863e-005 -2.1056125e-005 -4.9202108e-006 1.0857413e-005
-1.5200556e-005 1.3033127e-005 3.3291353e-006 -3.1833858e-006 0.035318516 0.02218662 0.67372173 -0.71677464
2.4013834e-006 1.8101625e-007 1.0108287e-006 -2.6524729e-006 0.67362195 -0.71667731 0.034428619 0.023337198
153606250 0.027789636 0.014424789 0.64806527 -0.73985612 -1.1607839e-005 1.9540887e-005 9.6267866e-007 3.1961424e-006
0.64779079 -0.73947841 0.027598681 0.015020315 -1.7892966e-005 7.002197e-006 -1.2514056e-005 2.576545e-005
-1.5831605e-005 2.223817e-005 9.2579648e-006 -3.609164e-006 0.037052028 0.021693239 0.6485486 -0.73913151
1.4419483e-005 2.394004e-006 -1.7149488e-005 1.1042162e-005 0.64842415 -0.73895103 0.036006376 0.023129037
159850000 0.028878972 0.014079373 0.62208521 -0.7612462 1.1686517e-005 1.0356414e-006 -1.5871545e-005 -5.5517439e-006
0.62181383 -0.76089257 0.028807307 0.014458372 1.3366462e-006 1.3325651e-005 -2.5796642e-006 1.3539855e-005
6.5151671e-006 2.2264749e-005 1.4663513e-005 -4.6340901e-006 0.038741365 0.021174407 0.62255675 -0.76048946
3.4526106e-006 3.6234953e-005 -2.2939407e-006 -5.384577e-006 0.62250841 -0.76035422 0.037583675 0.022733858
166093750 0.029873781 0.013528422 0.59529954 -0.78182214 -6.5852214e-006 -2.2959102e-005 -5.2852879e-006 -2.1197493e-005
0.59526688 -0.78145754 0.029747322 0.014026018 -3.8095968e-006 -1.7005215e-005 3.4589548e-006 -1.1744098e-006
-1.2490321e-005 -4.2340166e-006 -1.7490187e-005 5.4535703e-006 0.040444605 0.020481965 0.59602082 -0.78102207
8.9285149e-006 -1.650199e-005 -2.0765359e-005 -8.2140123e-006 0.59593332 -0.78095609 0.039117761 0.022177201
172337500 0.030957572 0.013024545 0.56802565 -0.80141884 2.5080355e-006 -1.9818342e-005 -5.2651831e-006 1.3896039e-005
0.56793767 -0.8011018 0.030820873 0.013359543 -2.5056926e-007 -4.2721031e-006 -1.0153954e-005 2.455693e-006
1.7852566e-005 1.4920891e-005 1.963198e-006 -2.8508864e-005 0.041934799 0.019676331 0.56876147 -0.80059534
-6.1963397e-006 1.1937351e-006 -7.3562669e-006 5.4517018e-006 0.56866199 -0.80068481 0.040627263 0.021451565
178581250 0.032024544 0.012190215 0.54004431 -0.82015818 -3.0634746e-007 -3.7507536e-005 6.1337164e-006 4.6852932e-005
0.53987569 -0.81954771 0.031857722 0.012857086 -6.1177139e-005 2.2337817e-005 -3.5310164e-005 1.9128271e-005
-9.2051399e-005 9.1431366e-007 1.2547605e-005 2.4517958e-005 0.043528441 0.018871734 0.54087341 -0.81922287
-2.1828928e-005 4.0390782e-006 -1.8545315e-005 -1.5450325e-005 0.54081988 -0.81925476 0.041907247 0.020802176
184825000 0.032862987 0.01163517 0.51168281 -0.837892 3.5736925e-006 8.9159148e-006 5.7761401e-005 3.7600137e-005
0.51128978 -0.83729994 0.032583121 0.012139185 2.6919046e-005 7.1667012e-007 4.0892201e-006 1.5522708e-005
6.1696605e-006 -1.7647229e-005 1.3884935e-005 2.1202286e-005 0.044808168 0.01786707 0.51233083 -0.83701181
7.2299258e-006 -8.9781024e-006 -6.3989763e-005 -1.4226909e-005 0.51237679 -0.83693165 0.043575503 0.019946195
191068750 0.033839837 0.010646212 0.48241803 -0.85462677 -4.8474114e-005 7.7244604e-006 -8.3933464e-006 -0.00012057585
0.48221713 -0.85399806 0.033531923 0.011487688 -5.3940639e-005 2.4309116e-005 -2.6031774e-005 -5.1153176e-005
-5.814461e-006 -3.8874936e-005 4.5665552e-006 1.060983e-005 0.04616968 0.016743179 0.48329329 -0.85363889
-4.6570996e-005 1.4275087e-005 -9.8071378e-006 -2.985464e-005 0.48312998 -0.85361654 0.044868961 0.019047083
197312500 0.034640767 0.0099424589 0.45262086 -0.87021905 3.1659321e-005 -2.2702314e-005 -1.5265618e-005 -4.9885675e-006
0.45269248 -0.86969864 0.034620699 0.010797203 -5.0020655e-005 -3.3437133e-005 -5.8139336e-005 1.1303234e-005
-6.0051541e-005 2.6069432e-005 -2.631757e-005 -3.4356533e-005 0.04770105 0.015440983 0.45355901 -0.869353
-5.3625004e-006 2.3183118e-007 3.4282166e-006 -1.4447834e-005 0.45355812 -0.86931944 0.046313085 0.018184653
203556250 0.035489175 0.009021936 0.42266244 -0.8847146 1.6421554e-005 4.719551e-005 -5.9774971e-005 -2.5826537e-005
0.42231187 -0.8842085 0.035421267 0.0097809853 -1.976501e-005 1.093207e-005 -1.9189554e-005 -3.9314626e-005
-1.433181e-005 -1.4125395e-005 -8.2798852e-006 -1.5153521e-005 0.048906453 0.014308712 0.42361373 -0.88395411
-1.3037129e-005 2.668806e-006 3.3939581e-005 -5.7602697e-006 0.42352211 -0.88412362 0.047594044 0.016864691
209800000 0.036243651 0.0079377294 0.39186293 -0.89814782 -4.8921494e-005 -2.7358468e-005 -3.9998398e-005 1.3719989e-006
0.39184204 -0.89793658 0.036063995 0.0086856075 2.1794192e-005 2.6888405e-005 -5.0560808e-005 -4.7784164e-005
8.3115774e-006 6.3901274e-007 5.8823475e-006 2.6209702e-005 0.050381225 0.01275565 0.39284351 -0.8975271
-3.6986705e-005 3.2038304e-005 -1.432015e-005 -1.2438668e-005 0.39280477 -0.89749163 0.049028508 0.015853671
216043750 0.037189726 0.0068963766 0.36079913 -0.91079497 -3.0983483e-005 -3.8440969e-005 -4.8831844e-005 1.4477503e-006
0.36076984 -0.91054934 0.036759708 0.0078887576 -1.1001316e-005 -3.4172783e-005 -6.677246e-005 -2.0892048e-005
1.2293283e-005 5.4962907e-006 3.2904238e-005 7.3752049e-006 0.051518068 0.011291172 0.36200017 -0.91013527
1.7914639e-005 4.6736595e-006 2.1864944e-005 -9.6998574e-006 0.36190897 -0.91005433 0.050025284 0.014740201
222287500 0.037687417 0.0058898432 0.3293038 -0.92217016 2.7835864e-005 -1.5061786e-005 -1.7698307e-005 1.1532179e-005
0.32943791 -0.9218936 0.037486076 0.0067687756 -1.1699407e-005 1.2797558e-005 3.4098393e-005 -2.4618032e-005
-7.2250036e-006 -4.2023516e-006 4.8868525e-005 3.361848e-006 0.052556574 0.0097913472 0.33062011 -0.92161673
7.8596321e-007 1.0586336e-005 1.6622869e-005 1.5867126e-005 0.33041373 -0.92169428 0.051134069 0.01347071
228531250 0.038408127 0.0047926204 0.29755139 -0.93265533 -6.5512036e-006 -2.0859559e-005 -7.9455254e-005 8.2316792e-006
0.29750443 -0.93230426 0.038413189 0.0060407557 1.8111416e-005 1.5358459e-005 -2.480047e-006 -3.4813915e-005
2.0074249e-006 -2.6322045e-005 -2.7817607e-006 1.3168445e-005 0.05332049 0.0081124278 0.29870448 -0.93185037
-1.0756399e-005 4.32978e-006 5.5317687e-006 2.163066e-005 0.29868689 -0.93186688 0.052113902 0.012064348
234775000 0.039092008 0.0037861911 0.26544651 -0.94184375 7.6860269e-006 4.2170559e-005 -2.0911395e-005 2.2029495e-005
0.26550207 -0.94163048 0.038753659 0.0047555994 1.6957994e-005 5.1392162e-005 -1.5818181e-005 5.8602036e-006
2.3342109e-005 -1.6300182e-006 -1.3300337e-005 3.0731167e-005 0.054111604 0.0064689829 0.26674265 -0.9411757
-1.8664678e-005 1.5116839e-005 -3.1689626e-006 -3.0466356e-006 0.26667485 -0.94116467 0.053167902 0.010731976
241018750 0.039544489 0.0024903673 0.2329828 -0.95000499 3.1949716e-005 7.9094598e-006 -2.0219511e-007 -1.4376942e-006
0.23295888 -0.94966847 0.039112072 0.0038146093 2.9861025e-005 3.1899766e-005 -4.1184729e-005 1.7275921e-005
-5.3796125e-006 -1.3441291e-005 2.1382304e-005 4.555613e-006 0.055283379 0.0047364454 0.23440592 -0.94947106
-2.6223988e-005 -1.8770057e-005 4.9803097e-005 3.5237212e-005 0.23428397 -0.94938529 0.054052323 0.0093447221
247262500 0.040116914 0.0012222148 0.20025089 -0.9568252 3.5032954e-005 2.5958066e-006 -1.4117166e-005 -3.1242336e-005
0.2003925 -0.95697922 0.039751936 0.0028241193 -1.3435304e-005 7.2776747e-006 2.6076657e-005 1.1970204e-005
1.2354796e-005 2.3129531e-005 2.9830444e-006 -7.9802169e-007 0.055812392 0.0026758569 0.20180573 -0.95648438
-2.2810089e-005 -1.6264405e-005 2.4030121e-005 2.1069762e-005 0.20182475 -0.95651412 0.054599002 0.0076179607
253506250 0.040527735 -0.00025093273 0.16749799 -0.96307749 2.7951321e-005 -6.4282144e-006 2.3508173e-006 -2.2609216e-005
0.16736445 -0.96250385 0.040373273 0.0014457626 3.7569757e-006 -1.292921e-005 -3.6026984e-005 -3.635051e-005
-1.8226064e-006 6.6486311e-005 7.400442e-005 -1.8725292e-005 0.056084402 0.00089748198 0.168955 -0.96255761
9.6364682e-005 7.0276114e-006 4.147174e-006 2.2427868e-005 0.16907993 -0.96250397 0.05549584 0.0062210625
259750000 0.04059929 -0.0011464374 0.13434684 -0.96810496 -4.0412583e-006 -7.2544213e-007 1.3003609e-005 -1.3002761e-005
0.13433884 -0.96722943 0.041003089 0.00041061285 -9.8291666e-006 3.2318643e-005 4.3096708e-005 1.9625915e-005
-5.5273915e-005 -5.1541238e-006 1.1510078e-006 2.190992e-005 0.056697015 -0.00074416026 0.13592932 -0.96738619
2.5401048e-005 -6.9254834e-006 2.1497191e-005 1.9157608e-006 0.13599268 -0.96739376 0.056116406 0.0048242495
265993750 0.040861003 -0.0024609801 0.10126881 -0.9719674 -3.0910574e-005 -2.0842135e-005 -2.6881986e-005 4.2769848e-006
0.10132177 -0.97090054 0.040590119 -0.00073355919 5.3026884e-005 -2.6987338e-005 -4.1818632e-005 -5.4766377e-005
-1.538337e-005 -8.2172537e-006 2.6523703e-005 1.5740919e-005 0.057219341 -0.0027595579 0.10300089 -0.97107023
-4.5484585e-006 1.9549036e-005 -1.825304e-005 4.4183635e-005 0.10297009 -0.97112215 0.056570388 0.0031970665
272237500 0.040916927 -0.0042215353 0.068014883 -0.97435302 -7.5143747e-005 1.8759107e-005 2.8766377e-005 -1.7603061e-005
0.068130918 -0.97354233 0.041252054 -0.0017567326 -4.4043609e-005 -4.0141374e-005 -9.3503932e-006 6.311634e-006
-7.559517e-005 2.8881062e-005 9.605933e-007 3.1984396e-006 0.057443067 -0.0047680638 0.06984105 -0.97379875
-8.4867897e-006 -6.9180142e-006 -2.2154904e-006 1.6341914e-005 0.069619305 -0.9734903 0.056851629 0.00152525
278481250 0.041101735 -0.0053673317 0.034628425 -0.97581846 3.1534077e-005 6.9535827e-006 -2.7782626e-005 -1.0966988e-006
