# Hz S  RI   R 50
10000000. -0.0002572983786050811 -0.0002142126415760689 1.000301612464913 -0.005682991338228333 -0.0001361253655656546 0.00002666435626764077 0.0001144356563985218 -0.00005267190780608048
1.000829907296517 -0.006198528544827902 0.00003318474183936518 0.0001107421629437064 -0.0001078754794715516 -0.0001231815406031484 0.0001504043401531378 -0.00009806523481877554
-0.0000215068840236472 -0.00006801926158302789 0.00004590308302963038 0.00006303200006863568 -0.0003219988649120452 -0.000207110270306593 1.000286335977118 -0.005900221264491072
0.0000003781176190740999 0.00007242316519298354 0.0001133373909890603 0.0001049854725399325 0.9995577388838038 -0.005914498196150168 0.0002434448844875897 -0.000396241719131378
22493750. 0.0002181746221690531 0.0002932795200422604 1.000531538671063 -0.01265328269907347 0.0002089292814442121 0.0002215628651466487 -0.0001023420135604555 -0.0002061808270039197
1.001151770363497 -0.01364250845100532 0.0001066982454056462 0.0008342987766685127 0.0001643074575561123 0.00002781473514599654 0.0001794753133299518 -0.00005974091735030923
0.00008106479028539383 0.00003427159367831208 0.0001976898148320688 -0.00004465658840419021 -0.00001446448625729707 -0.0001230902900348201 0.9999924720918962 -0.01323652972290946
0.00009241360985927404 0.0001665172970221515 -0.0001419312492542686 -0.00004217430525888763 1.000853191937204 -0.01300627474035886 0.000148939512257508 -0.0001885731672701396
34987500. 0.0003273613873372145 0.000155965861103706 1.000198252662393 -0.01918886517578406 0.00007837992796888571 -0.00006440524261760887 0.00005103750380684752 -0.00006256236896455296
1.000396987393104 -0.01829711504790057 -0.0002813729726027727 0.00010792325891022 0.00004461280479227579 0.00009570915574760485 -0.00002828987375905502 -0.00006788157763961802
-0.00003449433342067247 0.00003565762116878143 0.00008673880384138257 0.00004651934319462014 0.00003263787285159858 -0.000224966474592251 0.9995687809692175 -0.01828730017224534
0.0001107183614741735 -0.000003653613798851313 0.000004087294465953879 0.0000348154579057207 0.9994546069310832 -0.01904133971714578 -0.0001219900825176062 -0.0002796982273548659
47481250. -0.00008177773556800647 0.0001506929126891867 0.9997613041691102 -0.02569963397596334 0.0001374754020222045 -0.0001279828803703136 -0.00006461861131089594 -0.0001446193530283867
1.000455952555596 -0.0250774465369774 -0.0002561505071009566 0.0004938507010808949 0.0001073256420838313 0.0001394574589505906 -0.00004821917038369671 -0.00006222755709123455
-0.000005964898866030806 -0.00001410381007342683 0.00004457462815963151 -0.0001686483934951587 0.0002741833925091544 0.00008363533727655595 0.9992466789871854 -0.02527238875915544
0.00008169338937520758 0.00004920921165256023 -0.00001228611134256981 0.00002453299192077224 0.9995053895427468 -0.02566678913423771 0.0002251678032409929 0.00003027352938643479
59974999.9999999926 0.0003320642077820986 -0.0001150871498553642 0.9996325323294919 -0.03302929204882107 0.0002138290737000678 0.000004667248858941411 0.00009031480930682348 -0.0001618395007771559
0.9996739308355741 -0.03215734250326388 -0.0001945199320842397 0.0002975273382669593 -0.00006213680035199429 0.00004420240335807719 0.0000417870549207457 0.00007204026099850645
-0.0001293487265888329 -0.00007590960355522383 -0.00001776971736609478 0.000007805996404294962 0.0002131879424438631 -0.000009031964373129586 0.9995851982181382 -0.03214853236131468
-0.00006939809363830806 -0.00006191482703498614 0.00008191633549770974 0.00005335798775461122 0.9994405264541838 -0.03227508499876201 0.0001680314828920565 0.0001289112415708942
72468750. 0.0002646374781875673 0.0001517841612502945 0.9988404923613367 -0.03956154188905976 -0.0001271789640863621 0.00008979865790001528 0.00002273656804727264 0.000003911730507458169
0.9990869234039116 -0.0387141976519222 0.0002811563595269536 0.0006376843166717177 -0.00006173904169620088 -0.00001466631965319423 0.00002378628048402469 0.000009106696172463138
-0.00007961804182842055 0.0001586746657616306 -0.0000173004995737673 0.00007291430553558972 0.0001370212687952501 -0.000003385305751144735 0.9991030550777448 -0.03855108761458729
-0.00002837977478323344 0.0000611308184873704 -0.0001570560540532503 0.00009364756289140088 0.9988596665561282 -0.038604833548699 0.0001503876077539618 0.0002832173080178253
84962500. 0.0002289970328272392 0.0002613224760710462 0.9988393261485529 -0.04573404568812342 0.00004145131783369051 0.0001590990152437568 -0.00008681964026391907 0.00004898545270828241
0.9992553008832383 -0.04481403036976311 0.00009363960759556028 0.0005411432524756373 0.00006374142325172658 -0.00007273797554613112 0.00003859772806652571 0.00001067504117540257
-0.000007221872322386785 -0.00005715084349266982 -0.00004121998497871908 0.000001175727499858732 0.0004798391436611621 0.0001640697867939158 0.9986329782619907 -0.04589573552909392
0.00005136790228971295 -0.00001226026220504623 -0.00005501071264644068 -0.00005918871485850735 0.9985912599900401 -0.04540245636979832 0.0001101749232381988 0.0003519817943791019
97456250. 0.0004200846997268283 0.0002306009292382206 0.9983909468588632 -0.05260449710773468 -0.00006898007933928753 -0.00007507882034072082 0.00001623868370779782 0.0001649490875990114
0.9988710969667287 -0.05143713724250376 0.0002703958993333965 0.000478759479611316 0.0001464500907142987 -0.0001449482337710186 -0.00003729496227235686 0.00004732637253880693
-0.000003724278101729891 -0.00005420092537940225 -0.0001183063437056542 -0.000003981938057304495 0.0001648802328051684 0.00005319630084338095 0.9981671275885846 -0.05234191442408508
-0.000002404753794718851 -0.00001635221198550599 -0.00004061794216782869 -0.000008871730205075964 0.9990399199942719 -0.05189460568150589 0.0001131586966453668 0.0001141094261079959
109949999.999999985 0.0001776209043344426 0.0004892304623493884 0.997696305867766 -0.05919642894794747 -0.00005807473376942813 0.00007956349817644493 -0.0001093074510980998 -0.00008194916556019683
0.9983181337646041 -0.05826381327293305 0.0005491102661096432 0.0003774858193508988 0.00009827699740134514 -0.00003612137947249346 0.0001409750007739415 -0.00009299957116085507
0.00006581328232874892 0.00002217172269776944 -0.00001819747474124806 -0.0000794673823482996 0.0005157986900534155 0.0002627366538979882 0.997927373512953 -0.05867732652295096
-0.00004614375931117091 0.00003570806786997184 0.00003515562714773367 0.00004754205584007815 0.9980926192807109 -0.05860565784183826 0.0002489256718413145 0.0001711780536913007
122443750. 0.0005375288348977566 0.0005210419429823972 0.9976040738430373 -0.06586762885422294 -0.00002462453602961082 -0.00001196859802660056 0.00006882889180612443 -0.00004308498273254062
0.997035386708517 -0.06490727655404169 0.0002169827591063139 0.0005578377780210519 0.00002287752502323682 0.00004692135969563606 0.00004244599194365965 -0.00009776313924788292
0.00009945046106416309 0.00002263134457832547 0.00006281395911759666 -0.00006216826506289754 0.000258934957347821 0.00001934611977762613 0.9979523143626676 -0.06556199985787735
0.000006378708034252002 0.00007773437869239275 -0.0000485569423595151 0.000006696566558188552 0.9972658267536917 -0.06491054836235595 0.000008928239678720508 0.00000584156195816178
134937500. 0.0006835880637800653 0.0007405426432026088 0.9967496603913477 -0.07311980206351361 -0.000003673272421429447 -0.00002987213454334275 0.000007835271905800583 -0.000009549344660318263
0.99753961983386 -0.07184215280097453 0.0007138611596091656 0.0002922625264914845 0.000002334420047050724 -0.00001617265833135103 0.00005020132102126504 0.000008139888720608923
-0.00005736108331157203 0.00001164195338989348 -0.00009467389740295247 -0.00006025399369339387 0.0004101799634134144 0.0001960877891844558 0.9971990800738562 -0.07218674490620069
-0.00004022066768594504 0.00001392058567197874 -0.00005286611715702336 -0.00005382645838426165 0.9968822597706375 -0.07233660400038143 0.0002333576809290649 -0.00003814075269235103
147431250. 0.0005138060871736938 0.0003375043669779984 0.9960735398825351 -0.07918235229111717 -0.00001394596557772679 0.00003863868230243475 0.0001134625051126596 -0.00007381062616462091
0.9972134517297017 -0.07821617824638863 0.0006087982880335858 0.0005305457164200081 0.00005180798778683241 0.00005201227652829212 -0.0000467093581195195 0.000062877660189968
-0.0000012268766808283 0.00002281223924729413 -0.00001155713819914717 -0.000006326358483955403 0.00006297140734654039 0.0002946029909380926 0.9967932341319911 -0.07832118798489557
0.00009341710851501982 0.00003136607544674364 -0.00005837853353467282 -0.00004356530946670256 0.9967305120896335 -0.07853667884352784 0.00007241435939787932 -0.00003875963226405684
159925000. 0.0002272749643460793 0.000414308690082378 0.995735245070518 -0.0856324057334432 -0.00002792398129479793 0.000008527396061935947 0.0001124479926656387 0.00004660678664867871
0.9962783124514385 -0.08453573928097209 0.0007110802618166762 0.0004304239015791508 -0.00009223429309074327 0.00001638029711657184 0.0001203326041078037 -0.000052224750725969
-0.0002165786082658803 -0.0001522775624622468 0.0000004741133064758513 -0.00002356041521588893 0.000314341625235158 0.00002551092520738127 0.9957597830774285 -0.08503782911375977
-0.0001225800482972074 -0.00002878009831362036 0.00001503026778661833 0.00005445603246118573 0.9957388092774787 -0.08512535841028683 0.0002380627745815732 -0.0001464550886693782
172418750. 0.000303654397584761 0.0001197536369238711 0.9947047678532721 -0.09222184844245554 -0.00009439895368892663 0.0001476180391945565 -0.0001360154929366102 0.0001365995781345312
0.9957776534692061 -0.09136971370841948 0.0003986879283449976 0.0001745669624901076 0.000003303663852961529 0.00001367938194860799 0.00006893645969956352 0.00004990518952415418
-0.0001314796369815721 -0.000008804115182155417 0.0001158987915401143 0.000003537153290379031 0.0001888618351915585 0.0001854187365616938 0.995425613944267 -0.09191887074153381
0.0001414799269487352 -0.0000417314685829617 -0.0001116528136514876 -0.00006297316917218809 0.9957744533935728 -0.09211126398994406 -0.00001126475842683911 -0.0001960997477390078
184912500. 0.000392277321926455 0.000275912472962835 0.9946025110082255 -0.0993878958543451 0.0001601589445562751 -0.000001254009089988285 -0.0001060049425741047 0.0000845587897297783
0.9956157572726432 -0.09781077191218557 0.0002479315692035242 0.0003740116117477521 0.00007782714846659001 0.000037027486380534 -0.0002039801692773518 -0.000008877354512309979
0.00004524308087600138 -0.0000382300119499361 0.00007587717371791838 -0.0001486144304456367 0.00006071730353946012 0.00006362254359657741 0.9950868832362197 -0.09842412533084277
-0.00003457463820133196 0.0001177966044149977 -0.00002869385632653161 -0.00001537751619855694 0.9945032270397802 -0.09815039968816203 0.00008092678113231189 0.0002087477230738599
197406250. 0.0004668977006107275 0.0003102687253425302 0.9940253310641712 -0.1050301614907989 -0.00005277579701104104 0.000140291375405722 -0.00001828061995083174 0.00007341807142376615
0.9948000240036102 -0.1047099728084267 0.00019906882248283 0.000370053303445186 0.0001422057286371028 -0.00002430658821481188 -0.00002766495626667962 -0.00001246468876218613
-0.00004527079316471523 0.00003802595226054828 0.000005932986175092861 0.00008876993948157232 0.00009214572845395566 0.0001154361782482461 0.9947376902678031 -0.1050066615342695
-0.00009756247994322737 0.0001224616124395878 -0.00002294716836873236 0.00002791732096834788 0.9939868654049747 -0.1046661486526798 0.000008142644370757318 0.0001341241023368302
209900000.00000003 0.0007520369197878332 -0.0001577432966977995 0.9929093318863127 -0.1122193252012518 0.00002166204848700768 -0.00004585517802352236 0.00007069071694749637 -0.00008878080460823711
0.9936585585145355 -0.111392373294446 0.00001587342198823532 0.0001346948858091845 -0.0000697027409180522 0.00007579364713880231 -0.0001703207084250804 -0.00004179790266737542
0.0001348753013847835 -0.00003536719315661625 0.00004539972273697222 0.00003663001550752244 -0.0001563146616002402 -0.00001023723540629056 0.9928787901178128 -0.1115111403451318
0.0001369562951796988 0.00007647765887587849 0.0001002370899093418 0.000122058278340291 0.9930064889254396 -0.1115344627724051 0.000007691773530525215 -0.0002155145873690015
222393750. 0.0003137719421065161 -0.0003573517110454614 0.9924158392355089 -0.1190808989608078 0.0001599811850318482 0.00003099506034676361 0.0001245783122156336 0.00004260569944724631
0.9926606517700883 -0.1174534847953437 0.00005228197521999835 -0.0002258884817288597 0.00002778238683476086 0.00007229762366829618 -0.00004073128197072177 -0.00006255216730883345
0.00007736953802966994 -0.00003769677117541956 0.00005876905366137776 -0.00004318174625981391 0.000133006950268104 -0.0001099022698050406 0.9921302976895329 -0.1189433100859649
0.00009298763853779188 -0.0001459514246591018 0.00003085855802942762 0.0001078037088793134 0.9921948818145613 -0.1181729443265364 -0.00003051215142356408 0.00009644512862216471
234887500. 0.0006159850850750985 -0.0004432588514105167 0.9915548093507427 -0.1256199400151706 0.0001627352850945145 0.00008606303613259947 0.00004544106001794396 0.00004490736746494209
0.9924341503988761 -0.1243059802951288 -0.0005404360877262113 0.00005407874962867595 -0.00006836764790424218 0.00002361602625417038 0.00006968594101480447 -0.00005897429331670913
0.0002575921862627583 0.00002191262798882034 -0.00003677768357628341 0.0001610760937617004 0.00005166121447954583 -0.0003494239270499886 0.9917555031437019 -0.1253479166523201
-0.00005357749228776508 -0.00000638344912491518 -0.000152035114486272 0.00002065315072731416 0.99211541412585 -0.1247372527420418 0.0000748955398523195 -0.00008369592872261699
247381250.00000003 0.0005682736858438056 -0.0004840743326547235 0.990055235988839 -0.1326426288730021 -0.00007863398927980582 -0.00002343612035594734 0.0001374260135034478 0.00003330725929383391
0.9917068682567726 -0.1310773298583066 0.00004369528838401759 0.0004143847606259085 -0.00004504676665966331 -0.0000251873191415713 0.00001447027179406159 -0.00003012863423463259
-0.00008081995344678714 -0.00002430068448893538 -0.000003695448561446604 -0.00001766398358223726 0.00008115023856381312 -0.00008398855668428212 0.9908504916092389 -0.131343515035476
0.00004377697287142099 -0.00005240811212123682 -0.00003159867352273793 0.00002391222302750765 0.990620727267854 -0.1314539069855191 0.0002132328952746867 -0.00003614223575039086
259875000. 0.001124846026523316 -0.0003922614586149188 0.9895954478278777 -0.1381738608151116 0.00005169425815505357 0.00003356288605459168 -0.0001076490834776723 -0.00008973008615254607
0.9901166778460845 -0.137666203427944 -0.00003438828509531946 0.0001063521820408955 -0.00001126291637028764 -0.00007914016173854192 0.00007480116407569436 -0.00005615961732355242
-0.00005270166191711419 -0.0000422247278642368 0.0001675957120933279 -0.00006073271102558899 0.0002376203508657575 -0.0005283086812784311 0.9899402682822237 -0.1382178347196743
0.00009611407107166946 0.0001785185243080506 -0.00002573467624362274 0.00003977808966467022 0.9903491697504641 -0.1381454544171652 0.0007072356955401365 -0.0003315175656398144
272368750. 0.0008316215109005884 -0.0007709952724960546 0.9890887989398133 -0.1451919497694006 0.00006516336210448993 -0.00006512605071549747 0.00007151525658823691 0.00009658959737758562
0.9892619179218752 -0.1445673822296714 -0.00009685854821594863 0.0001452541448587651 0.00007519581545197122 -0.00001809427773889326 -0.00002831907630561821 0.00008496177288351911
-0.0001774046658891114 -0.00007794493114901508 0.00008320240851324367 -0.0001410240817339031 0.0002331651468674076 -0.0003771013976228092 0.9885318966329453 -0.1445757980706307
-0.0001025662738080367 -0.00005236319728853523 -0.00005035936182081537 0.00007518199706091523 0.9890027198359029 -0.144039786893488 0.0002706098786174166 -0.0001700643925571163
284862500. 0.001148078450218295 -0.0009259493034059965 0.9877157653090181 -0.1518921824465601 -0.0001630270599559349 0.00001099162295502986 -0.0001423454749763432 -0.000103898709739447
0.9886015957814833 -0.1506323688951816 -0.0002415542099263187 -0.0001006706146353208 -0.00002007097796298709 0.000009592149974539724 0.00002922875811555412 -0.00001619425604415861
0.00002570305071258635 -0.0001524520748536808 -0.0001501838098850447 -0.00008628025927105132 -0.0002089933326235478 -0.0003219870667717853 0.9880553993057261 -0.1520506036562528
0.00004449082231695382 -0.00008473830953860312 -0.0001110135275584509 0.00002837163508967411 0.9883269134970378 -0.1507966792746405 0.0006868563090796694 -0.0003509760802541638
297356250. 0.0009589287450593028 -0.0007668243730467938 0.987026938522455 -0.1582872828821418 0.0001256983985992914 -0.00005077380908279177 0.00004933531539405132 -0.00002544926292468788
0.9865923526462672 -0.157431406592391 0.00001931450056078178 0.0004563096463317013 0.00005759734341838626 0.00006337711685779381 -0.00003948702217147566 0.0001204991844747
0.00004581138458359384 0.000006645403024164472 0.0000518893400077097 0.00008165220049096637 0.000003489651247358741 -0.0002187710345468025 0.9870704552098554 -0.1576103241295461
-0.00005917492240236986 -0.00002164292266499735 -0.00003866140950182556 0.0001287083186012252 0.9876101728713306 -0.1577735575631877 0.0005910778208934762 -0.0002266167900776828
309850000. 0.0008306715895209592 -0.0002218488621799792 0.9860086523010358 -0.1649985350079188 0.00002076405085049593 -0.0001430377760079266 -0.0002070366368541135 -0.00004380874250836751
0.9863647941390197 -0.163786437468646 -0.0002726915460751144 -0.000275488910042178 0.000004912152558937606 -0.00004207334516200156 -0.0001815163465666825 0.00007607917934843709
0.00005668166755062719 0.0000914774458809464 -0.00009887653298419345 0.00008424837136011292 0.0002423844824677819 -0.0003767979580934465 0.9860566845896435 -0.1643131695691593
0.00009884807220586916 0.00009524248849634161 0.0000410911312604342 0.00009920972399824415 0.9856490188569831 -0.1653471688959036 0.0004280244054986502 -0.000219327312349419
322343750. 0.001347292792673149 -0.0005523919199998473 0.9847854117211597 -0.1707332908331572 -0.00005832712728858476 0.00001210862472419407 -0.00002776344472898466 -0.00009208222173506656
0.9852687695348434 -0.1709603415163765 -0.0002070038031862237 -0.0002306619008900443 -0.00001120587812504034 0.000001731384543932925 0.0001301617213650485 -0.0001356084902610938
-0.00003069312876441862 0.000001029338910191197 0.00002847671993412548 0.00004200589358150423 -0.000152456320324755 -0.000182216214842771 0.9845468397753507 -0.1714367996272571
-0.0001078488161316566 -0.00001921710681373033 -0.00006061702865631885 -0.00004023640662455685 0.9844115939661338 -0.1705325652528457 0.0007829305882548766 -0.000613566629565335
334837500. 0.0008516444434951856 -0.000952065690118098 0.9837212453053686 -0.1773170050156221 0.00006137609295880752 -0.00004628546103469823 0.0001607463505615438 0.0002654336017737698
0.9841673932227932 -0.176643426423621 0.0002500385390615262 -0.000863375195850297 -0.00005807114836840994 0.00006865578280431719 0.0001571927855207812 0.0001145047045711136
-0.00002501566016455438 -0.00007543435824128342 0.00004975833913951462 0.000006803360417287244 -0.0001329800355455331 -0.0003357634311635105 0.9838297479937161 -0.1778032421626391
0.00005253215001233318 0.000209335569796 0.000176335377193298 -0.00006706537522824059 0.9836953864270284 -0.1774946129178445 0.0008137148930879891 -0.0003372161192362107
347331250. 0.0008679610483702186 -0.0005927262710333087 0.9822246368284495 -0.1848368688732607 -0.0001654599088389951 0.00005879847285351722 -0.00002115685406558865 0.00008059967605050799
0.9821550208551083 -0.1839944486460882 0.0001894696815679702 -0.0007657932708992532 -0.00005706316848589136 -0.00009544338541997807 -0.000009255521156453184 0.00004772712778243511
