# Hz S  RI   R 50
10000000 0.002445196 0.0027723049 0.99613738 -0.048875269 -9.4978226e-005 8.056745e-005 3.7888225e-005 -3.0408465e-008
0.99487299 -0.046042781 0.0041037588 0.0023820435 8.2950173e-005 0.00025073579 7.4517709e-005 0.00017741893
-0.00012265169 4.238743e-005 -0.00015555354 -8.0652957e-005 0.0032293324 0.0038760027 0.99562854 -0.048122432
0.00011957978 6.8886693e-005 -0.00018178338 4.1965108e-005 0.99504715 -0.047871321 0.0035544988 0.0027226252
16243750 0.0036217186 0.0037643551 0.99293578 -0.077557117 7.4688032e-005 0.00012698924 -1.798166e-005 3.6947284e-005
0.99256009 -0.075676233 0.0041884803 0.0036259156 3.7882244e-005 8.2161692e-005 3.6484525e-005 -7.8160783e-006
-2.3223283e-005 -1.5423293e-005 -3.5369419e-005 0.00013048062 0.0036241901 0.0038005405 0.99314535 -0.077223629
-9.4506038e-005 -1.9983292e-005 3.6624344e-005 -2.0700507e-005 0.99271077 -0.076690383 0.0035768889 0.003953299
22487500 0.0042511695 0.0049903672 0.98958743 -0.1058948 -4.3860851e-005 -2.0739744e-005 7.4907184e-005 5.069609e-005
0.98950851 -0.10439039 0.0052848994 0.0049516736 -2.3917855e-005 2.1869857e-006 5.9060065e-005 -2.2916415e-006
2.1522315e-005 2.7654196e-005 -8.1714898e-005 -2.7095639e-005 0.0042659319 0.004977298 0.98936301 -0.10582148
8.1800732e-005 3.2157935e-005 -3.7370799e-005 5.0696995e-005 0.98944241 -0.10521825 0.0048623928 0.0046218517
28731250 0.0048866882 0.0057886885 0.98578548 -0.13397881 -1.7352701e-005 -4.8329333e-005 4.3494852e-005 -2.0693931e-005
0.98540014 -0.1327403 0.005477678 0.0058928258 3.7361062e-006 7.0540727e-007 -9.7742988e-005 1.0450256e-005
-1.9714213e-005 4.1598698e-005 -4.1672003e-005 -5.446268e-007 0.0048181773 0.0058387271 0.98567879 -0.13410975
-6.3182097e-007 -5.928403e-006 4.7425492e-005 -2.8949125e-006 0.98554331 -0.13367243 0.0052166642 0.0057618306
34975000 0.005738419 0.0068515441 0.98098397 -0.16212082 -1.093286e-005 -8.9139539e-006 3.3841516e-006 7.2546354e-005
0.9806971 -0.16113891 0.0059254924 0.0068072537 5.8865485e-006 1.717771e-005 -4.8841845e-005 2.8512002e-005
-4.0126444e-005 8.3262904e-007 -3.204621e-005 2.5569301e-005 0.0051880768 0.006717429 0.98081332 -0.16245212
9.2271675e-006 1.2911131e-005 -1.4899179e-005 -8.3362092e-006 0.98067641 -0.16198799 0.0060232216 0.0064329528
41218750 0.0065243114 0.007834347 0.975182 -0.18980725 -4.4615367e-006 7.8842377e-006 -1.5070511e-005 -2.6413378e-005
0.97513533 -0.18895435 0.0067883027 0.0075583728 3.1143336e-005 -1.3427314e-005 -8.3347048e-005 5.0684241e-005
5.7653092e-006 -2.7008356e-005 3.5446128e-006 -1.025921e-005 0.0058939136 0.0073947548 0.97508138 -0.19021088
-1.8428003e-005 1.0964142e-005 3.5940302e-005 1.0343652e-005 0.9750554 -0.1901888 0.0067311907 0.0071185315
47462500 0.0072313081 0.0086706532 0.96889806 -0.21763663 4.3355605e-005 1.6579444e-005 2.5987687e-005 -3.5276622e-005
0.96887803 -0.21684951 0.0074200858 0.0085303606 2.1354654e-005 4.4659122e-005 4.8633137e-007 -2.2380775e-005
5.5620476e-006 -1.6442729e-005 2.2550205e-006 6.4603637e-006 0.0067436956 0.0080983294 0.96878999 -0.21815643
-3.1216663e-005 6.6250282e-006 -1.862787e-005 -2.3047704e-005 0.96860963 -0.21792811 0.0072664381 0.0078374352
53706250 0.0076972032 0.0093270987 0.96208984 -0.24450472 -1.8800343e-005 -7.4588199e-005 3.9947769e-005 5.2900064e-005
0.96171767 -0.24352863 0.0081677241 0.0089751715 -0.00011413888 -8.9280446e-005 -2.703115e-005 1.0818317e-005
0.00010576515 -0.00013696517 -5.0221897e-005 -9.2668721e-005 0.0070430487 0.0090902997 0.961779 -0.24515343
4.9071379e-005 5.1797713e-005 1.150612e-005 5.1134608e-005 0.96196944 -0.24496007 0.0076752496 0.0086598508
59950000 0.0090761781 0.0097443918 0.9542042 -0.27142987 -1.3757361e-005 5.3190917e-005 -3.0448611e-005 -8.2211925e-005
0.95392424 -0.27073452 0.0084965797 0.009901681 -8.3387222e-006 -9.7967713e-006 2.313436e-005 -2.3163115e-005
2.929595e-007 -5.6655743e-005 -4.7410824e-005 1.6265742e-005 0.0076635014 0.0092631942 0.9539752 -0.27227634
4.1986856e-005 5.011047e-005 2.9672021e-005 5.4277798e-006 0.95384449 -0.27215376 0.008789992 0.0088689774
66193750 0.0087980796 0.010351682 0.94568104 -0.29832515 2.5169687e-005 -4.3398368e-006 2.3257055e-006 -4.3442509e-005
0.94529063 -0.2976529 0.0095938221 0.010301583 3.6013091e-005 5.8369296e-005 -2.6461637e-005 5.2691306e-005
-1.6182958e-005 -5.093768e-005 2.608469e-006 6.6631246e-006 0.0085908081 0.010059096 0.94534361 -0.2993744
-2.9477827e-005 -8.1032136e-005 5.3667813e-005 3.0582587e-006 0.94535506 -0.29906204 0.0090665752 0.0098892776
72437500 0.009917316 0.01065034 0.93641877 -0.32483006 -4.3456555e-005 4.1080733e-005 -4.6516805e-005 -2.6515365e-005
0.93579537 -0.32457551 0.010133175 0.010841816 6.1635998e-005 8.7814456e-005 -3.0217889e-005 -5.4351611e-005
-1.7167407e-005 -3.1365242e-005 6.5580534e-006 -2.2091945e-005 0.0090959892 0.010414278 0.93608505 -0.32621917
3.4469347e-005 -3.1473712e-005 -4.4460478e-005 8.3687028e-006 0.93584991 -0.326094 0.0099528236 0.010334615
78681250 0.010391713 0.011359327 0.92620772 -0.35112417 -1.0077118e-006 7.09496e-006 5.0034108e-005 -5.0598224e-005
0.92610413 -0.35086647 0.010678111 0.011293883 -7.0697424e-005 -2.2796752e-005 1.044986e-007 -2.1871554e-005
3.4778324e-005 -1.0474917e-005 2.7996537e-005 -3.5562609e-006 0.0099503305 0.010950407 0.92577827 -0.35264933
-9.9104491e-006 -1.9597186e-005 1.9557627e-005 9.689993e-006 0.92577016 -0.35250109 0.0105377 0.010693464
84925000 0.011373773 0.011974743 0.91576749 -0.37732565 2.272187e-005 3.9332393e-005 -2.8945055e-005 -3.4475725e-005
0.91510278 -0.37693241 0.01141462 0.011868557 -2.6104239e-005 4.0722694e-005 -3.7812551e-005 -1.6385531e-005
-2.8783144e-005 7.0829374e-006 1.0776559e-005 3.2764754e-005 0.010518349 0.011299009 0.91509384 -0.3787834
-2.0259754e-006 -2.8165385e-005 -4.4390672e-006 -1.690998e-005 0.91496485 -0.3786284 0.011464469 0.011234815
91168750 0.012358376 0.012351641 0.90422875 -0.4029634 4.4437038e-006 -3.052692e-005 2.0221276e-005 -2.4867692e-005
0.90365893 -0.40250298 0.012222359 0.012383236 4.6005611e-005 7.9050304e-005 2.5407811e-005 -1.4999983e-005
7.8258701e-005 -1.5095259e-006 -4.6911155e-005 -3.4442724e-005 0.011198492 0.011732359 0.90335989 -0.40449393
3.8249222e-005 -1.1434512e-005 -1.4548876e-005 -1.8527342e-005 0.90338653 -0.40426135 0.012318453 0.011348403
97412500 0.012914811 0.012764299 0.89223987 -0.42827705 4.3941327e-005 -5.2643441e-006 -1.3862075e-006 4.3922559e-005
0.8915062 -0.42786542 0.013265284 0.012892687 -9.75477e-006 9.4329289e-006 -2.82862e-005 4.0019924e-005
1.8808994e-005 1.7548607e-006 -9.7308794e-006 1.126753e-005 0.011983274 0.012116658 0.89126325 -0.42988759
3.9332452e-005 2.0618125e-005 4.4599157e-005 4.2155025e-006 0.89116722 -0.42973915 0.01303372 0.011864028
103656250 0.013965281 0.013141743 0.87935227 -0.45324495 1.3586202e-005 2.1604428e-005 -1.6058395e-005 4.9400519e-008
0.87851173 -0.45266861 0.014071194 0.012959199 2.1373406e-005 -2.1840976e-006 1.3391213e-005 1.414082e-006
-1.559177e-005 7.4833101e-006 -1.3463918e-005 3.012892e-006 0.012774377 0.012503621 0.87827462 -0.45495015
-6.3169937e-006 -1.9807727e-005 -8.5821994e-006 2.0164234e-006 0.87798285 -0.45470083 0.013702311 0.012106785
109900000 0.014856971 0.01331278 0.86590302 -0.47775495 4.4315157e-006 -5.7406528e-006 2.6467283e-006 -1.0332573e-005
0.86501014 -0.47711235 0.014827487 0.013431757 -2.847446e-005 -1.5676836e-005 2.1729851e-005 -1.4804563e-005
-1.8279286e-005 -4.3414402e-005 4.5487336e-006 -6.0894274e-007 0.01352519 0.01270495 0.8647939 -0.47943357
7.0888045e-006 -1.6687078e-005 1.8823735e-006 -6.296696e-006 0.86434615 -0.47929075 0.01443547 0.012433821
116143750 0.015742706 0.013930264 0.85164899 -0.5020749 -4.6328823e-006 5.9639675e-005 2.1794913e-006 -1.1953448e-005
0.85080832 -0.50119138 0.015679058 0.013520471 8.4290338e-007 4.8288799e-005 -1.4497724e-005 3.9684033e-005
7.2192411e-006 -2.315749e-005 5.3626667e-007 -4.1114527e-005 0.014179649 0.013165462 0.85041589 -0.5037272
-5.3888476e-007 2.1573194e-005 -7.6391289e-006 -1.0417057e-005 0.8502897 -0.50358862 0.015254838 0.012580846
122387500 0.016458483 0.013884298 0.83684933 -0.52568501 -2.1893402e-005 -2.5628522e-005 1.0675662e-005 -3.6672209e-006
0.83590621 -0.52492017 0.016462455 0.013776042 -4.0541531e-006 -8.9111727e-006 -2.9631972e-005 5.7327097e-006
-7.5400299e-006 -1.2897242e-005 -7.2850821e-006 -7.588234e-006 0.015077607 0.013539243 0.83551854 -0.52750206
-7.8443566e-007 2.3778045e-007 1.7390215e-005 -1.8012937e-005 0.83525985 -0.52734089 0.016032854 0.01261267
128631250 0.017288156 0.014293826 0.82125825 -0.54900885 6.1160954e-006 -5.7628235e-006 4.7416379e-006 -8.8096367e-006
0.82060951 -0.5483036 0.017381024 0.013891692 -2.2144637e-005 2.4222041e-005 5.2507444e-006 -1.1597632e-005
2.2591505e-005 1.1218914e-005 -3.1249303e-005 1.9015008e-005 0.015717242 0.013683891 0.81997615 -0.55096149
-7.8421872e-006 -1.6179478e-005 -5.2381902e-006 1.5762552e-006 0.81976074 -0.55058086 0.017064836 0.012847985
134875000 0.017948622 0.014425945 0.80512327 -0.57179219 -6.5078398e-006 -1.1338514e-005 -1.1151922e-005 -7.582847e-006
0.80447185 -0.57118702 0.018298395 0.013952754 2.2867616e-005 9.8904875e-006 -2.5030035e-005 1.6943084e-005
1.0849836e-005 -1.2716742e-005 -3.2890857e-005 4.4957751e-006 0.016431043 0.013801511 0.80367565 -0.5737915
-1.3028036e-006 -8.2128454e-006 1.4755016e-006 7.5233406e-006 0.80353552 -0.57355154 0.017889936 0.012924037
141118750 0.018794475 0.014555231 0.78836334 -0.59420913 5.3643498e-006 -1.848114e-005 -1.0588494e-005 -9.2777691e-006
0.78776509 -0.59345019 0.019360058 0.01398554 1.0170791e-005 -9.4235475e-006 1.7508079e-005 1.4958604e-005
-8.9042696e-006 -3.0825638e-006 2.1053806e-005 -2.1896935e-006 0.017246541 0.013835446 0.78667235 -0.5961352
-6.9523753e-006 -1.1416083e-005 5.0834128e-006 -5.1535917e-006 0.78653276 -0.59585625 0.018856846 0.012885257
147362500 0.019566836 0.014479989 0.77097028 -0.61585391 -3.4622428e-007 -7.0185752e-006 1.7974348e-007 7.7117775e-006
0.77042955 -0.61525959 0.020249469 0.014226918 2.239626e-005 1.9912306e-005 1.0967525e-005 7.6512815e-006
1.2994909e-006 4.7911108e-006 -7.3586548e-006 -1.0008445e-005 0.01803321 0.014008609 0.7692247 -0.61792815
-7.0592172e-008 1.3823134e-006 6.9734424e-006 -2.3753697e-005 0.76909471 -0.61773008 0.019651966 0.012792123
153606250 0.020400746 0.014487911 0.753142 -0.63718057 7.0754531e-006 -1.2784709e-005 6.8507325e-006 3.3572733e-006
0.75256997 -0.63664299 0.02111687 0.014228518 -3.0345277e-007 -3.34467e-005 4.6309901e-006 -1.3670508e-005
-1.3123864e-006 -6.9101043e-006 2.5219835e-005 -8.7592762e-006 0.018846592 0.014042092 0.75109786 -0.63926637
-4.9822579e-006 -1.0359992e-005 -6.2116524e-006 -1.0240478e-005 0.75099444 -0.63910657 0.020441009 0.012766053
159850000 0.021290246 0.014511711 0.73453307 -0.65798324 -1.2217909e-007 3.3492157e-005 5.0113904e-006 4.4839039e-006
0.73395002 -0.65738064 0.022180665 0.014047414 -1.8012484e-005 -1.2887613e-005 1.9666762e-005 -8.3423956e-006
1.9863664e-005 -2.7732469e-007 4.3482241e-006 6.0527345e-006 0.019672053 0.014103897 0.73243237 -0.66017443
7.749054e-006 4.7115421e-007 6.2448794e-006 1.0606959e-005 0.73230439 -0.65990365 0.021243809 0.012649387
166093750 0.022137459 0.014454133 0.71538144 -0.67821032 -2.1083861e-005 2.7201004e-005 4.5517677e-006 9.1981537e-006
0.71504432 -0.67769617 0.023062389 0.013914661 -6.3937596e-006 6.1995752e-006 -9.5565665e-006 1.3570589e-005
-3.0482836e-006 -4.31441e-006 -1.3636232e-007 7.1845824e-007 0.02054316 0.014101133 0.71317703 -0.68045622
-3.9442398e-006 1.531586e-005 -4.636091e-006 3.5395494e-006 0.71304572 -0.68023407 0.022083364 0.012417438
172337500 0.023065491 0.014378569 0.69566804 -0.69790971 -2.7629727e-007 3.3066823e-005 -1.2182601e-005 -1.2166767e-005
0.69536722 -0.69746363 0.024055844 0.013620687 -1.788529e-005 -2.314051e-006 -1.1951248e-005 -5.3135109e-006
-1.8783683e-006 -6.4519263e-006 5.3567201e-006 -4.9717215e-007 0.021275871 0.01397778 0.69337523 -0.70012397
-1.3970712e-005 6.8121622e-006 8.9839943e-007 6.8905351e-006 0.69330138 -0.7000528 0.022947336 0.012070113
178581250 0.024007749 0.014111069 0.67550421 -0.71719682 1.0139336e-005 1.4654586e-005 4.45891e-007 2.1874559e-005
0.67505908 -0.71649641 0.024943501 0.013462221 2.8879142e-005 6.2003087e-006 -2.2540621e-006 -1.7138824e-005
-4.1868658e-005 -5.0583395e-007 -1.2638849e-006 -1.6024451e-005 0.022154981 0.013952826 0.67300743 -0.71932292
-2.441468e-006 -2.6320871e-005 -2.1057207e-005 -1.7066028e-005 0.67312598 -0.71919698 0.02358423 0.01180797
184825000 0.024707545 0.013934201 0.65485996 -0.73564965 -1.7387187e-005 -5.3442413e-006 -4.8432817e-006 3.0634965e-005
0.65435243 -0.73515654 0.025652518 0.012999913 -2.2423269e-006 7.0532682e-005 5.9776219e-005 -1.9071539e-006
1.4686411e-005 -3.1297288e-005 -1.1198412e-005 2.5558635e-005 0.022757515 0.013693308 0.6521768 -0.73795265
-9.0763579e-006 -3.9557117e-006 6.0701332e-006 1.338226e-005 0.652255 -0.73789454 0.024583299 0.011504648
191068750 0.025700534 0.013432357 0.63361853 -0.75373745 -3.4159602e-006 1.3043867e-005 -7.8520507e-006 2.5633064e-005
0.63344395 -0.75319386 0.026410563 0.01280761 -5.2807893e-005 -1.5625656e-005 1.1294506e-005 -1.4050134e-006
-4.4806078e-005 1.9508703e-005 -8.0063046e-006 -1.3446454e-005 0.023429601 0.013384229 0.63086593 -0.75595903
-1.0348409e-005 4.3886203e-006 -1.9520243e-005 -2.0008134e-005 0.63075471 -0.75585693 0.025326069 0.011028467
197312500 0.026392607 0.013203785 0.61194736 -0.77114093 2.4239976e-005 -4.3361442e-006 2.2169355e-005 2.6831725e-005
0.61157829 -0.7704156 0.027431905 0.012668572 8.4901749e-006 -7.4293557e-006 3.4843774e-006 1.2505648e-005
1.5295704e-005 1.4353338e-005 -7.3158471e-006 9.1005541e-006 0.024289953 0.013064501 0.60888386 -0.77341425
1.1072534e-005 -7.5316002e-006 -1.4153315e-005 2.2860611e-005 0.60893482 -0.77311838 0.026130987 0.010766683
203556250 0.027226785 0.012923438 0.58983248 -0.78779817 -3.6995432e-005 -3.9048497e-005 1.2463031e-005 7.0555993e-006
0.58921146 -0.7870025 0.028257005 0.012070855 1.7362518e-005 2.8383886e-006 5.0219996e-006 -1.278807e-006
6.4819005e-006 4.0002786e-005 -1.8656521e-005 2.0668895e-005 0.024881989 0.012828183 0.58651882 -0.78973436
3.3126544e-005 -3.2376784e-006 2.0973215e-005 3.8577255e-005 0.58657449 -0.78996134 0.02696182 0.010103673
209800000 0.028047867 0.012437684 0.56703269 -0.80372274 2.3535388e-006 7.892867e-006 3.5465608e-005 -2.9142915e-005
0.56667989 -0.80318445 0.028973145 0.011391406 -1.8937764e-005 -2.5385596e-005 1.0665222e-005 -1.2723116e-005
-2.6469197e-005 1.7479477e-005 2.8798247e-006 -2.4032997e-006 0.025872964 0.01244683 0.56374717 -0.80599332
-6.9547386e-006 1.2638434e-005 3.1539734e-005 9.8886549e-006 0.56379306 -0.80595076 0.027766714 0.0097914655
216043750 0.028949205 0.012107917 0.54399741 -0.81902009 -5.3557505e-005 -1.288674e-005 2.3995446e-007 2.0325997e-005
0.54365575 -0.81871426 0.029710216 0.011051865 -1.3631981e-005 4.6001564e-006 2.1681793e-005 6.0229809e-006
1.5385624e-005 2.621171e-005 3.1551801e-005 -5.2568489e-006 0.026488231 0.012082205 0.54059565 -0.82137883
-1.9937243e-005 3.348375e-005 -1.5948726e-005 6.5870458e-006 0.54055661 -0.82126582 0.02827318 0.0093103163
222287500 0.029643869 0.011593265 0.52047414 -0.83383727 2.5218835e-006 2.2900935e-005 -2.9735609e-005 -1.5896401e-007
0.52027959 -0.83342075 0.030575257 0.010347638 1.156752e-005 1.4872135e-005 -3.3877033e-005 1.081448e-005
2.6847063e-005 -1.7227767e-005 -2.1707936e-005 -1.3128829e-005 0.027224489 0.011754663 0.51700944 -0.83615977
4.5654768e-005 1.1967118e-006 -1.1329403e-005 1.6180677e-005 0.51688737 -0.83610535 0.02885559 0.0087587768
228531250 0.030505471 0.011151608 0.49661753 -0.84786499 2.4243052e-005 1.5739639e-005 -7.6254446e-007 2.1286067e-005
0.49648184 -0.84754807 0.031312689 0.010016698 -3.0890373e-005 5.3554126e-005 -1.1927272e-005 9.63604e-006
4.3482389e-005 -2.5671425e-005 -2.5134319e-005 -3.9092415e-006 0.027761964 0.011217004 0.49294963 -0.85030007
3.099424e-006 -1.1549405e-005 -1.0375383e-005 -8.4780168e-006 0.4927955 -0.84991968 0.029542672 0.0080629475
234775000 0.031299923 0.010641615 0.47233289 -0.8612752 -2.6254314e-005 9.9395293e-006 -2.9284274e-005 -3.3486009e-005
0.47220117 -0.86087203 0.031879656 0.0093150744 2.2695245e-005 1.903259e-005 -9.3216677e-006 -5.158739e-006
-5.1249259e-005 2.7490923e-006 -8.449545e-006 -2.041918e-005 0.028339995 0.01062925 0.46842894 -0.86342776
-2.3778937e-005 6.7560209e-006 2.3141929e-005 -1.5691309e-006 0.46836877 -0.86331761 0.030193936 0.007406896
241018750 0.031997625 0.009934023 0.44773844 -0.87398338 -1.948956e-005 -1.9236564e-005 1.4094931e-005 -8.2638162e-006
0.44755957 -0.87347776 0.032706264 0.0086915633 1.9106652e-005 -1.9570796e-005 2.7352926e-006 -9.8448263e-006
1.8621698e-005 -2.9237174e-006 1.2768671e-005 -1.2970509e-005 0.029162828 0.010151249 0.44378215 -0.87626886
-2.6045907e-005 2.4515308e-005 1.1014024e-005 -1.3873439e-005 0.44368914 -0.87613469 0.030707991 0.0068201469
247262500 0.032695677 0.0094346981 0.42272827 -0.88584584 6.753703e-006 1.1941209e-005 4.7269063e-005 -4.9779617e-005
0.42268163 -0.88564914 0.033322297 0.0079371668 2.5906016e-005 -6.6035382e-006 -2.5669169e-005 3.0891268e-005
1.234363e-006 -2.7053204e-005 -1.1996356e-005 6.4779351e-006 0.029721959 0.0095414603 0.4186236 -0.88809162
1.5965845e-005 -1.3105865e-006 -1.4698065e-005 6.0238012e-006 0.41863215 -0.88793159 0.031215528 0.0059956638
253506250 0.033745766 0.0087621342 0.39759409 -0.89732331 -4.8406655e-005 -7.1610215e-005 -2.8241519e-005 -3.0417492e-005
0.39711776 -0.89651489 0.034108285 0.0072631524 -9.1669113e-005 2.2801958e-006 2.0903422e-005 -2.3100883e-005
-2.0359197e-005 9.5269781e-005 1.4225037e-005 -1.3805746e-005 0.030158456 0.0089841681 0.39319462 -0.89946163
-2.7683118e-005 3.6022415e-005 1.7147147e-005 -1.7564002e-005 0.39305976 -0.89915204 0.031954475 0.0053215451
259750000 0.034219291 0.0077532809 0.37214011 -0.90813112 -3.9052145e-005 -5.3497806e-006 2.8314267e-005 9.2432929e-006
0.37175369 -0.90685081 0.034906868 0.0067228223 1.4538872e-005 -4.3401458e-005 -1.2625836e-005 -1.3071165e-005
-7.2679031e-005 3.3493976e-005 1.6429964e-005 -0.0001007115 0.030822201 0.0083122645 0.36739475 -0.9098835
1.5849579e-005 -2.303331e-005 -3.2021788e-005 -1.7802387e-005 0.36743113 -0.90986741 0.032374706 0.004593581
265993750 0.034655083 0.0070722033 0.34637511 -0.91800451 -2.3768845e-005 -1.0103493e-005 7.3581577e-005 1.7132024e-005
0.34580272 -0.91671187 0.035008349 0.005674656 4.7788792e-005 2.034019e-006 9.8286764e-006 5.5080386e-006
2.1841688e-005 2.9821784e-005 -3.3516557e-005 3.7544187e-006 0.031369705 0.0077429195 0.34152848 -0.91955441
-1.2272597e-005 1.8033437e-006 -3.8655158e-005 -2.8304234e-005 0.34150064 -0.91950959 0.032805644 0.0037617686
272237500 0.035225537 0.0060461811 0.32013842 -0.9270885 2.9200619e-005 1.3922563e-005 7.2619718e-005 3.7903399e-005
0.31984603 -0.92593825 0.03578816 0.005315986 -6.1185237e-005 3.8322924e-006 6.2034975e-005 3.6438578e-005
1.4439098e-005 4.274847e-005 -5.1884981e-005 2.2994747e-005 0.031872176 0.0070985933 0.31522572 -0.92858839
-3.2212299e-006 1.8358866e-006 2.9346989e-005 -4.3758005e-006 0.31493771 -0.92843294 0.033177126 0.0027969903
278481250 0.035906792 0.0055882321 0.2938408 -0.93564987 -3.08157e-005 -8.4949925e-006 -8.2790975e-006 -5.4744756e-005
0.29355186 -0.9344008 0.036378238 0.0044086375 5.2113245e-007 -1.3190638e-005 3.6959686e-005 -1.110793e-005
7.7681019e-005 -1.5315927e-005 1.6354299e-005 -3.4107983e-005 0.032331977 0.0061010872 0.28870082 -0.93690515
4.7099697e-005 -1.7612132e-005 3.4311528e-005 -5.6146611e-005 0.28861558 -0.93669569 0.033573754 0.0020600313
284725000 0.036346633 0.0045294017 0.26741999 -0.94331992 6.7762834e-005 2.0324058e-005 -2.9378873e-005 -1.6920667e-005
0.2671192 -0.94203931 0.03666158 0.0035192291 4.5305773e-005 -2.6815416e-005 -3.5573539e-005 7.7306072e-007
3.7868613e-005 -3.8095068e-006 2.1788099e-005 -7.7341858e-005 0.033105962 0.0056956443 0.26197034 -0.9445678
