!Agilent Technologies,N5224A,MY51441544,A.10.00.00
!Agilent N5224A: A.10.00.00
!Date: Friday, June 26, 2015 18:47:26
!Correction: S11(Full 4 Port(1,2,3,4)) 
!S12(Full 4 Port(1,2,3,4)) 
!S13(Full 4 Port(1,2,3,4)) 
!S14(Full 4 Port(1,2,3,4)) 
!S21(Full 4 Port(1,2,3,4)) 
!S22(Full 4 Port(1,2,3,4)) 
!S23(Full 4 Port(1,2,3,4)) 
!S24(Full 4 Port(1,2,3,4)) 
!S31(Full 4 Port(1,2,3,4)) 
!S32(Full 4 Port(1,2,3,4)) 
!S33(Full 4 Port(1,2,3,4)) 
!S34(Full 4 Port(1,2,3,4)) 
!S41(Full 4 Port(1,2,3,4)) 
!S42(Full 4 Port(1,2,3,4)) 
!S43(Full 4 Port(1,2,3,4)) 
!S44(Full 4 Port(1,2,3,4)) 
!S4P File: Measurements: <S11,S12,S13,S14>,
!<S21,S22,S23,S24>,
!<S31,S32,S33,S34>,
!<S41,S42,S43,S44>:
# Hz S  RI   R 50
10000000 0.033502262 0.043640118 -0.00026564396 -0.00038410624 0.0091422582 0.018714083 -0.00054812833 -0.00084146147
-0.00032226567 -0.00028778333 0.020246711 0.05770126 -0.00072907587 -0.00054078794 0.0085436637 0.017333597
0.0088771489 0.018687425 -0.00043470867 -0.00036941303 0.03032098 0.047554344 -0.00050148886 -0.00082888699
-0.00053903804 -0.00045849537 0.0087379795 0.017438136 -0.00047888738 -0.00053836574 0.038796976 0.039876711
16243750 0.045020945 0.034604363 -0.00088736555 -0.00066361338 0.017259341 0.027142132 -0.00086259795 -0.0007528002
-0.0008774937 -0.00059384655 0.03795886 0.051031742 -0.00096374075 -0.00075592566 0.015688641 0.024851616
0.016924683 0.02690048 -0.00097139529 -0.00046693065 0.043503247 0.039692529 -0.00091823726 -0.0006923129
-0.00077685062 -0.00076290936 0.015752157 0.02488572 -0.00073810987 -0.00061477534 0.048025064 0.029041393
22487500 0.04838464 0.033026602 -0.0010388092 -0.00068083598 0.026142213 0.032352056 -0.00089878537 -0.00063598831
-0.00087987812 -0.00064406911 0.04928587 0.049718663 -0.00085391465 -0.00069253991 0.024355745 0.029948834
0.026133439 0.032321516 -0.00081682694 -0.00063156232 0.049393278 0.038339645 -0.00067166844 -0.00064488401
-0.00084770925 -0.00073365885 0.024412863 0.029801473 -0.00095526793 -0.00078300922 0.049101356 0.027182885
28731250 0.054506611 0.024855338 -0.0012447628 -0.00070476928 0.036832344 0.035162728 -0.0014652944 -0.00055975205
-0.0012330626 -0.00067674677 0.062089548 0.037966549 -0.0012797297 -0.0007042237 0.033634894 0.032597914
0.036670998 0.03528665 -0.0012228045 -0.00064279645 0.057607118 0.029975338 -0.0012195832 -0.00072389899
-0.0014489774 -0.00070245075 0.033754237 0.032498285 -0.00139021 -0.00075996801 0.052239664 0.019869633
34975000 0.058083512 0.014911993 -0.0014813569 -0.00061587151 0.047541648 0.034933206 -0.0016424942 -0.00071043492
-0.0015389003 -0.00065634231 0.070104927 0.021639192 -0.0015209414 -0.00060549914 0.0433929 0.032692682
0.047445849 0.034925967 -0.0014721232 -0.0005920952 0.063154206 0.018657006 -0.0015606529 -0.00071242388
-0.0016927992 -0.0006365705 0.043293852 0.032538265 -0.0015995391 -0.00075045129 0.053237155 0.012010464
41218750 0.05806607 0.0050918013 -0.0017804008 -0.00062289392 0.058080621 0.031723306 -0.0020162463 -0.00051452371
-0.0017806718 -0.00049675594 0.070854962 0.0038489911 -0.0016454242 -0.00047893665 0.052759886 0.03000444
0.057868052 0.031726632 -0.0017526139 -0.00048875704 0.064610869 0.0068062632 -0.0019232891 -0.00052349194
-0.001901451 -0.00061716873 0.052632265 0.02996265 -0.0019318756 -0.00057455868 0.05155142 0.0045278855
47462500 0.056222688 -0.0052285399 -0.0020748496 -0.00036183969 0.067305252 0.025651008 -0.0022616643 -0.00027555035
-0.0020111906 -0.00032820131 0.0656505 -0.014544691 -0.0020418067 -0.00028429271 0.060984019 0.024994435
0.067084253 0.025692049 -0.0020412558 -0.00024468853 0.06330777 -0.0059745186 -0.0022547611 -0.00036391671
-0.0022105693 -0.00027801574 0.061015639 0.024937892 -0.0022144837 -0.000434018 0.048735853 -0.0031722831
53706250 0.052682936 -0.014784327 -0.0023488139 -0.00016282298 0.074779771 0.017280689 -0.0024924278 -3.4381934e-005
-0.0024008902 -0.00012942003 0.05480184 -0.029647997 -0.0023806382 8.2083461e-005 0.067801155 0.018089367
0.074461192 0.017427338 -0.0022377905 3.5506549e-005 0.059213743 -0.017723966 -0.002513041 -5.9599686e-005
-0.0025473449 -6.2575782e-005 0.067701928 0.018047769 -0.0025920365 -9.4646748e-005 0.045180216 -0.0099723432
59950000 0.047994651 -0.023782687 -0.0026220111 0.00058497355 0.07951168 0.0060897605 -0.0026507974 0.00082028314
-0.0025144559 0.00069081131 0.040165145 -0.039839715 -0.0025418887 0.00073075213 0.072484247 0.0094911847
0.079152055 0.006273428 -0.0025643979 0.0006649071 0.05333868 -0.028332122 -0.0026550868 0.00074095977
-0.002595945 0.0010002165 0.07248643 0.0093548866 -0.0027470335 0.00082793616 0.041089434 -0.015992647
66193750 0.042239379 -0.027507562 -0.0025541838 0.00020171603 0.081211872 -0.0030542512 -0.0025822835 0.00034323998
-0.0025498706 0.00022630791 0.024156887 -0.0432662 -0.0023875311 0.0002627449 0.074775502 0.00018952417
0.080970593 -0.0029437779 -0.0024148063 0.00022839688 0.046354149 -0.033835243 -0.002656481 0.00013688421
-0.0026353765 0.00025304794 0.074518301 0.00041986446 -0.0026373283 0.00018012729 0.037050407 -0.020043407
72437500 0.037512809 -0.030615324 -0.0028679827 0.0006326905 0.080738418 -0.014423579 -0.0029618056 0.00073723972
-0.0028957156 0.00068506657 0.010026743 -0.040699873 -0.0027541253 0.00063896028 0.074535467 -0.0093645239
0.080527611 -0.014299414 -0.0028149749 0.00060811295 0.040435299 -0.038200751 -0.0030357924 0.00061104138
-0.0029687725 0.00064683222 0.074428231 -0.0094445664 -0.0030148791 0.00063479453 0.033467863 -0.023358675
78681250 0.033179209 -0.031545103 -0.0030731834 0.0011240428 0.077096932 -0.025218777 -0.0031768121 0.00120722
-0.0031651894 0.0010715169 -0.0009968821 -0.032254618 -0.0028322008 0.0010604456 0.071850695 -0.018801741
0.076884866 -0.02517717 -0.002937085 0.0010395999 0.035116144 -0.03982497 -0.0032364426 0.0010796847
-0.0030548654 0.0011520728 0.071836859 -0.018708611 -0.0031604399 0.001112798 0.030600572 -0.025220701
84925000 0.029156329 -0.030351916 -0.0033004615 0.0016269514 0.070679449 -0.034903448 -0.0032673774 0.0016715159
-0.0031974327 0.0015648664 -0.0070002889 -0.019940326 -0.0031406337 0.0015939596 0.066823371 -0.027104262
0.07054688 -0.034694791 -0.0030728318 0.0015848972 0.031074656 -0.0393655 -0.0033019211 0.0016802307
-0.003222208 0.001683897 0.066756815 -0.027101925 -0.0033265965 0.0016321715 0.02794821 -0.026226116
91168750 0.025608245 -0.027448321 -0.0033976706 0.0022571278 0.0618467 -0.042421646 -0.0033707258 0.0023368597
-0.0032843307 0.0022806127 -0.0074629439 -0.0060705943 -0.0030464225 0.002215079 0.059718832 -0.033834808
0.061775014 -0.042188 -0.0031110849 0.0021835398 0.028081467 -0.037252046 -0.0034807681 0.002221558
-0.0033363854 0.0022560949 0.059571225 -0.033809852 -0.0033628028 0.0022120143 0.025520831 -0.026081545
97412500 0.022581888 -0.022947889 -0.0033240512 0.0029143337 0.051214952 -0.047392298 -0.0033724599 0.002986056
-0.0032589424 0.0029464825 -0.0026741135 0.0071455906 -0.0030879271 0.002848794 0.05100394 -0.038370565
0.051117156 -0.047243237 -0.0031151068 0.0028701848 0.026115961 -0.034189854 -0.0034590457 0.0029186727
-0.0032961844 0.0030538784 0.050860353 -0.038344126 -0.0034086551 0.0029237121 0.023288606 -0.024895042
103656250 0.019639635 -0.017288582 -0.0031507127 0.0037531604 0.039470527 -0.049244642 -0.0032890136 0.0038927672
-0.003215618 0.0038013388 0.0057960916 0.017662629 -0.0030586845 0.0035959184 0.041165076 -0.040365145
0.039419305 -0.049090602 -0.0029509156 0.0036243366 0.02449269 -0.030347213 -0.0034294373 0.0037480181
-0.0032616858 0.0038489387 0.041064143 -0.040299557 -0.0033862484 0.0037797361 0.020959398 -0.022666952
109900000 0.016886888 -0.010794065 -0.0028393331 0.0048739319 0.027486604 -0.047770139 -0.0029613767 0.0050855735
-0.0028675755 0.0049120723 0.016074568 0.02399086 -0.0026801184 0.0045744758 0.031134201 -0.039300799
0.0274595 -0.047521599 -0.0027058476 0.0045879711 0.022816062 -0.026115725 -0.0031775674 0.0048986627
-0.0029617075 0.0050564799 0.03108564 -0.039233651 -0.0031042534 0.0048775766 0.018532151 -0.019388191
116143750 0.014597615 -0.0037261273 -0.0020999212 0.0063331984 0.016637513 -0.042569928 -0.0021564336 0.0066230777
-0.0020481921 0.0062940316 0.026407905 0.026104666 -0.0020377929 0.0059063309 0.02167831 -0.034804452
0.016661225 -0.042475816 -0.0020351894 0.0058905929 0.02111364 -0.021585038 -0.0024537405 0.0063818982
-0.0021645431 0.0065938029 0.0216385 -0.034858681 -0.002452174 0.0063965409 0.016204666 -0.014911224
122387500 0.015334681 0.0022020752 0.0019329805 0.0071677063 0.0099424683 -0.035428055 0.0023006832 0.0077039138
0.0019660702 0.0071349842 0.037714694 0.024160445 0.0015278113 0.0069076233 0.016971644 -0.027561394
0.0099187661 -0.035316553 0.0015042451 0.0069104452 0.021074966 -0.017442351 0.0014760845 0.0076457025
0.0022378415 0.0076228874 0.016901905 -0.027494323 0.0014422509 0.0076587372 0.017794456 -0.0098596876
128631250 0.0095561929 0.0064254375 0.00015247089 0.0054464219 -0.00055784616 -0.027467247 0.00038280364 0.0056180479
0.00017154115 0.0054761944 0.041041959 0.015790518 0.0002482369 0.0052274442 0.0093628308 -0.02157582
-0.00048774306 -0.02736504 0.00024989882 0.0052271709 0.015370796 -0.014909253 0.00017099638 0.0058786101
0.00048307097 0.0056135128 0.0092797857 -0.021577414 0.0001959267 0.0057979943 0.014427549 -0.0086663803
134875000 0.010200365 0.014412051 0.0043891408 0.0074206432 -0.0033273629 -0.013592901 0.0049551511 0.0075857113
0.004403857 0.0074514239 0.046999887 0.0088943513 0.0040361509 0.0069899852 0.011110552 -0.010970618
-0.0032861186 -0.01366393 0.0040099514 0.0070280521 0.013458647 -0.0082613165 0.004310403 0.007598497
0.0049894704 0.0075324387 0.011059596 -0.010940564 0.0042876215 0.0075818608 0.018889058 -0.004616227
141118750 0.0099675944 0.015746569 0.0041444837 0.0018133365 -0.0046166005 -0.0040892488 0.0044558416 0.0015120023
0.0041356683 0.0018694984 0.041499332 -0.0065070614 0.0038272096 0.0019064173 0.0069610449 -0.008493307
-0.0046493839 -0.004101417 0.0038782146 0.0019139455 0.010520742 -0.006017596 0.0039597396 0.0021210057
0.0044655842 0.0015510626 0.006968766 -0.0084770527 0.0039614574 0.0021833102 0.014457315 -0.010528192
147362500 0.0099602779 0.020595042 0.0019461027 0.0025099928 -0.0037316459 0.0096607134 0.0019686013 0.0023106257
0.0018879662 0.0025928719 0.031929135 -0.010806872 0.0018473492 0.0025589524 0.0044525354 0.0038367806
-0.0037149943 0.0096542528 0.0018157166 0.0026005269 0.0076299063 0.00018324333 0.0017892818 0.0029324079
0.0019625244 0.0023174607 0.0044018305 0.0038500247 0.0018156784 0.0029178287 0.0096082399 -0.0066368622
153606250 0.014261134 0.023582561 0.0024737092 0.0028776703 0.002686732 0.022035018 0.0025092496 0.0028088747
0.0024315373 0.0028774005 0.026293837 -0.012247151 0.002372632 0.0027636716 0.0097035635 0.015657175
0.002685966 0.021980617 0.0023555763 0.0027857949 0.0084521761 0.0055844514 0.0024014364 0.0033273019
0.0025381201 0.0028093201 0.0097194547 0.015666194 0.0024115974 0.0032944414 0.010821456 -0.0034177939
159850000 0.021367759 0.024546297 0.0027338385 0.0023147289 0.013039863 0.032285832 0.0028256313 0.0021805584
0.0026931986 0.0022955725 0.023357052 -0.013305898 0.0023667649 0.0022659476 0.019480266 0.022808408
0.012975852 0.032209575 0.0023279835 0.0022755582 0.012332005 0.0098698614 0.0025663245 0.002713135
0.002787502 0.0021540327 0.019456346 0.022726646 0.0025393353 0.0027634532 0.015010477 -0.0046764328
166093750 0.031797286 0.021662941 0.0014868893 0.002624376 0.027227579 0.037881557 0.001447492 0.0025048186
0.0014874728 0.0026113668 0.015282014 -0.011125132 0.0015491766 0.0029009117 0.022442751 0.028512562
0.027137997 0.037777558 0.0015744778 0.002870461 0.020033214 0.010596473 0.0017374188 0.0033811606
0.0014300313 0.0024667932 0.022433868 0.028498512 0.001770988 0.0033840435 0.010108413 -0.0058895433
172337500 0.040894743 0.01122619 0.0020625901 0.0035874308 0.040326077 0.034672502 0.0020528461 0.0036279529
0.0020402586 0.0035859421 0.020107033 -0.00408269 0.0021689055 0.003603243 0.036446732 0.035351422
0.040206496 0.034642678 0.0021793614 0.0035736405 0.026957586 0.003829865 0.0024732172 0.0042164358
0.0020241179 0.0036511749 0.036439784 0.035271615 0.0024534713 0.0042360979 0.01643583 -0.0037012075
178581250 0.04107571 0.0013639377 0.001030541 0.0023259625 0.044627141 0.030511174 0.0011726773 0.0023485657
0.0010063916 0.0023258866 0.028534483 9.3122479e-005 0.001100434 0.0022943183 0.050402254 0.03643696
0.04457185 0.030538095 0.0010858552 0.0021877643 0.026029319 -0.002658962 0.0016911055 0.0027808575
0.0010202429 0.0022589492 0.050317418 0.036263544 0.0016430703 0.0027373286 0.022258922 -0.0051585073
184825000 0.043918841 0.0025402869 0.00066415541 0.0066179875 0.051636524 0.035088386 0.00085946795 0.0064501711
0.00068095891 0.0066934954 0.041811753 -0.0022723177 0.00066375593 0.0064461739 0.065689929 0.029578658
0.051621653 0.035123874 0.0006332348 0.0063824281 0.028818877 5.0817718e-005 0.0012473986 0.0067145196
0.00076000963 0.0064496333 0.065622054 0.02940058 0.0012769758 0.0066873133 0.030205179 -0.011526305
191068750 0.051278986 -0.00017301158 0.0057012686 0.0091540096 0.062436212 0.033462472 0.005554955 0.008973605
0.0057182838 0.0091570066 0.04494635 -0.0079809744 0.0057035084 0.009156093 0.067465559 0.018940218
0.062411334 0.033446979 0.0057274718 0.0091554895 0.035369292 -0.0027887304 0.0059300582 0.0094293915
0.0055279289 0.0089662317 0.067268267 0.018988153 0.0059575364 0.0093119834 0.025552372 -0.019144386
197312500 0.05961851 -0.0039377362 0.0097364914 0.0063499752 0.073943794 0.028658744 0.0096000805 0.0064232848
0.0097063761 0.0063555525 0.056921024 -0.0057435287 0.0097921351 0.0061169993 0.075935557 0.017890854
0.073767632 0.028653346 0.0097864391 0.0062368084 0.042798303 -0.0072219982 0.010130634 0.0065419711
0.009440341 0.0064769601 0.075739935 0.017748054 0.01015049 0.0066029192 0.028901514 -0.014765907
203556250 0.065038897 -0.01081704 0.012015799 0.0038126595 0.081943482 0.018725013 0.011993014 0.0039877584
0.012037692 0.003844125 0.068637699 -0.01401455 0.011994484 0.0036252639 0.08372613 0.0077632274
0.081759937 0.018721992 0.011876042 0.0036537733 0.047030434 -0.01565191 0.012474761 0.0041584675
0.011900141 0.0040285978 0.083557419 0.0077816243 0.012511995 0.0041368464 0.033486541 -0.016802656
209800000 0.063845605 -0.014391531 0.013877293 0.00034836098 0.083398916 0.01019574 0.013673817 0.00072603644
0.013787813 0.00036627322 0.075981349 -0.024457507 0.013783396 0.00011368661 0.088284031 -0.0028116333
0.083164647 0.010205088 0.013781902 8.7561755e-005 0.044702187 -0.020989059 0.014421809 0.00068407471
0.013767331 0.00076254603 0.088220626 -0.0028060542 0.014485433 0.00066075381 0.036990277 -0.017670503
216043750 0.0659284 -0.011323924 0.012857277 -0.0053727953 0.087414093 0.0065277717 0.013217675 -0.0050493698
0.012763647 -0.0054087187 0.075581938 -0.038823675 0.012659076 -0.005811458 0.088097423 -0.016843377
0.087223962 0.0065636672 0.012628023 -0.0058123334 0.044915181 -0.020005558 0.013791157 -0.0055033122
0.013199472 -0.0050036912 0.08783599 -0.016914075 0.013828192 -0.0054865126 0.037780188 -0.021323508
222287500 0.071250841 -0.01161047 0.0085227434 -0.0066198553 0.094219215 -0.0014001726 0.0090694353 -0.0066005266
0.0085303234 -0.0066246046 0.065499842 -0.047090631 0.0079023158 -0.007012879 0.080315582 -0.025449222
0.094105721 -0.0013137385 0.0078955721 -0.0069889822 0.048004508 -0.021464912 0.0092233112 -0.0071566063
0.0090098502 -0.0066308756 0.080167122 -0.025441095 0.0092002265 -0.0071242936 0.032899324 -0.019578917
228531250 0.07429342 -0.015937574 0.0074544344 -0.0063825035 0.098319381 -0.013751951 0.0078200772 -0.0065004006
0.0074046813 -0.0063863075 0.056576148 -0.049817409 0.0066133155 -0.006508234 0.076428398 -0.029117448
0.098144166 -0.013754491 0.0066085616 -0.0064459313 0.048972845 -0.025943309 0.0078188907 -0.0067683244
0.0078980234 -0.006521415 0.076233432 -0.029142989 0.0078291139 -0.0067575723 0.033289026 -0.013115176
234775000 0.073002212 -0.021028284 0.0068843216 -0.0064364835 0.097180039 -0.026955837 0.0074632182 -0.0067979745
0.0068488587 -0.0064869644 0.046325218 -0.050506111 0.0060552973 -0.0061590131 0.073227093 -0.033274658
0.096965864 -0.026875764 0.0060562701 -0.0062677031 0.045921866 -0.030213889 0.0072440896 -0.0067859185
0.0074002999 -0.0067419605 0.073080242 -0.033232469 0.0072374325 -0.0068305638 0.035991356 -0.0083402898
241018750 0.069393024 -0.02583799 0.006597674 -0.0074966112 0.09255448 -0.038943451 0.007265944 -0.0080835996
0.0066490066 -0.0074953181 0.036652461 -0.048737556 0.0060282252 -0.0069531207 0.071051612 -0.037316471
0.092450149 -0.038768854 0.0060061635 -0.006898209 0.04105068 -0.032969333 0.0070372391 -0.0079734437
0.0071981791 -0.0081315096 0.070862748 -0.037235603 0.0070871832 -0.0079642348 0.040695056 -0.0051327799
247262500 0.062890328 -0.029591311 0.0058710934 -0.0087110596 0.084430076 -0.049048472 0.0060646106 -0.0093218293
0.0058429213 -0.0086750714 0.026343912 -0.046460133 0.0056592324 -0.0079346523 0.067010857 -0.043570299
0.084225371 -0.048905384 0.0056550275 -0.0079559162 0.034253664 -0.03425692 0.0064029787 -0.0090522543
0.0059150313 -0.0092683639 0.066805333 -0.043473765 0.0062595243 -0.0090132784 0.044106372 -0.0063201827
253506250 0.055790257 -0.031981636 0.0051764427 -0.0096999668 0.073896155 -0.055704124 0.0049174959 -0.010375731
0.0051047108 -0.0098364213 0.015916824 -0.040249184 0.0048903604 -0.0090648895 0.05989692 -0.047781017
0.073831715 -0.05560318 0.0050619119 -0.0090132048 0.027027331 -0.033216693 0.0054248702 -0.010276128
0.0049877111 -0.010376413 0.059682481 -0.047673501 0.0053348052 -0.010172592 0.044683587 -0.0079078292
259750000 0.04867579 -0.032875821 0.004126864 -0.011187689 0.062611431 -0.058860525 0.0037292296 -0.011790046
0.0039453972 -0.011081595 0.0090185311 -0.030301603 0.0040273876 -0.010606148 0.052094959 -0.048327513
0.062520199 -0.058793519 0.0041570719 -0.010520266 0.020704983 -0.030150481 0.0044149999 -0.011550043
0.0038026904 -0.011790604 0.052051 -0.048277177 0.0043796967 -0.011674159 0.044596199 -0.0085109156
265993750 0.042680714 -0.03249976 0.0020749227 -0.013052654 0.051086456 -0.058129903 0.001556817 -0.013562896
0.0019365667 -0.013067639 0.0094394563 -0.018704975 0.0021507051 -0.012414661 0.047262203 -0.046218678
0.050988894 -0.057979014 0.0022611783 -0.012380475 0.016067019 -0.026066417 0.0022552905 -0.01355886
0.0015526778 -0.013557184 0.047063679 -0.045989297 0.0023878359 -0.0135573 0.046526711 -0.0084576663
272237500 0.038796619 -0.030406596 -0.0024923293 -0.013442057 0.04154335 -0.053487487 -0.0030293763 -0.014027768
-0.0025436278 -0.013602472 0.019265596 -0.01437531 -0.0020571952 -0.013164739 0.046899814 -0.04781409
0.041368425 -0.053469878 -0.0019488249 -0.013113995 0.01417495 -0.020930491 -0.002244618 -0.014380409
-0.0030751408 -0.013922787 0.046860512 -0.04774794 -0.0021302307 -0.014255862 0.05263415 -0.014238506
278481250 0.037887383 -0.02872829 -0.0046594618 -0.0095947376 0.034408581 -0.047408033 -0.0053858701 -0.0097723659
-0.004778414 -0.0095114345 0.021297317 -0.019043362 -0.0043782699 -0.0095363799 0.035813533 -0.054162826
0.034185208 -0.047156349 -0.0045225499 -0.0095387427 0.015009368 -0.016807891 -0.0048013702 -0.010490345
-0.0054410929 -0.0096938089 0.035599817 -0.054132812 -0.0046788636 -0.010549902 0.046544503 -0.026320513
284725000 0.038910966 -0.026366908 -0.0030334382 -0.0080365902 0.029573657 -0.038740989 -0.0038576615 -0.0079439962
-0.0029472203 -0.0080908509 0.022374254 -0.015841288 -0.002900505 -0.0079404572 0.022142036 -0.04728828
0.029626753 -0.038616937 -0.0030009798 -0.0079141315 0.017997107 -0.013037178 -0.0033918398 -0.0085561546
-0.0038170777 -0.0079242745 0.021971229 -0.04724554 -0.0034772386 -0.0085795242 0.037157822 -0.026487231
290968750 0.044641402 -0.024724007 -0.0021260306 -0.0094086416 0.030232148 -0.029940806 -0.0026432832 -0.0087314006
-0.0021118231 -0.0094815604 0.029049141 -0.013005607 -0.0020056264 -0.0092732562 0.014733112 -0.035496153
