# Hz S  RI   R 50
10000000 1.893920e-001 -1.947322e-002 1.319144e-001 4.145360e-003 5.351055e-002 -9.214625e-001 -1.354952e-002 2.939655e-002
1.318753e-001 4.097350e-003 1.931056e-001 -1.889938e-002 -1.387754e-002 3.030990e-002 5.486534e-002 -9.193314e-001
5.332752e-002 -9.214872e-001 -1.346717e-002 2.946331e-002 1.883772e-001 -2.224031e-002 1.306844e-001 3.945973e-003
-1.370346e-002 3.017664e-002 5.451938e-002 -9.189245e-001 1.306786e-001 3.892607e-003 1.924607e-001 -2.235022e-002
22493750 2.945620e-002 3.535887e-002 2.160040e-002 3.215232e-002 -9.001662e-001 2.270240e-001 1.462511e-002 3.297928e-002
2.165855e-002 3.249083e-002 3.005416e-002 3.457937e-002 1.487394e-002 3.329606e-002 -9.010532e-001 2.238404e-001
-8.998699e-001 2.273253e-001 1.471311e-002 3.300513e-002 2.911148e-002 3.505944e-002 1.947170e-002 3.285424e-002
1.484366e-002 3.324975e-002 -9.004676e-001 2.251480e-001 1.957092e-002 3.310741e-002 2.953011e-002 3.460110e-002
34987500 1.288294e-001 -7.969726e-002 9.744608e-002 -5.364361e-002 4.469250e-001 7.778600e-001 2.141301e-002 -3.905484e-002
9.752750e-002 -5.356492e-002 1.342306e-001 -8.140466e-002 2.083086e-002 -3.975337e-002 4.431806e-001 7.799696e-001
4.476661e-001 7.775784e-001 2.126960e-002 -3.914938e-002 1.287129e-001 -7.993077e-002 9.735974e-002 -5.008467e-002
2.085145e-002 -3.960875e-002 4.450588e-001 7.781641e-001 9.718203e-002 -5.009822e-002 1.330904e-001 -8.131378e-002
47481250 1.134624e-001 5.421285e-002 9.125310e-002 5.253909e-002 5.995482e-001 -6.551140e-001 -6.564305e-002 -3.451453e-002
9.186024e-002 5.297273e-002 1.139724e-001 5.717228e-002 -6.644298e-002 -3.495917e-002 6.035095e-001 -6.533883e-001
5.989493e-001 -6.557658e-001 -6.566803e-002 -3.460175e-002 1.089903e-001 5.888980e-002 8.878192e-002 5.547531e-002
-6.645154e-002 -3.452171e-002 6.005362e-001 -6.550034e-001 8.941629e-002 5.554751e-002 1.117129e-001 5.904309e-002
59975000 5.431652e-002 -7.008282e-002 3.927185e-002 -4.480970e-002 -7.828845e-001 -4.005747e-001 -1.689530e-002 7.131809e-002
3.922847e-002 -4.438735e-002 5.922737e-002 -7.123198e-002 -1.659105e-002 7.176564e-002 -7.813905e-001 -4.066340e-001
-7.833693e-001 -3.996357e-001 -1.644654e-002 7.176245e-002 6.019188e-002 -6.730028e-002 4.231086e-002 -4.088450e-002
-1.656823e-002 7.149799e-002 -7.829242e-001 -4.023893e-001 4.213346e-002 -4.063252e-002 5.920713e-002 -7.157133e-002
72468750 1.583886e-001 -2.237359e-003 1.311286e-001 -6.355192e-004 -1.532224e-001 8.440170e-001 9.754004e-002 -1.050993e-002
1.315906e-001 -4.261434e-004 1.609024e-001 -4.488211e-003 9.776123e-002 -1.061471e-002 -1.594312e-001 8.447210e-001
-1.520826e-001 8.443763e-001 9.719125e-002 -1.070922e-002 1.590743e-001 -1.799799e-003 1.301141e-001 5.801402e-003
9.797376e-002 -1.122384e-002 -1.535052e-001 8.451786e-001 1.303738e-001 5.383688e-003 1.615642e-001 2.799926e-003
84962500 4.515598e-002 -9.928782e-003 3.305900e-002 8.404970e-003 8.512803e-001 -8.486255e-002 -3.053363e-002 -1.019329e-001
3.309106e-002 9.336323e-003 4.165058e-002 -8.805757e-003 -2.984011e-002 -1.026601e-001 8.551114e-001 -7.794348e-002
8.511935e-001 -8.645347e-002 -3.082202e-002 -1.018926e-001 4.247439e-002 -9.262223e-003 3.809282e-002 1.020493e-002
-3.107881e-002 -1.021350e-001 8.537419e-001 -8.617669e-002 3.825598e-002 1.075148e-002 4.423918e-002 -8.709846e-003
97456250 1.337120e-001 -7.483120e-002 1.079228e-001 -5.684131e-002 -3.066010e-001 -7.781841e-001 -9.345826e-002 6.935159e-002
1.084641e-001 -5.642500e-002 1.402252e-001 -7.546792e-002 -9.431834e-002 6.922495e-002 -2.996878e-001 -7.833729e-001
-3.086136e-001 -7.777480e-001 -9.337787e-002 6.974136e-002 1.364477e-001 -6.427601e-002 1.103962e-001 -5.228652e-002
-9.311570e-002 7.028497e-002 -3.088026e-001 -7.793850e-001 1.102186e-001 -5.255489e-002 1.449617e-001 -6.786454e-002
109950000 9.161267e-002 1.634072e-002 7.919732e-002 2.674647e-002 -6.559588e-001 5.111288e-001 1.001556e-001 8.818282e-002
7.959588e-002 2.817085e-002 9.041999e-002 1.783325e-002 9.984253e-002 8.952160e-002 -6.637324e-001 5.078200e-001
-6.543628e-001 5.130952e-001 1.006145e-001 8.754635e-002 8.571105e-002 2.287871e-002 7.742620e-002 3.232048e-002
1.007863e-001 8.812782e-002 -6.566650e-001 5.160860e-001 7.802022e-002 3.289601e-002 8.468370e-002 2.381894e-002
122443750 6.749667e-002 -8.395759e-002 4.967694e-002 -6.181400e-002 6.620392e-001 4.911449e-001 6.108472e-002 -1.234438e-001
4.999169e-002 -6.152005e-002 7.081737e-002 -8.416128e-002 6.250027e-002 -1.235227e-001 6.599308e-001 5.001003e-001
6.636450e-001 4.888467e-001 6.043712e-002 -1.240516e-001 8.280008e-002 -7.527148e-002 5.950576e-002 -5.730782e-002
6.055350e-002 -1.235294e-001 6.668419e-001 4.893370e-001 5.901619e-002 -5.713549e-002 8.481642e-002 -8.030765e-002
134937500 1.409527e-001 -1.145496e-002 1.192550e-001 -4.286799e-003 2.794885e-001 -7.600074e-001 -1.543200e-001 -2.499109e-002
1.203170e-001 -2.589651e-003 1.410281e-001 -6.446144e-003 -1.550885e-001 -2.735111e-002 2.878310e-001 -7.601888e-001
2.763163e-001 -7.609401e-001 -1.545880e-001 -2.422968e-002 1.409835e-001 -3.726798e-003 1.211099e-001 -1.833201e-004
-1.548611e-001 -2.456390e-002 2.738622e-001 -7.647017e-001 1.221037e-001 -6.897928e-005 1.442226e-001 -3.620761e-003
147431250 4.068021e-002 -4.373256e-002 2.773363e-002 -1.158489e-002 -8.091380e-001 -6.016834e-002 6.815327e-003 1.661622e-001
2.733166e-002 -1.042688e-002 4.368443e-002 -4.461153e-002 4.579608e-003 1.669394e-001 -8.114994e-001 -6.926268e-002
-8.096062e-001 -5.573969e-002 8.768947e-003 1.662695e-001 4.870981e-002 -4.539545e-002 2.960314e-002 -1.135729e-002
6.869330e-003 1.663565e-001 -8.126941e-001 -5.268582e-002 2.907881e-002 -1.066071e-002 4.639668e-002 -4.733107e-002
159925000 1.368472e-001 -8.106996e-002 1.163581e-001 -6.380215e-002 1.581380e-001 7.767682e-001 1.636254e-001 -6.454667e-002
1.181837e-001 -6.203005e-002 1.422921e-001 -7.458481e-002 1.658957e-001 -6.246810e-002 1.485773e-001 7.808598e-001
1.624339e-001 7.761838e-001 1.636401e-001 -6.655359e-002 1.449171e-001 -6.108151e-002 1.230082e-001 -5.317957e-002
1.637166e-001 -6.514841e-002 1.670197e-001 7.768817e-001 1.235930e-001 -5.321900e-002 1.471190e-001 -6.526450e-002
172418750 6.186255e-002 -5.729656e-003 6.171896e-002 2.570252e-002 6.975960e-001 -3.734738e-001 -1.107487e-001 -1.628913e-001
6.127273e-002 2.858294e-002 6.952372e-002 -6.809164e-003 -1.082599e-001 -1.651867e-001 7.046669e-001 -3.647428e-001
6.953977e-001 -3.779912e-001 -1.131690e-001 -1.607973e-001 7.342781e-002 -1.309449e-002 6.811297e-002 2.366946e-002
-1.110896e-001 -1.633381e-001 6.945270e-001 -3.833178e-001 6.835152e-002 2.508389e-002 6.895868e-002 -6.961149e-003
184912500 8.055249e-002 -1.008025e-001 6.713266e-002 -8.255871e-002 -5.370772e-001 -5.685005e-001 -1.252872e-001 1.526304e-001
6.876496e-002 -8.163103e-002 8.659310e-002 -1.058379e-001 -1.288712e-001 1.503094e-001 -5.290880e-001 -5.775364e-001
-5.408856e-001 -5.650061e-001 -1.235987e-001 1.539231e-001 8.511206e-002 -9.394629e-002 6.814711e-002 -7.937445e-002
-1.251949e-001 1.529468e-001 -5.442061e-001 -5.628345e-001 6.823399e-002 -7.947227e-002 9.149528e-002 -9.784797e-002
197406250 1.189101e-001 -2.546932e-002 1.183956e-001 -2.013351e-004 -3.815037e-001 6.652138e-001 2.043682e-001 8.472599e-002
1.195545e-001 3.619264e-003 1.205955e-001 -2.356837e-002 2.033638e-001 8.963685e-002 -3.931294e-001 6.608714e-001
-3.769117e-001 6.674850e-001 2.053476e-001 8.209061e-002 1.151999e-001 -1.469740e-002 1.200753e-001 6.503337e-003
2.048807e-001 8.493754e-002 -3.740118e-001 6.713827e-001 1.209814e-001 7.812521e-003 1.169585e-001 -1.405873e-002
209900000 3.611691e-002 -7.445720e-002 2.432933e-002 -4.725382e-002 7.451594e-001 1.896251e-001 3.687482e-002 -2.231289e-001
2.473210e-002 -4.656404e-002 3.946073e-002 -7.481520e-002 4.195811e-002 -2.228748e-001 7.435326e-001 2.017596e-001
7.460612e-001 1.842026e-001 3.378231e-002 -2.235580e-001 4.655054e-002 -6.833149e-002 2.892374e-002 -4.053398e-002
3.727427e-002 -2.231660e-001 7.485360e-001 1.809360e-001 2.834451e-002 -4.005044e-002 4.661463e-002 -6.857122e-002
222393750 1.217633e-001 -8.173530e-002 1.288953e-001 -6.206843e-002 -2.081286e-002 -7.464106e-001 -2.349773e-001 3.979080e-002
1.321765e-001 -5.821831e-002 1.335072e-001 -8.350899e-002 -2.364242e-001 3.405053e-002 -6.855650e-003 -7.472746e-001
-2.603739e-002 -7.459567e-001 -2.337734e-001 4.335047e-002 1.223831e-001 -6.656686e-002 1.326286e-001 -5.318369e-002
-2.355089e-001 3.974820e-002 -3.137059e-002 -7.466087e-001 1.338915e-001 -5.266953e-002 1.337051e-001 -6.470219e-002
234887500 5.583565e-002 -2.754473e-002 4.354192e-002 -2.427522e-003 -7.101392e-001 2.329509e-001 9.924865e-002 2.354294e-001
4.310927e-002 1.879887e-004 5.024723e-002 -3.500077e-002 9.234505e-002 2.393578e-001 -7.167399e-001 2.191419e-001
-7.079694e-001 2.385756e-001 1.021954e-001 2.342522e-001 5.342185e-002 -1.940701e-002 5.066342e-002 6.846341e-003
9.851044e-002 2.360932e-001 -7.091681e-001 2.418660e-001 5.013709e-002 8.551046e-003 5.548114e-002 -2.875429e-002
247381250 7.969958e-002 -1.269287e-001 7.798485e-002 -1.032224e-001 3.998523e-001 6.131852e-001 1.949154e-001 -1.644660e-001
8.184546e-002 -1.016040e-001 8.241481e-002 -1.259266e-001 2.002768e-001 -1.592947e-001 3.888010e-001 6.229359e-001
4.047792e-001 6.104119e-001 1.926764e-001 -1.672721e-001 9.521665e-002 -9.651440e-002 8.878070e-002 -9.241917e-002
1.955828e-001 -1.643286e-001 4.091457e-001 6.094065e-001 8.985947e-002 -9.232142e-002 9.783204e-002 -9.893149e-002
259875000 9.282512e-002 -3.809284e-002 1.000988e-001 8.935923e-004 4.639748e-001 -5.528328e-001 -2.299489e-001 -1.564903e-001
1.007726e-001 5.779728e-003 9.344365e-002 -3.548083e-002 -2.258702e-001 -1.642733e-001 4.766228e-001 -5.451730e-001
4.595382e-001 -5.564843e-001 -2.322175e-001 -1.531946e-001 9.662846e-002 -3.041994e-002 1.075519e-001 6.702946e-003
-2.298464e-001 -1.577046e-001 4.576705e-001 -5.605557e-001 1.082904e-001 8.868242e-003 1.002525e-001 -3.056913e-002
272368750 2.307542e-002 -1.026636e-001 2.550609e-002 -8.612669e-002 -6.537413e-001 -3.038805e-001 -9.425322e-002 2.612039e-001
2.798902e-002 -8.603554e-002 2.566965e-002 -1.059888e-001 -1.027338e-001 2.586965e-001 -6.488660e-001 -3.183972e-001
-6.559301e-001 -2.989393e-001 -9.066398e-002 2.623181e-001 4.547077e-002 -8.615146e-002 4.050363e-002 -7.692269e-002
-9.551646e-002 2.610848e-001 -6.590237e-001 -2.961963e-001 4.052633e-002 -7.676593e-002 5.053359e-002 -8.979203e-002
284862500 1.116574e-001 -8.827991e-002 1.269714e-001 -5.836894e-002 -1.051098e-001 6.914156e-001 2.938879e-001 9.333630e-003
1.305810e-001 -5.298844e-002 1.152215e-001 -8.446143e-002 2.947548e-001 1.890967e-002 -1.201438e-001 6.912631e-001
-1.000917e-001 6.918651e-001 2.941415e-001 5.022218e-003 1.181059e-001 -6.959840e-002 1.366821e-001 -4.604895e-002
2.945671e-001 1.089522e-002 -9.623450e-002 6.946992e-001 1.386704e-001 -4.417467e-002 1.225627e-001 -7.007250e-002
297356250 1.787280e-002 -5.395054e-002 1.461428e-002 -3.055310e-002 6.981329e-001 -9.013785e-002 -6.033560e-002 -2.984592e-001
1.472949e-002 -2.964342e-002 1.626565e-002 -5.214128e-002 -4.986909e-002 -3.011481e-001 7.019319e-001 -7.442839e-002
6.971073e-001 -9.524817e-002 -6.432215e-002 -2.975237e-001 4.332492e-002 -5.534589e-002 3.936517e-002 -3.138111e-002
-5.845428e-002 -2.991514e-001 6.984848e-001 -9.943200e-002 3.885961e-002 -3.020267e-002 4.923560e-002 -5.451315e-002
309850000 7.663804e-002 -1.287597e-001 9.695518e-002 -1.107573e-001 -2.628113e-001 -6.319113e-001 -2.685330e-001 1.498180e-001
1.024442e-001 -1.075588e-001 8.743701e-002 -1.290214e-001 -2.744080e-001 1.413359e-001 -2.484924e-001 -6.389962e-001
-2.673653e-001 -6.299682e-001 -2.662903e-001 1.537949e-001 8.742824e-002 -1.145830e-001 1.071243e-001 -1.035510e-001
-2.698244e-001 1.485020e-001 -2.709516e-001 -6.295767e-001 1.093167e-001 -1.031027e-001 9.654985e-002 -1.196966e-001
322343750 6.678372e-002 -4.120097e-002 6.576921e-002 -7.429734e-003 -5.249077e-001 4.328083e-001 2.275200e-001 2.373243e-001
6.584092e-002 -3.451331e-003 6.510905e-002 -4.576974e-002 2.193747e-001 2.461250e-001 -5.368231e-001 4.211182e-001
-5.215333e-001 4.363780e-001 2.305384e-001 2.340280e-001 7.228764e-002 -3.871964e-002 8.184771e-002 -5.330348e-003
2.259953e-001 2.395910e-001 -5.214587e-001 4.396539e-001 8.192837e-002 -2.796744e-003 7.250818e-002 -4.153398e-002
334837500 1.251014e-002 -1.284706e-001 3.476580e-002 -1.164110e-001 5.457244e-001 3.930045e-001 1.652027e-001 -2.807782e-001
3.949675e-002 -1.161658e-001 1.534287e-002 -1.358618e-001 1.755033e-001 -2.748331e-001 5.372021e-001 4.065838e-001
5.482888e-001 3.890414e-001 1.616385e-001 -2.822859e-001 4.310450e-002 -1.116324e-001 5.629601e-002 -1.148526e-001
1.676446e-001 -2.799248e-001 5.506476e-001 3.881811e-001 5.783211e-002 -1.150532e-001 4.911618e-002 -1.148140e-001
347331250 9.799166e-002 -7.977056e-002 1.096515e-001 -4.712625e-002 2.124906e-001 -6.205997e-001 -3.361168e-001 -8.212572e-002
1.126081e-001 -4.173775e-002 8.593911e-002 -7.746791e-002 -3.343761e-001 -9.507310e-002 2.290313e-001 -6.178360e-001
2.083105e-001 -6.215982e-001 -3.372892e-001 -7.898263e-002 1.060904e-001 -6.691077e-002 1.203134e-001 -3.948484e-002
-3.361521e-001 -8.503578e-002 2.087641e-001 -6.247152e-001 1.218852e-001 -3.702533e-002 9.917341e-002 -7.586202e-002
359825000 -9.030119e-003 -7.426971e-002 1.914270e-003 -6.542655e-002 -6.564036e-001 -4.041487e-002 1.596280e-003 3.513082e-001
3.566223e-003 -6.579968e-002 -6.617423e-003 -7.018371e-002 -1.132237e-002 3.515081e-001 -6.570702e-001 -5.633335e-002
-6.566766e-001 -3.581210e-002 5.803420e-003 3.508413e-001 2.799426e-002 -7.754399e-002 3.120428e-002 -7.002730e-002
-1.259716e-003 3.516403e-001 -6.584134e-001 -3.377278e-002 3.127174e-002 -6.994950e-002 2.530397e-002 -7.203278e-002
372318750 7.978083e-002 -1.392616e-001 1.006442e-001 -1.081768e-001 1.336365e-001 6.206112e-001 3.403306e-001 -1.117452e-001
1.063738e-001 -1.042611e-001 7.751565e-002 -1.326958e-001 3.454845e-001 -9.938511e-002 1.187119e-001 6.265220e-001
1.371799e-001 6.198119e-001 3.394867e-001 -1.149099e-001 9.738776e-002 -1.173221e-001 1.216258e-001 -1.042833e-001
3.419397e-001 -1.088243e-001 1.387507e-001 6.221136e-001 1.243574e-001 -1.029344e-001 9.245877e-002 -1.188549e-001
384812500 2.803956e-002 -3.943497e-002 3.384852e-002 -2.254428e-002 5.579537e-001 -3.056889e-001 -2.001029e-001 -3.173178e-001
3.397189e-002 -2.044770e-002 2.943544e-002 -3.844682e-002 -1.884019e-001 -3.248584e-001 5.672168e-001 -2.924402e-001
5.558579e-001 -3.090228e-001 -2.028551e-001 -3.149589e-001 5.247623e-002 -5.527319e-002 5.279009e-002 -3.655680e-002
-1.974361e-001 -3.194749e-001 5.570311e-001 -3.103516e-001 5.253643e-002 -3.487079e-002 5.255055e-002 -5.086517e-002
397306250 1.276395e-002 -1.507510e-001 4.546008e-002 -1.323712e-001 -4.273002e-001 -4.513124e-001 -2.447039e-001 2.795537e-001
5.141195e-002 -1.315835e-001 1.532271e-002 -1.491421e-001 -2.555205e-001 2.707462e-001 -4.171041e-001 -4.638761e-001
-4.297120e-001 -4.491886e-001 -2.423054e-001 2.815952e-001 4.604015e-002 -1.353421e-001 7.204731e-002 -1.370200e-001
-2.476182e-001 2.776781e-001 -4.315445e-001 -4.501142e-001 7.424812e-002 -1.370393e-001 4.421090e-002 -1.348345e-001
409800000 8.041474e-002 -6.485181e-002 8.650849e-002 -4.230503e-002 -3.004020e-001 5.307021e-001 3.558484e-001 1.673793e-001
8.866746e-002 -3.771091e-002 7.591357e-002 -6.456347e-002 3.498438e-001 1.813449e-001 -3.159727e-001 5.248867e-001
-2.978362e-001 5.320965e-001 3.565988e-001 1.650495e-001 9.011201e-002 -6.915697e-002 9.793752e-002 -4.865277e-002
3.547392e-001 1.712121e-001 -2.996464e-001 5.337457e-001 9.909626e-002 -4.636322e-002 8.729306e-002 -7.086605e-002
422293750 -3.604771e-002 -1.044694e-001 -3.418901e-003 -9.681544e-002 5.890010e-001 1.540183e-001 7.223362e-002 -3.848775e-001
-3.278148e-004 -9.796183e-002 -3.769914e-002 -1.049609e-001 8.696213e-002 -3.822501e-001 5.871478e-001 1.693436e-001
5.897584e-001 1.511611e-001 7.049620e-002 -3.847568e-001 1.248340e-002 -1.069563e-001 2.418978e-002 -1.194248e-001
7.597882e-002 -3.845824e-001 5.914902e-001 1.521981e-001 2.519052e-002 -1.200114e-001 1.462551e-002 -1.060528e-001
434787500 7.957886e-002 -1.274896e-001 1.004508e-001 -1.015692e-001 -1.656794e-002 -5.853232e-001 -4.009418e-001 4.942028e-002
1.053222e-001 -9.738310e-002 7.259848e-002 -1.128555e-001 -4.048502e-001 3.428626e-002 -9.042626e-004 -5.892742e-001
-1.885037e-002 -5.850520e-001 -4.020347e-001 5.077553e-002 9.468995e-002 -1.236590e-001 1.082589e-001 -1.009762e-001
-4.020129e-001 4.563337e-002 -1.731822e-002 -5.887205e-001 1.105315e-001 -9.919772e-002 8.488289e-002 -1.321187e-001
447281250 -1.040369e-002 -4.829299e-002 6.899088e-003 -4.897656e-002 -5.610272e-001 1.790601e-001 1.485291e-001 3.884958e-001
7.676874e-003 -4.872172e-002 -7.277478e-003 -4.146910e-002 1.346683e-001 3.944357e-001 -5.674264e-001 1.659088e-001
-5.601485e-001 1.814569e-001 1.500920e-001 3.879565e-001 2.007332e-002 -6.972145e-002 2.619129e-002 -7.214887e-002
1.448956e-001 3.903345e-001 -5.625290e-001 1.812529e-001 2.621366e-002 -7.175378e-002 2.018617e-002 -6.607454e-002
459775000 2.155462e-002 -1.687549e-001 5.075058e-002 -1.443938e-001 3.049815e-001 4.798182e-001 3.237898e-001 -2.550262e-001
5.716106e-002 -1.429505e-001 2.819276e-002 -1.583410e-001 3.344790e-001 -2.446552e-001 2.939002e-001 4.902152e-001
3.065969e-001 4.787513e-001 3.238594e-001 -2.570491e-001 4.994682e-002 -1.550503e-001 7.323881e-002 -1.506229e-001
3.267634e-001 -2.524385e-001 3.066835e-001 4.820757e-001 7.590635e-002 -1.502964e-001 4.540895e-002 -1.606431e-001
472268750 4.755568e-002 -4.802356e-002 5.823194e-002 -4.193551e-002 3.639025e-001 -4.290301e-001 -3.487463e-001 -2.593628e-001
5.932174e-002 -3.896047e-002 4.579587e-002 -4.636375e-002 -3.397790e-001 -2.730069e-001 3.774675e-001 -4.209603e-001
3.626628e-001 -4.300383e-001 -3.496772e-001 -2.586115e-001 6.435136e-002 -7.162530e-002 6.133705e-002 -6.391083e-002
-3.465086e-001 -2.636205e-001 3.660857e-001 -4.304425e-001 6.195788e-002 -6.217447e-002 6.223228e-002 -7.557312e-002
484762500 -4.234845e-002 -1.343746e-001 -5.933194e-003 -1.281605e-001 -5.003480e-001 -2.436340e-001 -1.554022e-001 3.977488e-001
-1.093134e-003 -1.293971e-001 -3.543012e-002 -1.342968e-001 -1.699075e-001 3.935307e-001 -4.961076e-001 -2.584621e-001
-5.009862e-001 -2.424238e-001 -1.545553e-001 3.990557e-001 -2.751161e-003 -1.384475e-001 1.852289e-002 -1.463762e-001
-1.598426e-001 3.967936e-001 -5.022291e-001 -2.459269e-001 2.045553e-002 -1.470799e-001 -6.928261e-003 -1.427248e-001
497256250 7.710617e-002 -1.071919e-001 8.540658e-002 -9.526027e-002 -8.428290e-002 5.275495e-001 4.446656e-001 3.194503e-002
8.914799e-002 -9.154603e-002 6.819801e-002 -1.034882e-001 4.447574e-001 4.786548e-002 -1.002585e-001 5.292532e-001
-8.343836e-002 5.276870e-001 4.452141e-001 3.153944e-002 8.772316e-002 -1.187310e-001 8.739246e-002 -1.033265e-001
4.451402e-001 3.684244e-002 -8.775972e-002 5.310442e-001 8.922979e-002 -1.016290e-001 7.542909e-002 -1.229662e-001
509750000 -4.804714e-002 -7.103460e-002 -1.738466e-002 -7.573322e-002 5.360949e-001 -5.927558e-002 -7.563780e-002 -4.426514e-001
-1.564389e-002 -7.695908e-002 -4.595708e-002 -6.575614e-002 -6.066498e-002 -4.459317e-001 5.409372e-001 -4.570913e-002
5.359078e-001 -6.009072e-002 -7.598376e-002 -4.428362e-001 -1.171279e-002 -9.422094e-002 -1.751332e-003 -1.056222e-001
-7.107918e-002 -4.439109e-001 5.392650e-001 -5.778617e-002 -1.093877e-003 -1.060389e-001 -1.456403e-002 -8.999328e-002
522243750 3.651002e-002 -1.696844e-001 4.994488e-002 -1.532453e-001 -1.866513e-001 -4.767407e-001 -3.993066e-001 2.096620e-001
5.580605e-002 -1.517496e-001 2.844074e-002 -1.594587e-001 -4.070398e-001 1.964578e-001 -1.754898e-001 -4.864569e-001
-1.870941e-001 -4.765534e-001 -3.993052e-001 2.094609e-001 5.634974e-002 -1.745615e-001 6.564499e-002 -1.557835e-001
-4.020571e-001 2.057581e-001 -1.860119e-001 -4.820837e-001 6.833536e-002 -1.551561e-001 4.428708e-002 -1.683806e-001
