# Hz S  RI   R 50
10000000 2.055424e-001 -2.022880e-002 1.356034e-001 4.747155e-003 6.577745e-002 -9.336317e-001 -1.313943e-002 3.246534e-002
1.360191e-001 4.909799e-003 2.041012e-001 -1.664138e-002 -1.419649e-002 3.196341e-002 6.192997e-002 -9.184100e-001
6.507467e-002 -9.333897e-001 -1.409675e-002 3.205905e-002 1.847007e-001 -2.417413e-002 1.376027e-001 5.922216e-003
-1.317609e-002 3.247839e-002 6.170190e-002 -9.186331e-001 1.375343e-001 5.962732e-003 1.986901e-001 -2.015245e-002
22493750 2.308013e-002 4.611631e-002 1.967217e-002 3.122195e-002 -9.231652e-001 2.126930e-001 1.312478e-002 3.323099e-002
1.942580e-002 3.104711e-002 2.544020e-002 3.391884e-002 1.303942e-002 3.405414e-002 -9.068678e-001 2.091760e-001
-9.213679e-001 2.125336e-001 1.307352e-002 3.404065e-002 9.673152e-003 2.499674e-002 1.847545e-002 3.152033e-002
1.312906e-002 3.326025e-002 -9.071556e-001 2.110464e-001 1.866489e-002 3.185144e-002 2.770624e-002 3.250047e-002
34987500 1.270397e-001 -9.285711e-002 1.050556e-001 -5.481509e-002 4.276156e-001 8.095510e-001 1.908293e-002 -3.620780e-002
1.054665e-001 -5.452287e-002 1.454986e-001 -8.712804e-002 2.028659e-002 -3.878070e-002 4.215464e-001 7.923538e-001
4.277211e-001 8.079940e-001 2.018168e-002 -3.876791e-002 1.319260e-001 -9.830252e-002 1.069969e-001 -5.415362e-002
1.902927e-002 -3.625161e-002 4.238948e-001 7.921253e-001 1.069362e-001 -5.426216e-002 1.420028e-001 -8.172534e-002
47481250 1.261397e-001 5.544185e-002 8.878655e-002 5.342721e-002 6.391398e-001 -6.432132e-001 -6.338738e-002 -3.720698e-002
8.812591e-002 5.367322e-002 1.137858e-001 6.185445e-002 -6.570438e-002 -3.959224e-002 6.268259e-001 -6.340768e-001
6.379595e-001 -6.422980e-001 -6.576066e-002 -3.946852e-002 9.983934e-002 5.353828e-002 8.678675e-002 5.938316e-002
-6.333831e-002 -3.712147e-002 6.246237e-001 -6.368023e-001 8.742288e-002 5.943832e-002 1.069936e-001 6.467874e-002
59975000 4.857891e-002 -6.972739e-002 4.230268e-002 -5.582100e-002 -7.802823e-001 -4.554286e-001 -2.296291e-002 6.441879e-002
4.298947e-002 -5.579580e-002 6.019655e-002 -8.698287e-002 -2.200799e-002 6.668404e-002 -7.651224e-001 -4.455692e-001
-7.799774e-001 -4.539395e-001 -2.164807e-002 6.679892e-002 6.325188e-002 -1.019244e-001 4.696775e-002 -5.345318e-002
-2.293004e-002 6.449560e-002 -7.676247e-001 -4.421078e-001 4.663888e-002 -5.320772e-002 6.705418e-002 -7.961827e-002
72468750 1.555373e-001 -1.368843e-002 1.322619e-001 7.094051e-003 -2.096210e-001 8.540866e-001 9.669888e-002 -1.090699e-003
1.319669e-001 8.566882e-003 1.717345e-001 4.240903e-003 1.013939e-001 -2.856286e-003 -2.028264e-001 8.375682e-001
-2.085702e-001 8.539333e-001 1.013321e-001 -3.634481e-003 1.681982e-001 -4.962395e-003 1.354303e-001 1.071571e-002
9.668502e-002 -1.289268e-003 -1.965751e-001 8.389784e-001 1.356987e-001 1.019870e-002 1.679415e-001 1.235627e-002
84962500 4.263265e-002 -8.593257e-003 2.254073e-002 6.103469e-004 8.817720e-001 -2.341791e-002 -1.287322e-002 -1.053920e-001
2.284022e-002 2.435718e-004 2.983794e-002 -2.222579e-002 -1.298563e-002 -1.076636e-001 8.681114e-001 -2.583576e-002
8.803773e-001 -2.511142e-002 -1.411135e-002 -1.073656e-001 3.740230e-002 -2.705078e-002 2.519938e-002 3.061531e-003
-1.313230e-002 -1.053716e-001 8.686222e-001 -3.407018e-002 2.519413e-002 3.687751e-003 3.403660e-002 -1.928700e-002
97456250 1.315226e-001 -6.847905e-002 1.173139e-001 -5.454811e-002 -2.523906e-001 -8.233842e-001 -1.037797e-001 5.604864e-002
1.180711e-001 -5.266169e-002 1.551126e-001 -7.943065e-002 -1.045164e-001 6.014126e-002 -2.469599e-001 -8.062178e-001
-2.545860e-001 -8.220318e-001 -1.036959e-001 6.139646e-002 1.678062e-001 -7.486251e-002 1.206741e-001 -5.210606e-002
-1.036478e-001 5.630208e-002 -2.564784e-001 -8.036855e-001 1.205717e-001 -5.252868e-002 1.564589e-001 -6.049030e-002
109950000 8.404296e-002 1.046575e-002 6.751145e-002 3.968995e-002 -7.184681e-001 4.732401e-001 8.831479e-002 1.103633e-001
6.651126e-002 3.984737e-002 8.042707e-002 2.771144e-002 9.190593e-002 1.128917e-001 -7.046971e-001 4.652852e-001
-7.160749e-001 4.745749e-001 9.347982e-002 1.112919e-001 8.777184e-002 2.615383e-002 7.026813e-002 4.358433e-002
8.851956e-002 1.101055e-001 -6.986331e-001 4.750780e-001 7.099310e-002 4.441876e-002 7.652981e-002 3.172050e-002
122443750 8.564010e-002 -8.842627e-002 5.856152e-002 -7.329825e-002 6.313727e-001 5.657121e-001 8.154874e-002 -1.179915e-001
6.051156e-002 -7.203531e-002 8.420927e-002 -1.098261e-001 8.130852e-002 -1.194533e-001 6.178177e-001 5.574377e-001
6.328806e-001 5.627766e-001 7.896383e-002 -1.206895e-001 1.128931e-001 -9.558689e-002 6.353427e-002 -6.952286e-002
8.127357e-002 -1.179607e-001 6.263484e-001 5.479163e-001 6.291043e-002 -6.947065e-002 1.020726e-001 -8.923433e-002
134937500 1.212025e-001 4.851649e-004 1.292674e-001 1.412936e-002 3.582280e-001 -7.512048e-001 -1.613459e-001 -5.340757e-002
1.280982e-001 1.669407e-002 1.388368e-001 3.383392e-003 -1.649866e-001 -5.281740e-002 3.531170e-001 -7.367346e-001
3.550132e-001 -7.512316e-001 -1.656300e-001 -4.887423e-002 1.552426e-001 8.074179e-003 1.286850e-001 1.839546e-002
-1.611964e-001 -5.316062e-002 3.392068e-001 -7.432109e-001 1.298398e-001 1.869874e-002 1.403384e-001 5.818526e-003
147431250 4.381412e-002 -6.829521e-002 1.803284e-002 -2.900275e-002 -8.180435e-001 -1.527008e-001 -1.857884e-002 1.728291e-001
1.950201e-002 -2.918957e-002 3.515240e-002 -6.801823e-002 -1.991189e-002 1.753384e-001 -8.052049e-001 -1.515774e-001
-8.177688e-001 -1.476536e-001 -1.523480e-002 1.755619e-001 5.893213e-002 -5.661710e-002 2.558485e-002 -2.611240e-002
-1.840247e-002 1.726862e-001 -8.084545e-001 -1.356474e-001 2.504632e-002 -2.540019e-002 4.889756e-002 -6.308751e-002
159925000 1.391868e-001 -5.683000e-002 1.348561e-001 -5.736164e-002 7.017995e-002 8.050918e-001 1.849947e-001 -4.399600e-002
1.357825e-001 -5.321486e-002 1.447580e-001 -7.095441e-002 1.864673e-001 -4.370712e-002 6.627193e-002 7.932351e-001
7.436058e-002 8.039248e-001 1.848937e-001 -4.924399e-002 1.581704e-001 -4.565318e-002 1.394024e-001 -4.342564e-002
1.848548e-001 -4.401972e-002 8.505927e-002 7.915157e-001 1.401220e-001 -4.343843e-002 1.483285e-001 -5.061328e-002
172418750 4.389700e-002 -7.155873e-003 4.999966e-002 2.556575e-002 7.558645e-001 -2.892866e-001 -8.894867e-002 -1.886332e-001
4.921822e-002 2.564426e-002 5.270411e-002 -4.541180e-003 -8.880066e-002 -1.922578e-001 7.454824e-001 -2.830278e-001
7.527264e-001 -2.932854e-001 -9.522168e-002 -1.888235e-001 7.128090e-002 6.414848e-003 5.569878e-002 2.195302e-002
-8.863667e-002 -1.885721e-001 7.381439e-001 -3.033797e-001 5.569755e-002 2.333785e-002 6.587071e-002 -6.176434e-003
184912500 1.028189e-001 -1.159799e-001 7.676291e-002 -9.765982e-002 -4.578625e-001 -6.459308e-001 -1.518238e-001 1.414098e-001
7.993533e-002 -9.450443e-002 9.817398e-002 -1.199519e-001 -1.558024e-001 1.405243e-001 -4.515064e-001 -6.384330e-001
-4.615637e-001 -6.421728e-001 -1.505816e-001 1.457104e-001 1.158913e-001 -9.007660e-002 9.267178e-002 -8.677918e-002
-1.518833e-001 1.410243e-001 -4.684036e-001 -6.262960e-001 9.308531e-002 -8.695099e-002 1.176398e-001 -9.686867e-002
197406250 1.027531e-001 1.908181e-003 1.142929e-001 1.467813e-002 -4.829987e-001 6.134876e-001 1.982602e-001 1.242134e-001
1.128581e-001 1.736235e-002 1.075506e-001 -7.294923e-003 1.990346e-001 1.285979e-001 -4.779024e-001 6.056732e-001
-4.785916e-001 6.157274e-001 2.032443e-001 1.210783e-001 1.139740e-001 6.739230e-004 1.121043e-001 1.639373e-002
1.978188e-001 1.246288e-001 -4.604665e-001 6.190551e-001 1.128254e-001 1.790005e-002 1.154334e-001 -9.544038e-003
209900000 3.101293e-002 -1.007910e-001 2.090801e-002 -6.460145e-002 7.149303e-001 3.138712e-001 7.501745e-002 -2.204636e-001
2.383827e-002 -6.356582e-002 3.866934e-002 -1.001977e-001 7.992231e-002 -2.230590e-001 7.071919e-001 3.084254e-001
7.163748e-001 3.086894e-001 7.138597e-002 -2.253838e-001 5.312804e-002 -8.387288e-002 3.572028e-002 -6.685832e-002
7.569544e-002 -2.199424e-001 7.151848e-001 2.889895e-001 3.552232e-002 -6.680333e-002 6.338816e-002 -9.262346e-002
222393750 1.376093e-001 -6.230052e-002 1.377836e-001 -5.126086e-002 1.052802e-001 -7.489018e-001 -2.509073e-001 -2.118813e-003
1.383835e-001 -4.599943e-002 1.353501e-001 -6.372960e-002 -2.550078e-001 -7.002454e-003 1.034173e-001 -7.415207e-001
1.003060e-001 -7.489682e-001 -2.545720e-001 3.667895e-003 1.327697e-001 -5.263416e-002 1.427010e-001 -3.458018e-002
-2.508190e-001 -2.740669e-003 7.886166e-002 -7.445167e-001 1.441311e-001 -3.389829e-002 1.427176e-001 -5.420672e-002
234887500 2.379428e-002 -3.422988e-002 2.713839e-002 -5.794869e-003 -7.555411e-001 1.014279e-001 5.257977e-002 2.587909e-001
2.822564e-002 -5.590302e-003 2.718055e-002 -4.816349e-002 4.854034e-002 2.644717e-001 -7.461843e-001 1.018645e-001
-7.538171e-001 1.070081e-001 5.977321e-002 2.617462e-001 3.856564e-002 -4.565808e-002 3.377552e-002 -1.279207e-002
5.148344e-002 2.590857e-001 -7.427377e-001 1.258789e-001 3.331589e-002 -1.155598e-002 5.280738e-002 -5.183381e-002
247381250 9.528980e-002 -1.236561e-001 9.939988e-002 -1.046218e-001 2.801342e-001 6.866138e-001 2.325139e-001 -1.298994e-001
1.028000e-001 -9.989020e-002 1.026156e-001 -1.175478e-001 2.399548e-001 -1.286977e-001 2.804355e-001 6.773289e-001
2.851644e-001 6.842293e-001 2.337438e-001 -1.391826e-001 1.056340e-001 -1.097995e-001 1.184741e-001 -9.168841e-002
2.330151e-001 -1.290120e-001 3.027927e-001 6.677233e-001 1.197128e-001 -9.143900e-002 1.181891e-001 -1.059455e-001
259875000 7.728014e-002 -1.821763e-002 8.247723e-002 9.435178e-003 5.739805e-001 -4.596673e-001 -1.996585e-001 -2.118056e-001
8.231757e-002 1.134017e-002 7.165441e-002 -2.707104e-002 -1.995176e-001 -2.194118e-001 5.663021e-001 -4.568528e-001
5.702694e-001 -4.635317e-001 -2.090433e-001 -2.099235e-001 7.734183e-002 -3.739311e-002 8.397763e-002 1.015497e-002
-1.988415e-001 -2.129102e-001 5.505704e-001 -4.761494e-001 8.450503e-002 1.240840e-002 8.458489e-002 -3.174306e-002
272368750 2.819273e-002 -1.128087e-001 3.752500e-002 -1.020627e-001 -5.825945e-001 -4.389642e-001 -1.527019e-001 2.453094e-001
4.221610e-002 -9.937167e-002 4.120744e-002 -1.220075e-001 -1.589396e-001 2.477307e-001 -5.774478e-001 -4.303722e-001
-5.857012e-001 -4.343697e-001 -1.471651e-001 2.546607e-001 5.460971e-002 -1.235756e-001 5.990551e-002 -1.001240e-001
-1.542287e-001 2.445255e-001 -5.917011e-001 -4.108722e-001 6.034238e-002 -1.002709e-001 6.540241e-002 -1.145875e-001
284862500 1.165500e-001 -6.698654e-002 1.290624e-001 -3.512118e-002 -2.520421e-001 6.610810e-001 3.000997e-001 7.866011e-002
1.292534e-001 -3.048660e-002 1.149346e-001 -6.458652e-002 3.048451e-001 8.494632e-002 -2.451825e-001 6.559890e-001
-2.471861e-001 6.625347e-001 3.081140e-001 7.037048e-002 1.219520e-001 -7.430783e-002 1.369477e-001 -2.778047e-002
3.000020e-001 8.055111e-002 -2.223900e-001 6.639947e-001 1.388263e-001 -2.571713e-002 1.218903e-001 -5.852324e-002
297356250 8.905763e-003 -6.851233e-002 7.834433e-003 -5.405908e-002 7.086107e-001 7.271750e-002 1.044184e-002 -3.157875e-001
1.151467e-002 -5.364808e-002 6.267362e-003 -7.946103e-002 1.591781e-002 -3.204329e-001 7.010546e-001 6.824170e-002
7.085542e-001 6.727299e-002 1.930298e-004 -3.203433e-001 3.971170e-002 -9.575458e-002 2.833358e-002 -6.210228e-002
1.242907e-002 -3.160510e-001 7.030188e-001 4.340255e-002 2.772396e-002 -6.155196e-002 3.989468e-002 -8.334023e-002
309850000 9.464864e-002 -1.199118e-001 1.187129e-001 -9.823745e-002 -1.090913e-001 -6.778617e-001 -3.118780e-001 8.928913e-002
1.217906e-001 -9.267819e-002 9.871055e-002 -1.223173e-001 -3.178090e-001 8.620537e-002 -1.126844e-001 -6.698837e-001
-1.137546e-001 -6.766344e-001 -3.126932e-001 1.015910e-001 1.191875e-001 -1.287593e-001 1.310301e-001 -9.360571e-002
-3.127783e-001 8.740136e-002 -1.363927e-001 -6.652053e-001 1.334246e-001 -9.285697e-002 1.128574e-001 -1.105393e-001
322343750 3.554189e-002 -3.560560e-002 4.601037e-002 -5.673295e-003 -6.206343e-001 2.936854e-001 1.688341e-001 2.991041e-001
4.714332e-002 -4.717655e-003 3.695484e-002 -3.571545e-002 1.660130e-001 3.063676e-001 -6.123529e-001 2.957355e-001
-6.177906e-001 2.976569e-001 1.808621e-001 2.970933e-001 7.601372e-002 -6.649773e-002 5.273222e-002 -1.997115e-002
1.667455e-001 3.007308e-001 -6.014252e-001 3.170523e-001 5.266317e-002 -1.798371e-002 6.391051e-002 -5.146750e-002
334837500 4.543117e-002 -1.347274e-001 6.259090e-002 -1.354590e-001 4.245792e-001 5.191703e-001 2.355979e-001 -2.434218e-001
6.800384e-002 -1.315633e-001 4.997502e-002 -1.446430e-001 2.428496e-001 -2.417513e-001 4.253552e-001 5.102657e-001
4.278797e-001 5.160545e-001 2.303257e-001 -2.530421e-001 7.228562e-002 -1.520563e-001 7.553569e-002 -1.266747e-001
2.377995e-001 -2.416116e-001 4.421662e-001 4.956773e-001 7.737506e-002 -1.269078e-001 6.450469e-002 -1.448145e-001
347331250 8.920546e-002 -5.833637e-002 1.024853e-001 -2.709001e-002 3.682816e-001 -5.438301e-001 -3.188527e-001 -1.747496e-001
1.031811e-001 -2.425227e-002 8.725931e-002 -7.444007e-002 -3.192469e-001 -1.812157e-001 3.605420e-001 -5.442479e-001
3.644537e-001 -5.457881e-001 -3.269726e-001 -1.657311e-001 1.171004e-001 -6.789126e-002 1.090653e-001 -2.343666e-002
-3.177717e-001 -1.774835e-001 3.425033e-001 -5.554618e-001 1.100983e-001 -2.073550e-002 8.757343e-002 -5.987700e-002
359825000 -1.047851e-002 -1.181220e-001 1.204567e-003 -1.014417e-001 -6.162051e-001 -2.264018e-001 -9.087618e-002 3.469103e-001
6.313174e-003 -1.003795e-001 -1.570917e-002 -1.158084e-001 -9.990364e-002 3.484229e-001 -6.156423e-001 -2.171243e-001
-6.173097e-001 -2.223141e-001 -8.223948e-002 3.523972e-001 4.337486e-002 -1.156483e-001 2.956129e-002 -1.108478e-001
-9.373037e-002 3.464110e-001 -6.223394e-001 -1.959990e-001 3.030698e-002 -1.113191e-001 2.979871e-002 -1.118030e-001
372318750 9.469419e-002 -1.141487e-001 1.181641e-001 -9.278988e-002 -4.804793e-002 6.293529e-001 3.746503e-001 -1.718998e-002
1.207864e-001 -8.841832e-002 8.590168e-002 -1.206113e-001 3.787305e-001 -9.486224e-003 -3.823070e-002 6.277215e-001
-4.451710e-002 6.294166e-001 3.773901e-001 -2.751686e-002 1.253220e-001 -1.103155e-001 1.273017e-001 -8.115616e-002
3.751510e-001 -1.394295e-002 -1.822451e-002 6.281577e-001 1.299446e-001 -7.905918e-002 1.034805e-001 -1.110213e-001
384812500 -1.170765e-002 -5.607189e-002 7.796854e-003 -3.804334e-002 6.259417e-001 -1.216148e-001 -1.021367e-001 -3.703518e-001
1.069284e-002 -3.800185e-002 -6.889467e-003 -6.203622e-002 -9.599617e-002 -3.765043e-001 6.204799e-001 -1.317790e-001
6.247820e-001 -1.251160e-001 -1.135099e-001 -3.711176e-001 4.927854e-002 -6.652914e-002 2.205363e-002 -6.303882e-002
-9.903091e-002 -3.713099e-001 6.156794e-001 -1.514215e-001 2.197266e-002 -6.235474e-002 3.122336e-002 -7.886794e-002
397306250 4.736681e-002 -1.597245e-001 6.950063e-002 -1.462951e-001 -2.617873e-001 -5.549834e-001 -3.226323e-001 2.078835e-001
7.468273e-002 -1.427143e-001 3.841467e-002 -1.545801e-001 -3.312023e-001 2.032369e-001 -2.722234e-001 -5.479313e-001
-2.646879e-001 -5.536621e-001 -3.209889e-001 2.185558e-001 8.680789e-002 -1.440388e-001 9.714858e-002 -1.324876e-001
-3.247421e-001 2.049375e-001 -2.890538e-001 -5.387937e-001 9.995712e-002 -1.319572e-001 6.784063e-002 -1.537423e-001
409800000 4.515205e-002 -3.573645e-002 6.382120e-002 -2.311331e-002 -4.550436e-001 4.075959e-001 2.954952e-001 2.783397e-001
6.526256e-002 -2.174976e-002 4.258878e-002 -5.207978e-002 2.937088e-001 2.865266e-001 -4.450182e-001 4.154976e-001
-4.529084e-001 4.093049e-001 3.059703e-001 2.725782e-001 8.067312e-002 -5.993745e-002 6.327624e-002 -4.427075e-002
2.929237e-001 2.812009e-001 -4.321610e-001 4.284187e-001 6.354028e-002 -4.240971e-002 6.148340e-002 -7.568948e-002
422293750 -2.343524e-002 -1.473808e-001 6.385641e-003 -1.341600e-001 4.953137e-001 3.414469e-001 1.872372e-001 -3.505356e-001
1.141393e-002 -1.326824e-001 -1.833406e-002 -1.381088e-001 1.956629e-001 -3.524403e-001 5.029576e-001 3.268741e-001
4.968676e-001 3.393199e-001 1.800455e-001 -3.603573e-001 2.296058e-002 -1.369941e-001 3.972054e-002 -1.429525e-001
1.905783e-001 -3.489886e-001 5.116367e-001 3.124986e-001 4.161212e-002 -1.434866e-001 1.098494e-002 -1.482963e-001
434787500 8.243051e-002 -9.093374e-002 1.011280e-001 -7.350039e-002 1.808792e-001 -5.542622e-001 -4.111053e-001 -8.611075e-002
1.034292e-001 -7.078583e-002 7.514620e-002 -9.798368e-002 -4.139385e-001 -9.377992e-002 1.647742e-001 -5.574755e-001
1.787213e-001 -5.545996e-001 -4.170609e-001 -7.624840e-002 9.103807e-002 -9.991970e-002 1.005565e-001 -7.614255e-002
-4.104432e-001 -8.983823e-002 1.491874e-001 -5.614644e-001 1.021499e-001 -7.406106e-002 8.629367e-002 -1.102070e-001
447281250 -4.925212e-002 -8.309150e-002 -1.738974e-002 -8.022236e-002 -5.861256e-001 -3.732350e-002 1.042030e-002 4.189015e-001
-1.351813e-002 -8.012573e-002 -4.281398e-002 -9.086189e-002 5.237887e-003 4.237179e-001 -5.841876e-001 -1.966643e-002
-5.862515e-001 -3.502303e-002 2.253340e-002 4.228426e-001 -8.311966e-003 -9.530490e-002 3.110638e-003 -1.090970e-001
6.587376e-003 4.190268e-001 -5.842470e-001 -4.232247e-003 3.930521e-003 -1.096768e-001 -6.170297e-003 -1.100391e-001
459775000 5.008987e-002 -1.479911e-001 8.185945e-002 -1.348167e-001 1.120172e-001 5.504477e-001 4.053182e-001 -1.375261e-001
8.557794e-002 -1.321073e-001 4.479240e-002 -1.491722e-001 4.114376e-001 -1.333869e-001 1.294506e-001 5.442498e-001
1.136028e-001 5.501781e-001 4.055434e-001 -1.495165e-001 5.767968e-002 -1.555774e-001 9.147773e-002 -1.264125e-001
4.068236e-001 -1.336157e-001 1.435781e-001 5.403958e-001 9.412240e-002 -1.252546e-001 6.501319e-002 -1.617213e-001
472268750 3.682070e-003 -3.372006e-002 1.543116e-002 -4.047529e-002 5.004193e-001 -2.608097e-001 -2.359925e-001 -3.750236e-001
1.799996e-002 -4.012216e-002 -6.580749e-003 -4.326096e-002 -2.324981e-001 -3.818423e-001 4.897185e-001 -2.755301e-001
4.994896e-001 -2.622963e-001 -2.472195e-001 -3.718348e-001 9.716186e-003 -6.835479e-002 2.323168e-002 -7.246356e-002
-2.320527e-001 -3.776084e-001 4.822492e-001 -2.879326e-001 2.354055e-002 -7.166326e-002 1.951795e-002 -8.213867e-002
484762500 -1.195154e-002 -1.595628e-001 2.450083e-002 -1.552694e-001 -3.606046e-001 -4.100704e-001 -2.902787e-001 3.277657e-001
2.914713e-002 -1.537551e-001 -1.559543e-002 -1.602442e-001 -2.960952e-001 3.273046e-001 -3.733597e-001 -3.950459e-001
-3.615597e-001 -4.091649e-001 -2.834189e-001 3.380833e-001 -3.474127e-003 -1.745452e-001 4.287641e-002 -1.585276e-001
-2.936676e-001 3.246270e-001 -3.828686e-001 -3.854729e-001 4.538044e-002 -1.587683e-001 5.822762e-003 -1.750426e-001
497256250 5.472997e-002 -6.344798e-002 6.582830e-002 -6.100392e-002 -2.830105e-001 4.542439e-001 4.125820e-001 2.046950e-001
6.837967e-002 -5.974991e-002 5.129949e-002 -6.530055e-002 4.132318e-001 2.108688e-001 -2.645934e-001 4.625732e-001
-2.820862e-001 4.545640e-001 4.199901e-001 1.956375e-001 4.945793e-002 -9.537208e-002 6.028517e-002 -7.828986e-002
4.104692e-001 2.091042e-001 -2.538270e-001 4.685698e-001 6.134610e-002 -7.672530e-002 5.896930e-002 -9.494730e-002
509750000 -6.103149e-002 -1.167323e-001 -3.055218e-002 -1.270447e-001 5.048072e-001 1.673256e-001 9.427789e-002 -4.428630e-001
-2.635766e-002 -1.270848e-001 -7.007754e-002 -1.173281e-001 9.914191e-002 -4.432898e-001 5.091094e-001 1.469358e-001
5.052165e-001 1.663830e-001 8.365874e-002 -4.459288e-001 -4.971966e-002 -1.500898e-001 -6.191907e-003 -1.446151e-001
9.872912e-002 -4.420032e-001 5.121079e-001 1.355957e-001 -4.828221e-003 -1.454476e-001 -3.639210e-002 -1.425591e-001
522243750 5.061806e-002 -1.208061e-001 7.176992e-002 -1.118202e-001 1.912665e-002 -5.097021e-001 -4.681617e-001 3.694369e-002
7.481642e-002 -1.102200e-001 4.761211e-002 -1.217526e-001 -4.708662e-001 3.230469e-002 -1.553225e-003 -5.087100e-001
1.872356e-002 -5.097204e-001 -4.689401e-001 4.801268e-002 4.788410e-002 -1.498335e-001 6.508143e-002 -1.166965e-001
-4.687015e-001 3.200599e-002 -1.247564e-002 -5.084014e-001 6.705805e-002 -1.154772e-001 5.210896e-002 -1.440384e-001
