# Hz S  RI   R 50
10000000 1.899410e-001 -2.019980e-002 1.331768e-001 3.309523e-003 5.399068e-002 -9.219007e-001 -1.280358e-002 2.941370e-002
1.332120e-001 3.378771e-003 1.922626e-001 -2.053694e-002 -1.291665e-002 3.029978e-002 5.458770e-002 -9.194503e-001
5.350660e-002 -9.220329e-001 -1.272085e-002 2.937666e-002 1.894100e-001 -2.159031e-002 1.322469e-001 4.800019e-003
-1.295220e-002 3.028932e-002 5.419238e-002 -9.193319e-001 1.321602e-001 4.829782e-003 1.922633e-001 -2.049042e-002
22493750 2.825791e-002 3.517504e-002 1.946960e-002 3.261201e-002 -9.007940e-001 2.278914e-001 1.425516e-002 3.246470e-002
1.961106e-002 3.291196e-002 2.754334e-002 3.626896e-002 1.447137e-002 3.292254e-002 -9.007552e-001 2.254688e-001
-9.004548e-001 2.281328e-001 1.424427e-002 3.263874e-002 2.885972e-002 3.428591e-002 2.110921e-002 3.192159e-002
1.451176e-002 3.278879e-002 -8.999436e-001 2.267795e-001 2.126510e-002 3.217799e-002 3.235019e-002 3.502733e-002
34987500 1.256102e-001 -8.288280e-002 9.945810e-002 -5.509977e-002 4.477733e-001 7.794747e-001 2.015127e-002 -3.674642e-002
9.959710e-002 -5.500725e-002 1.325025e-001 -8.425409e-002 1.973156e-002 -3.765439e-002 4.446367e-001 7.802287e-001
4.484873e-001 7.793084e-001 2.010261e-002 -3.701440e-002 1.283498e-001 -7.806472e-002 9.893059e-002 -5.304495e-002
1.955694e-002 -3.723895e-002 4.464219e-001 7.784961e-001 9.884587e-002 -5.301580e-002 1.346020e-001 -8.082701e-002
47481250 1.120123e-001 5.987485e-002 8.802939e-002 5.379063e-002 5.996502e-001 -6.571379e-001 -6.373230e-002 -3.460294e-002
8.858595e-002 5.411693e-002 1.130189e-001 6.158479e-002 -6.488227e-002 -3.465018e-002 6.020185e-001 -6.558148e-001
5.990401e-001 -6.575753e-001 -6.405823e-002 -3.435959e-002 1.130644e-001 5.770908e-002 8.809682e-002 5.206663e-002
-6.444779e-002 -3.450251e-002 5.991103e-001 -6.574398e-001 8.869198e-002 5.205959e-002 1.145507e-001 5.854147e-002
59975000 5.625648e-002 -7.069482e-002 3.863911e-002 -4.464211e-002 -7.881518e-001 -4.022109e-001 -1.980114e-002 6.764872e-002
3.859688e-002 -4.445213e-002 5.452315e-002 -7.513798e-002 -1.977775e-002 6.745828e-002 -7.860704e-001 -4.058387e-001
-7.885312e-001 -4.013864e-001 -1.969981e-002 6.746500e-002 5.162266e-002 -7.321034e-002 3.495664e-002 -4.425578e-002
-1.951310e-002 6.763240e-002 -7.877059e-001 -4.014661e-001 3.467359e-002 -4.400165e-002 5.890832e-002 -7.302494e-002
72468750 1.626778e-001 -5.224413e-003 1.337058e-001 -4.492067e-004 -1.513845e-001 8.476760e-001 9.551510e-002 -8.599102e-003
1.342669e-001 -1.320221e-004 1.659146e-001 -1.239890e-003 9.663505e-002 -9.252635e-003 -1.551332e-001 8.467117e-001
-1.503827e-001 8.478288e-001 9.597505e-002 -9.310025e-003 1.611068e-001 2.799466e-003 1.308898e-001 6.092487e-003
9.590702e-002 -9.280603e-003 -1.491129e-001 8.473790e-001 1.311428e-001 5.650985e-003 1.662250e-001 1.274019e-003
84962500 3.799601e-002 -4.942980e-003 2.981134e-002 1.265871e-002 8.599058e-001 -9.335520e-002 -2.331201e-002 -1.052790e-001
2.970572e-002 1.364901e-002 3.206797e-002 -8.437131e-003 -2.272286e-002 -1.060389e-001 8.606041e-001 -8.751336e-002
8.598089e-001 -9.504147e-002 -2.367982e-002 -1.053729e-001 3.425110e-002 -3.044262e-003 2.657145e-002 1.506101e-002
-2.354720e-002 -1.056048e-001 8.593546e-001 -9.567909e-002 2.651710e-002 1.560715e-002 4.075557e-002 -8.190205e-003
97456250 1.388492e-001 -7.822946e-002 1.071785e-001 -6.280801e-002 -3.137664e-001 -7.826256e-001 -9.542467e-002 6.408557e-002
1.078893e-001 -6.237848e-002 1.422118e-001 -7.606818e-002 -9.589585e-002 6.508114e-002 -3.082506e-001 -7.848841e-001
-3.157728e-001 -7.822182e-001 -9.499753e-002 6.564468e-002 1.414896e-001 -6.789585e-002 1.098662e-001 -5.030763e-002
-9.525231e-002 6.482033e-002 -3.173544e-001 -7.809113e-001 1.098217e-001 -5.057540e-002 1.437438e-001 -7.211175e-002
109950000 9.478800e-002 2.617745e-002 8.302780e-002 3.651685e-002 -6.513643e-001 5.257624e-001 1.022680e-001 9.646285e-002
8.338968e-002 3.796372e-002 9.428128e-002 2.831728e-002 1.028045e-001 9.738158e-002 -6.557288e-001 5.210259e-001
-6.497266e-001 5.277841e-001 1.036369e-001 9.544526e-002 8.837162e-002 3.336904e-002 8.057367e-002 4.258696e-002
1.030225e-001 9.659325e-002 -6.484606e-001 5.294840e-001 8.131877e-002 4.318546e-002 9.070616e-002 3.227351e-002
122443750 7.178665e-002 -9.194750e-002 4.289521e-002 -6.424143e-002 6.745615e-001 4.868691e-001 6.811776e-002 -1.231263e-001
4.325095e-002 -6.397960e-002 7.588625e-002 -9.419195e-002 6.856556e-002 -1.233869e-001 6.703571e-001 4.930135e-001
6.764115e-001 4.845070e-001 6.653569e-002 -1.240687e-001 8.076712e-002 -8.505584e-002 5.255628e-002 -5.504407e-002
6.773434e-002 -1.233524e-001 6.771893e-001 4.821443e-001 5.204360e-002 -5.501167e-002 8.354771e-002 -9.015556e-002
134937500 1.397419e-001 -1.513088e-002 1.302660e-001 -2.663600e-003 2.659929e-001 -7.670817e-001 -1.611779e-001 -2.778522e-002
1.314370e-001 -8.355088e-004 1.401658e-001 -1.389744e-002 -1.621093e-001 -2.879419e-002 2.734835e-001 -7.649493e-001
2.627139e-001 -7.680023e-001 -1.615834e-001 -2.559600e-002 1.383884e-001 -3.687935e-003 1.310865e-001 7.330075e-003
-1.619496e-001 -2.716839e-002 2.594761e-001 -7.690607e-001 1.320995e-001 7.414411e-003 1.414586e-001 -3.844423e-003
147431250 3.566804e-002 -3.581639e-002 2.157074e-002 -6.935732e-003 -8.149937e-001 -4.321371e-002 4.136314e-003 1.743898e-001
2.112443e-002 -5.813363e-003 3.573392e-002 -4.448193e-002 2.402280e-003 1.749462e-001 -8.145456e-001 -5.229119e-002
-8.155623e-001 -3.861438e-002 6.837992e-003 1.743767e-001 4.446342e-002 -3.606532e-002 3.078941e-002 -5.018434e-003
4.195520e-003 1.748067e-001 -8.153728e-001 -3.588721e-002 3.016204e-002 -4.175325e-003 4.621362e-002 -4.431801e-002
159925000 1.307951e-001 -7.439400e-002 1.205015e-001 -6.500976e-002 1.733081e-001 7.758179e-001 1.697705e-001 -6.577543e-002
1.223159e-001 -6.311530e-002 1.333720e-001 -7.242114e-002 1.714922e-001 -6.479984e-002 1.640310e-001 7.780171e-001
1.777574e-001 7.749818e-001 1.690989e-001 -6.890198e-002 1.348783e-001 -6.429776e-002 1.263262e-001 -5.334875e-002
1.699889e-001 -6.642443e-002 1.821301e-001 7.738243e-001 1.268983e-001 -5.344124e-002 1.370186e-001 -6.888933e-002
172418750 8.441917e-002 9.339297e-003 7.436549e-002 2.681484e-002 6.861926e-001 -3.910770e-001 -1.192136e-001 -1.702229e-001
7.409881e-002 3.000987e-002 8.444547e-002 -1.967992e-003 -1.175738e-001 -1.719347e-001 6.928362e-001 -3.812495e-001
6.836826e-001 -3.955892e-001 -1.226042e-001 -1.672209e-001 7.820549e-002 1.598314e-002 7.478743e-002 3.539504e-002
-1.197095e-001 -1.707572e-001 6.821902e-001 -3.994112e-001 7.499927e-002 3.679354e-002 6.979076e-002 1.170798e-002
184912500 7.620065e-002 -1.073607e-001 5.724061e-002 -8.862869e-002 -5.472919e-001 -5.573422e-001 -1.269297e-001 1.584973e-001
5.900618e-002 -8.792016e-002 7.397244e-002 -1.110487e-001 -1.295148e-001 1.567434e-001 -5.401296e-001 -5.651837e-001
-5.511522e-001 -5.537119e-001 -1.240573e-001 1.603399e-001 9.497791e-002 -9.428888e-002 7.717170e-002 -7.929405e-002
-1.268877e-001 1.588028e-001 -5.545334e-001 -5.502979e-001 7.722402e-002 -7.942457e-002 9.799511e-002 -9.401149e-002
197406250 1.307973e-001 -2.486999e-002 1.269011e-001 -6.026789e-003 -3.646205e-001 6.707985e-001 2.132245e-001 8.250374e-002
1.283763e-001 -2.091704e-003 1.322175e-001 -2.275967e-002 2.132062e-001 8.647496e-002 -3.744604e-001 6.659444e-001
-3.600236e-001 6.729366e-001 2.149797e-001 7.859125e-002 1.289963e-001 -8.346575e-003 1.300613e-001 7.295702e-003
2.139712e-001 8.266959e-002 -3.553751e-001 6.759896e-001 1.312442e-001 8.537225e-003 1.337986e-001 -9.937964e-003
209900000 2.974437e-002 -6.569739e-002 1.237298e-002 -4.178495e-002 7.487294e-001 1.729414e-001 3.467455e-002 -2.286021e-001
1.244933e-002 -4.129410e-002 3.502036e-002 -8.008052e-002 3.824465e-002 -2.289549e-001 7.456692e-001 1.849155e-001
7.495483e-001 1.672656e-001 2.979013e-002 -2.295994e-001 5.136200e-002 -6.804779e-002 3.678581e-002 -4.267535e-002
3.519609e-002 -2.287422e-001 7.501880e-001 1.642366e-001 3.614185e-002 -4.208943e-002 5.318327e-002 -8.350322e-002
222393750 1.297255e-001 -8.716976e-002 1.284152e-001 -6.699822e-002 -3.711006e-002 -7.421009e-001 -2.395000e-001 4.576960e-002
1.317763e-001 -6.329678e-002 1.246000e-001 -8.967949e-002 -2.411271e-001 4.195908e-002 -2.469948e-002 -7.442286e-001
-4.231614e-002 -7.415707e-001 -2.380892e-001 5.105470e-002 1.378864e-001 -6.937542e-002 1.419162e-001 -5.851855e-002
-2.400388e-001 4.568627e-002 -4.901235e-002 -7.425605e-001 1.434663e-001 -5.796263e-002 1.338629e-001 -6.952857e-002
234887500 5.410720e-002 -2.148197e-002 4.673348e-002 8.335713e-003 -7.029824e-001 2.499466e-001 1.058657e-001 2.402169e-001
4.599956e-002 1.109946e-002 5.100779e-002 -2.554659e-002 1.011587e-001 2.434949e-001 -7.081274e-001 2.383583e-001
-7.007049e-001 2.552766e-001 1.111053e-001 2.379585e-001 5.854757e-002 -2.572200e-002 5.423854e-002 3.840477e-003
1.052310e-001 2.409680e-001 -6.996256e-001 2.605118e-001 5.395165e-002 5.499711e-003 6.010850e-002 -3.103317e-002
247381250 6.968678e-002 -1.225520e-001 6.949915e-002 -1.049146e-001 4.135080e-001 6.020928e-001 1.957362e-001 -1.718896e-001
7.337205e-002 -1.035739e-001 7.718170e-002 -1.250114e-001 2.001511e-001 -1.689276e-001 4.032290e-001 6.096545e-001
4.183731e-001 5.990036e-001 1.922030e-001 -1.768865e-001 9.775968e-002 -1.035989e-001 9.585816e-002 -9.878449e-002
1.965020e-001 -1.717446e-001 4.229708e-001 5.955250e-001 9.690023e-002 -9.868206e-002 1.038100e-001 -1.125716e-001
259875000 1.023950e-001 -2.921381e-002 1.115746e-001 3.969471e-003 4.457088e-001 -5.625652e-001 -2.400609e-001 -1.550595e-001
1.123196e-001 9.184062e-003 9.593388e-002 -3.840629e-002 -2.377796e-001 -1.605240e-001 4.574805e-001 -5.555736e-001
4.412168e-001 -5.660988e-001 -2.437884e-001 -1.491142e-001 1.078013e-001 -3.404137e-002 1.141344e-001 4.091313e-003
-2.401587e-001 -1.564227e-001 4.383358e-001 -5.702628e-001 1.151262e-001 6.217907e-003 1.006036e-001 -3.988088e-002
272368750 1.992897e-002 -9.166729e-002 1.755703e-002 -7.924426e-002 -6.591784e-001 -2.852861e-001 -9.043436e-002 2.695266e-001
1.975169e-002 -7.941593e-002 2.024966e-002 -9.329279e-002 -9.656493e-002 2.682576e-001 -6.547957e-001 -2.972031e-001
-6.613867e-001 -2.801979e-001 -8.419943e-002 2.716306e-001 4.474967e-002 -9.832122e-002 4.611629e-002 -8.555721e-002
-9.168953e-002 2.694002e-001 -6.641500e-001 -2.748773e-001 4.615765e-002 -8.527731e-002 4.783774e-002 -1.009776e-001
284862500 1.188834e-001 -8.897409e-002 1.334936e-001 -6.107533e-002 -8.497699e-002 6.889498e-001 3.007435e-001 3.329441e-004
1.374262e-001 -5.587105e-002 1.175946e-001 -8.580252e-002 3.024006e-001 6.751700e-003 -9.780718e-002 6.886127e-001
-7.986348e-002 6.892035e-001 3.011925e-001 -6.997827e-003 1.234119e-001 -8.121271e-002 1.427094e-001 -5.752679e-002
3.015023e-001 1.698407e-003 -7.424780e-002 6.912451e-001 1.447322e-001 -5.588904e-002 1.238737e-001 -8.464503e-002
297356250 2.837972e-002 -4.454958e-002 2.275542e-002 -2.116256e-002 6.909362e-001 -1.111221e-001 -7.040665e-002 -3.043039e-001
2.247502e-002 -1.962102e-002 3.060803e-002 -4.664585e-002 -6.377351e-002 -3.067271e-001 6.937152e-001 -9.725735e-002
6.897829e-001 -1.161489e-001 -7.834955e-002 -3.023927e-001 3.786314e-002 -5.876632e-002 3.622082e-002 -3.487220e-002
-6.859518e-002 -3.049952e-001 6.894679e-001 -1.217839e-001 3.576658e-002 -3.377326e-002 3.763982e-002 -6.272684e-002
309850000 7.111996e-002 -1.398942e-001 8.966101e-002 -1.164602e-001 -2.779660e-001 -6.183266e-001 -2.681103e-001 1.618494e-001
9.544632e-002 -1.137668e-001 7.290239e-002 -1.363786e-001 -2.728934e-001 1.569205e-001 -2.660402e-001 -6.247353e-001
-2.823159e-001 -6.160498e-001 -2.641375e-001 1.690966e-001 9.648594e-002 -1.220436e-001 1.151365e-001 -1.144439e-001
-2.695225e-001 1.606844e-001 -2.879871e-001 -6.146416e-001 1.173909e-001 -1.139682e-001 9.597929e-002 -1.242581e-001
322343750 7.143742e-002 -3.406118e-002 8.227861e-002 -3.755114e-003 -5.058518e-001 4.442068e-001 2.413394e-001 2.335139e-001
8.233257e-002 1.199736e-003 7.430023e-002 -3.829825e-002 2.366063e-001 2.397440e-001 -5.156594e-001 4.341371e-001
-5.023336e-001 4.474987e-001 2.474240e-001 2.268467e-001 8.155892e-002 -5.244366e-002 8.117589e-002 -1.582301e-002
2.399779e-001 2.358959e-001 -4.998512e-001 4.516055e-001 8.140221e-002 -1.341031e-002 7.933348e-002 -5.144755e-002
334837500 1.070790e-002 -1.220544e-001 2.341670e-002 -1.095670e-001 5.521243e-001 3.730371e-001 1.576716e-001 -2.912989e-001
2.766900e-002 -1.098687e-001 1.279699e-002 -1.226854e-001 1.648667e-001 -2.882612e-001 5.453260e-001 3.843203e-001
5.544912e-001 3.691106e-001 1.503927e-001 -2.950600e-001 4.489393e-002 -1.289003e-001 5.406023e-002 -1.215554e-001
1.600482e-001 -2.904919e-001 5.578114e-001 3.655956e-001 5.547224e-002 -1.216136e-001 4.731998e-002 -1.296996e-001
347331250 1.104073e-001 -8.542524e-002 1.295379e-001 -5.185739e-002 1.912917e-001 -6.160929e-001 -3.443413e-001 -6.660379e-002
1.329516e-001 -4.581126e-002 1.045434e-001 -8.222057e-002 -3.446099e-001 -7.497751e-002 2.044092e-001 -6.136851e-001
1.872601e-001 -6.169102e-001 -3.465269e-001 -5.861732e-002 1.110891e-001 -9.172498e-002 1.286114e-001 -5.679585e-002
-3.445096e-001 -6.952163e-002 1.846079e-001 -6.197153e-001 1.303599e-001 -5.434956e-002 1.078012e-001 -9.766973e-002
359825000 -4.191201e-003 -7.521826e-002 4.646171e-003 -6.159945e-002 -6.511899e-001 -2.187125e-002 1.411596e-002 3.530140e-001
6.115451e-003 -6.172889e-002 4.983099e-003 -7.655028e-002 7.288331e-003 3.543898e-001 -6.515481e-001 -3.570130e-002
-6.512013e-001 -1.729645e-002 2.437366e-002 3.528250e-001 1.893315e-002 -9.570272e-002 1.602411e-002 -8.327541e-002
1.126653e-002 3.533713e-001 -6.521581e-001 -1.335934e-002 1.626796e-002 -8.326364e-002 1.110604e-002 -9.876518e-002
372318750 8.138794e-002 -1.449904e-001 1.039431e-001 -1.185495e-001 1.482686e-001 6.080325e-001 3.374880e-001 -1.267234e-001
1.102550e-001 -1.147751e-001 7.192218e-002 -1.395386e-001 3.410841e-001 -1.201269e-001 1.364072e-001 6.136079e-001
1.517134e-001 6.070660e-001 3.341105e-001 -1.352208e-001 9.155403e-002 -1.410534e-001 1.163121e-001 -1.175140e-001
3.392172e-001 -1.240442e-001 1.559092e-001 6.087806e-001 1.192334e-001 -1.163017e-001 8.083842e-002 -1.381067e-001
384812500 4.057424e-002 -4.943544e-002 4.316442e-002 -2.294647e-002 5.427747e-001 -3.180844e-001 -2.131226e-001 -3.109920e-001
4.331332e-002 -2.028142e-002 4.223851e-002 -4.965457e-002 -2.070470e-001 -3.156091e-001 5.504226e-001 -3.073467e-001
5.407823e-001 -3.210566e-001 -2.208277e-001 -3.048887e-001 3.889291e-002 -6.676062e-002 4.121516e-002 -3.840600e-002
-2.104307e-001 -3.131884e-001 5.398022e-001 -3.244977e-001 4.124677e-002 -3.688983e-002 3.471032e-002 -6.418612e-002
397306250 1.051219e-002 -1.547224e-001 4.294761e-002 -1.346969e-001 -4.342442e-001 -4.342187e-001 -2.345629e-001 2.896580e-001
4.894010e-002 -1.341096e-001 1.001488e-002 -1.474096e-001 -2.407885e-001 2.859264e-001 -4.268414e-001 -4.444660e-001
-4.366176e-001 -4.320759e-001 -2.268467e-001 2.959258e-001 3.513324e-002 -1.489939e-001 6.143725e-002 -1.482341e-001
-2.375159e-001 2.878359e-001 -4.406081e-001 -4.303216e-001 6.399080e-002 -1.484102e-001 2.810817e-002 -1.472459e-001
409800000 8.611366e-002 -8.013083e-002 9.702341e-002 -4.999384e-002 -2.802975e-001 5.316887e-001 3.643991e-001 1.531916e-001
9.953177e-002 -4.496664e-002 8.135064e-002 -8.163623e-002 3.618237e-001 1.603132e-001 -2.928046e-001 5.273261e-001
-2.775984e-001 5.328500e-001 3.675889e-001 1.436472e-001 8.112703e-002 -8.176957e-002 9.227987e-002 -5.162015e-002
3.633440e-001 1.570313e-001 -2.765026e-001 5.355956e-001 9.352790e-002 -4.931275e-002 7.425820e-002 -8.132742e-002
422293750 -2.671333e-002 -1.059095e-001 4.861386e-004 -9.857470e-002 5.858282e-001 1.352676e-001 5.771964e-002 -3.881323e-001
3.535894e-003 -9.951130e-002 -2.250146e-002 -1.009331e-001 6.364165e-002 -3.876679e-001 5.848888e-001 1.469303e-001
5.864755e-001 1.325666e-001 4.721551e-002 -3.891232e-001 -6.377750e-003 -1.157873e-001 7.268134e-003 -1.199685e-001
6.142382e-002 -3.879533e-001 5.886753e-001 1.299340e-001 8.161260e-003 -1.206690e-001 -1.234310e-002 -1.133739e-001
434787500 7.261536e-002 -1.471010e-001 9.725597e-002 -1.125459e-001 -3.194126e-002 -5.763680e-001 -3.988687e-001 6.594400e-002
1.025619e-001 -1.086927e-001 6.577787e-002 -1.446936e-001 -3.999923e-001 5.947394e-002 -2.012455e-002 -5.794396e-001
-3.427439e-002 -5.761179e-001 -3.960612e-001 7.563725e-002 7.785413e-002 -1.303292e-001 1.089496e-001 -1.064325e-001
-4.003007e-001 6.228923e-002 -3.619780e-002 -5.783878e-001 1.115229e-001 -1.048087e-001 7.263853e-002 -1.277306e-001
447281250 2.319717e-003 -5.468707e-002 1.434596e-002 -5.097428e-002 -5.479256e-001 1.927466e-001 1.642126e-001 3.820161e-001
1.497181e-002 -5.038672e-002 -3.447519e-004 -5.552248e-002 1.581988e-001 3.838608e-001 -5.535720e-001 1.820881e-001
-5.472457e-001 1.949299e-001 1.729145e-001 3.765208e-001 3.606278e-003 -7.047959e-002 1.142273e-002 -7.211686e-002
1.607430e-001 3.840612e-001 -5.481464e-001 1.967737e-001 1.139340e-002 -7.175031e-002 3.298676e-003 -7.283458e-002
459775000 1.451060e-002 -1.762892e-001 4.792951e-002 -1.498683e-001 3.137537e-001 4.650599e-001 3.131694e-001 -2.670213e-001
5.432173e-002 -1.488638e-001 8.116800e-003 -1.682847e-001 3.170526e-001 -2.625590e-001 3.062532e-001 4.738494e-001
3.154060e-001 4.640455e-001 3.057731e-001 -2.739183e-001 2.998077e-002 -1.612928e-001 6.598867e-002 -1.570757e-001
3.162293e-001 -2.645762e-001 3.184046e-001 4.653450e-001 6.887553e-002 -1.569068e-001 2.667794e-002 -1.601912e-001
472268750 5.753480e-002 -6.561231e-002 6.034911e-002 -5.157772e-002 3.467082e-001 -4.326343e-001 -3.581421e-001 -2.441860e-001
6.183682e-002 -4.847762e-002 4.821785e-002 -6.991550e-002 -3.532860e-001 -2.490175e-001 3.582157e-001 -4.269576e-001
3.454869e-001 -4.336253e-001 -3.621616e-001 -2.341786e-001 4.430986e-002 -7.251310e-002 5.249692e-002 -6.217397e-002
-3.560696e-001 -2.484912e-001 3.465663e-001 -4.359113e-001 5.314627e-002 -6.069030e-002 4.057253e-002 -7.520217e-002
484762500 -4.100788e-002 -1.396386e-001 -7.051574e-003 -1.307602e-001 -4.994251e-001 -2.268563e-001 -1.387779e-001 4.029430e-001
-2.329442e-003 -1.320720e-001 -4.862833e-002 -1.319047e-001 -1.441984e-001 3.994264e-001 -4.982226e-001 -2.378676e-001
-4.999458e-001 -2.257285e-001 -1.287165e-001 4.038036e-001 -2.901987e-002 -1.418067e-001 4.233045e-003 -1.500097e-001
-1.431678e-001 4.020805e-001 -5.036380e-001 -2.252649e-001 6.101184e-003 -1.508727e-001 -2.682711e-002 -1.354308e-001
497256250 6.905860e-002 -1.297268e-001 7.709152e-002 -1.021898e-001 -7.122106e-002 5.226186e-001 4.417338e-001 1.369549e-002
8.126301e-002 -9.854792e-002 5.657344e-002 -1.257388e-001 4.401459e-001 2.039536e-002 -8.261851e-002 5.251370e-001
-7.020733e-002 5.228285e-001 4.394932e-001 4.332811e-003 5.533486e-002 -1.143609e-001 7.741059e-002 -1.020300e-001
4.425721e-001 1.857853e-002 -7.043879e-002 5.266087e-001 7.928074e-002 -1.004101e-001 5.384660e-002 -1.177123e-001
509750000 -4.440783e-002 -7.382444e-002 -1.490997e-002 -7.485281e-002 5.278229e-001 -7.292725e-002 -9.234374e-002 -4.376672e-001
-1.325102e-002 -7.605803e-002 -4.302837e-002 -6.489698e-002 -8.634383e-002 -4.366494e-001 5.324529e-001 -6.418277e-002
5.275255e-001 -7.364408e-002 -1.012317e-001 -4.327255e-001 -3.490839e-002 -9.132529e-002 -1.508160e-002 -1.039228e-001
-8.802797e-002 -4.391129e-001 5.305026e-001 -7.600373e-002 -1.446278e-002 -1.043455e-001 -3.049458e-002 -8.401263e-002
522243750 2.835365e-002 -1.737678e-001 5.472907e-002 -1.500941e-001 -1.980359e-001 -4.683846e-001 -3.891098e-001 2.217668e-001
6.061223e-002 -1.485664e-001 2.106657e-002 -1.651013e-001 -3.906545e-001 2.153460e-001 -1.909326e-001 -4.762391e-001
-1.984977e-001 -4.681766e-001 -3.825157e-001 2.278031e-001 1.377292e-002 -1.651286e-001 4.812366e-002 -1.527103e-001
-3.921132e-001 2.180288e-001 -2.010599e-001 -4.718153e-001 5.061208e-002 -1.522600e-001 1.490032e-002 -1.655553e-001
