# Hz S  RI   R 50
10000000 1.899489e-001 -1.982477e-002 1.319127e-001 3.597680e-003 5.557349e-002 -9.199450e-001 -1.254872e-002 2.964439e-002
1.318309e-001 3.631874e-003 1.875298e-001 -2.014868e-002 -1.215342e-002 2.876571e-002 5.330163e-002 -9.216920e-001
5.576386e-002 -9.202381e-001 -1.212265e-002 2.877161e-002 1.881503e-001 -2.312605e-002 1.326851e-001 4.501820e-003
-1.253066e-002 2.983685e-002 5.271257e-002 -9.212795e-001 1.329074e-001 4.603088e-003 1.933615e-001 -2.091632e-002
22493750 2.615690e-002 3.386463e-002 2.036319e-002 3.188966e-002 -9.004543e-001 2.230089e-001 1.388183e-002 3.224455e-002
2.045007e-002 3.213695e-002 3.227041e-002 3.468914e-002 1.375776e-002 3.195502e-002 -9.009253e-001 2.300225e-001
-9.015227e-001 2.236187e-001 1.367099e-002 3.186920e-002 2.961044e-002 3.274740e-002 1.951969e-002 3.255761e-002
1.392355e-002 3.226362e-002 -8.989675e-001 2.308106e-001 1.934902e-002 3.238096e-002 2.757239e-002 3.632136e-002
34987500 1.280695e-001 -8.075349e-002 9.823794e-002 -5.332881e-002 4.426821e-001 7.818491e-001 1.950690e-002 -3.638317e-002
9.835059e-002 -5.327168e-002 1.257256e-001 -7.948924e-002 2.013570e-002 -3.565249e-002 4.510680e-001 7.789222e-001
4.434679e-001 7.826306e-001 2.011108e-002 -3.556793e-002 1.279601e-001 -7.904863e-002 9.969971e-002 -5.551282e-002
1.931857e-002 -3.644940e-002 4.524226e-001 7.762648e-001 9.981332e-002 -5.533674e-002 1.324785e-001 -8.341564e-002
47481250 1.093037e-001 6.137452e-002 8.850380e-002 5.303288e-002 6.043876e-001 -6.525322e-001 -6.391171e-002 -3.436571e-002
8.903404e-002 5.341727e-002 1.133204e-001 5.800733e-002 -6.310223e-002 -3.450443e-002 5.963534e-001 -6.615439e-001
6.046846e-001 -6.537755e-001 -6.307200e-002 -3.417773e-002 1.116831e-001 5.730268e-002 8.916821e-002 5.459952e-002
-6.402565e-002 -3.437377e-002 5.928419e-001 -6.620604e-001 8.866855e-002 5.456953e-002 1.157439e-001 6.056852e-002
59975000 5.479541e-002 -7.152985e-002 3.828332e-002 -4.532578e-002 -7.840910e-001 -4.097233e-001 -1.996472e-002 6.614388e-002
3.820532e-002 -4.496054e-002 5.207308e-002 -6.542786e-002 -2.037460e-002 6.603667e-002 -7.925418e-001 -3.978915e-001
-7.851767e-001 -4.097576e-001 -2.000790e-002 6.600449e-002 5.354482e-002 -7.340407e-002 3.597005e-002 -4.883494e-002
-1.989635e-002 6.613517e-002 -7.932795e-001 -3.929049e-001 3.630907e-002 -4.898981e-002 5.162444e-002 -7.375333e-002
72468750 1.606181e-001 3.991926e-003 1.304670e-001 1.100028e-003 -1.602790e-001 8.463515e-001 9.525939e-002 -8.940572e-003
1.309205e-001 1.365821e-003 1.638214e-001 -9.021533e-004 9.469297e-002 -8.181153e-003 -1.442910e-001 8.493405e-001
-1.590030e-001 8.468157e-001 9.449504e-002 -8.784355e-003 1.621577e-001 -1.399137e-003 1.327344e-001 3.318069e-003
9.528508e-002 -8.986769e-003 -1.384254e-001 8.493528e-001 1.325138e-001 3.999482e-003 1.712743e-001 -2.166999e-003
84962500 3.402118e-002 -3.564562e-003 2.793812e-002 1.286093e-002 8.614014e-001 -8.247798e-002 -2.207095e-002 -1.048959e-001
2.780939e-002 1.384940e-002 3.563511e-002 -1.710103e-003 -2.156774e-002 -1.046026e-001 8.612168e-001 -1.011508e-001
8.623712e-001 -8.368518e-002 -2.262974e-002 -1.042308e-001 3.476429e-002 -5.519498e-003 2.566457e-002 1.201046e-002
-2.224321e-002 -1.049723e-001 8.585775e-001 -1.094767e-001 2.567157e-002 1.156389e-002 3.490311e-002 -5.657808e-003
97456250 1.425185e-001 -6.554361e-002 1.052911e-001 -5.615517e-002 -3.031423e-001 -7.869974e-001 -9.471774e-002 6.411702e-002
1.058684e-001 -5.565653e-002 1.365132e-001 -7.204520e-002 -9.490259e-002 6.265652e-002 -3.224600e-001 -7.809637e-001
-3.051872e-001 -7.872131e-001 -9.380870e-002 6.377915e-002 1.392121e-001 -7.694029e-002 1.094697e-001 -5.750331e-002
-9.474875e-002 6.436427e-002 -3.312296e-001 -7.759458e-001 1.097763e-001 -5.687300e-002 1.434396e-001 -7.931386e-002
109950000 9.109143e-002 3.414270e-002 8.101744e-002 3.813756e-002 -6.601470e-001 5.154649e-001 1.018785e-001 9.581619e-002
8.147024e-002 3.973038e-002 8.891485e-002 3.314083e-002 1.004575e-001 9.674553e-002 -6.466416e-001 5.355651e-001
-6.588855e-001 5.182457e-001 1.017727e-001 9.499338e-002 9.027278e-002 3.030904e-002 8.025922e-002 4.025390e-002
1.021110e-001 9.581290e-002 -6.383298e-001 5.427101e-001 7.960739e-002 4.007950e-002 9.500062e-002 2.672128e-002
122443750 8.484610e-002 -7.945244e-002 4.687018e-002 -5.843406e-002 6.659363e-001 4.985876e-001 6.754713e-002 -1.225602e-001
4.692203e-002 -5.801025e-002 7.630512e-002 -7.099302e-002 6.860977e-002 -1.219114e-001 6.835623e-001 4.784611e-001
6.678728e-001 4.966008e-001 6.626807e-002 -1.228003e-001 7.127153e-002 -9.655315e-002 4.862194e-002 -6.102695e-002
6.750565e-002 -1.226629e-001 6.897892e-001 4.669662e-001 4.957517e-002 -6.083872e-002 6.290051e-002 -9.552034e-002
134937500 1.415072e-001 -7.143102e-003 1.264144e-001 6.854269e-004 2.812853e-001 -7.613066e-001 -1.605116e-001 -2.597565e-002
1.275187e-001 2.470595e-003 1.477142e-001 -8.670955e-003 -1.594253e-001 -2.779149e-002 2.546494e-001 -7.717794e-001
2.783806e-001 -7.626827e-001 -1.596114e-001 -2.431751e-002 1.412867e-001 -5.656380e-003 1.336675e-001 2.642249e-004
-1.605891e-001 -2.587463e-002 2.402243e-001 -7.748205e-001 1.327182e-001 1.217281e-003 1.512393e-001 -7.344434e-003
147431250 4.407418e-002 -3.655057e-002 2.544442e-002 -6.614017e-003 -8.135189e-001 -6.157423e-002 4.372250e-003 1.724910e-001
2.501109e-002 -5.410875e-003 4.528203e-002 -2.958366e-002 2.893378e-003 1.717044e-001 -8.178107e-001 -3.095305e-002
-8.147040e-001 -5.792854e-002 7.172270e-003 1.714010e-001 3.725582e-002 -4.617160e-002 2.596845e-002 -1.134533e-002
4.550686e-003 1.726325e-001 -8.169241e-001 -1.351454e-002 2.654107e-002 -1.168119e-002 3.385925e-002 -4.247218e-002
159925000 1.386299e-001 -6.253529e-002 1.169157e-001 -5.594470e-002 1.540739e-001 7.796093e-001 1.666745e-001 -6.664895e-002
1.185333e-001 -5.413798e-002 1.396575e-001 -7.205032e-002 1.667444e-001 -6.368499e-002 1.851134e-001 7.737099e-001
1.579725e-001 7.793917e-001 1.646582e-001 -6.836951e-002 1.388110e-001 -7.342633e-002 1.226428e-001 -6.499690e-002
1.669078e-001 -6.678151e-002 2.031863e-001 7.681989e-001 1.228337e-001 -6.361161e-002 1.440991e-001 -7.988689e-002
172418750 7.388070e-002 1.018722e-002 6.998607e-002 3.011259e-002 6.990769e-001 -3.713664e-001 -1.166832e-001 -1.669353e-001
6.968849e-002 3.323098e-002 7.775148e-002 4.386509e-003 -1.130444e-001 -1.676797e-001 6.846136e-001 -4.031426e-001
6.972539e-001 -3.763182e-001 -1.184045e-001 -1.635445e-001 7.427432e-002 -9.928682e-004 6.863667e-002 2.649566e-002
-1.166019e-001 -1.671995e-001 6.722383e-001 -4.203803e-001 6.808723e-002 2.622064e-002 7.212614e-002 -1.076269e-003
184912500 9.521101e-002 -8.700047e-002 6.600971e-002 -7.620731e-002 -5.317125e-001 -5.739811e-001 -1.250527e-001 1.561809e-001
6.752560e-002 -7.531977e-002 8.592440e-002 -9.290860e-002 -1.275682e-001 1.526709e-001 -5.605854e-001 -5.491931e-001
-5.357583e-001 -5.710317e-001 -1.221247e-001 1.567390e-001 8.087691e-002 -1.113392e-001 6.240692e-002 -8.733606e-002
-1.252857e-001 1.563264e-001 -5.740968e-001 -5.330870e-001 6.366392e-002 -8.628325e-002 7.801701e-002 -1.136877e-001
197406250 1.275630e-001 -1.131515e-002 1.229963e-001 4.952808e-003 -3.870051e-001 6.614469e-001 2.103416e-001 8.230791e-002
1.241737e-001 9.023585e-003 1.280673e-001 -1.782559e-002 2.072428e-001 8.616403e-002 -3.527926e-001 6.827620e-001
-3.827465e-001 6.642651e-001 2.100095e-001 7.841290e-002 1.226668e-001 -1.717171e-002 1.267101e-001 -2.251495e-004
2.102325e-001 8.274724e-002 -3.328759e-001 6.911759e-001 1.256472e-001 6.697543e-004 1.251271e-001 -2.209493e-002
209900000 5.150646e-002 -6.395126e-002 3.018578e-002 -3.946076e-002 7.443467e-001 1.987661e-001 3.449321e-002 -2.261698e-001
3.029701e-002 -3.846797e-002 4.556383e-002 -5.986237e-002 3.916586e-002 -2.244552e-001 7.564450e-001 1.556638e-001
7.458951e-001 1.939439e-001 3.069265e-002 -2.254733e-001 3.248646e-002 -7.782572e-002 1.869714e-002 -4.654374e-002
3.505476e-002 -2.260874e-001 7.593087e-001 1.344877e-001 2.016368e-002 -4.652217e-002 3.026973e-002 -7.464004e-002
222393750 1.352332e-001 -6.303826e-002 1.305547e-001 -5.636766e-002 -1.171028e-002 -7.466763e-001 -2.372483e-001 4.507421e-002
1.335896e-001 -5.262741e-002 1.335431e-001 -7.281537e-002 -2.368109e-001 3.906153e-002 -5.604409e-002 -7.457176e-001
-1.688362e-002 -7.467269e-001 -2.345415e-001 4.893867e-002 1.315177e-001 -7.939282e-002 1.315298e-001 -6.596803e-002
-2.373376e-001 4.453754e-002 -7.990451e-002 -7.425771e-001 1.314118e-001 -6.395783e-002 1.317526e-001 -8.709847e-002
234887500 6.498415e-002 -2.221384e-002 5.150773e-002 5.920752e-003 -7.152036e-001 2.242313e-001 1.038972e-001 2.380254e-001
5.079998e-002 8.995621e-003 6.709746e-002 -2.055322e-002 9.777583e-002 2.391106e-001 -7.006025e-001 2.705666e-001
-7.140442e-001 2.297555e-001 1.078613e-001 2.342727e-001 4.307041e-002 -2.587873e-002 4.510178e-002 7.317582e-003
1.031823e-001 2.383980e-001 -6.901672e-001 2.923417e-001 4.518060e-002 6.816962e-003 4.492649e-002 -2.381243e-002
247381250 9.635904e-002 -1.002734e-001 8.577759e-002 -9.210326e-002 3.926980e-001 6.203574e-001 1.947680e-001 -1.705196e-001
8.944583e-002 -9.007384e-002 8.591519e-002 -1.106354e-001 1.979505e-001 -1.642961e-001 4.341815e-001 5.930894e-001
3.971634e-001 6.179780e-001 1.901256e-001 -1.726998e-001 8.426907e-002 -1.178152e-001 7.970985e-002 -1.082161e-001
1.955845e-001 -1.699133e-001 4.532979e-001 5.776008e-001 8.104364e-002 -1.063841e-001 8.103964e-002 -1.210476e-001
259875000 1.047860e-001 -2.469440e-002 1.107591e-001 1.397748e-003 4.722378e-001 -5.477789e-001 -2.381791e-001 -1.540068e-001
1.114901e-001 6.606652e-003 1.139029e-001 -2.917305e-002 -2.329016e-001 -1.592338e-001 4.306046e-001 -5.807014e-001
4.682044e-001 -5.515796e-001 -2.397667e-001 -1.480591e-001 9.612088e-002 -2.745543e-002 1.068213e-001 3.112957e-003
-2.376332e-001 -1.553010e-001 4.104415e-001 -5.940462e-001 1.061080e-001 3.694345e-003 1.038186e-001 -2.815975e-002
272368750 5.288790e-002 -8.690849e-002 3.444389e-002 -7.537514e-002 -6.499659e-001 -3.142686e-001 -8.885593e-002 2.675163e-001
3.648853e-002 -7.489110e-002 3.900355e-002 -9.026675e-002 -9.657883e-002 2.630913e-001 -6.726822e-001 -2.637429e-001
-6.524387e-001 -3.098635e-001 -8.415287e-002 2.669544e-001 2.544941e-002 -1.052766e-001 2.288122e-002 -8.403285e-002
-9.035262e-002 2.672203e-001 -6.803706e-001 -2.406592e-001 2.481922e-002 -8.355137e-002 2.721741e-002 -1.038873e-001
284862500 1.237991e-001 -6.972007e-002 1.355281e-001 -5.082862e-002 -1.156320e-001 6.906613e-001 2.992029e-001 8.566953e-004
1.391182e-001 -4.542906e-002 1.268233e-001 -8.164359e-002 2.973214e-001 9.335283e-003 -5.939018e-002 6.971034e-001
-1.109359e-001 6.915228e-001 2.969518e-001 -4.831670e-003 1.138901e-001 -7.995875e-002 1.342745e-001 -6.118983e-002
2.993452e-001 2.726659e-003 -3.557829e-002 6.978255e-001 1.339476e-001 -5.926591e-002 1.190263e-001 -8.863091e-002
297356250 5.086849e-002 -4.930290e-002 4.002091e-002 -2.743478e-002 6.991451e-001 -7.935252e-002 -7.145327e-002 -3.018141e-001
4.009070e-002 -2.510167e-002 4.609602e-002 -4.132630e-002 -6.166123e-002 -3.030156e-001 6.896673e-001 -1.389081e-001
6.988285e-001 -8.413352e-002 -7.640592e-002 -2.992067e-001 1.729462e-002 -5.097227e-002 1.975862e-002 -2.644304e-002
-6.966931e-002 -3.024200e-001 6.832842e-001 -1.630112e-001 2.096681e-002 -2.660620e-002 2.602928e-002 -4.682690e-002
309850000 9.620043e-002 -1.124041e-001 1.004427e-001 -1.084352e-001 -2.512180e-001 -6.360968e-001 -2.664695e-001 1.616024e-001
1.058013e-001 -1.051561e-001 9.177256e-002 -1.263549e-001 -2.701522e-001 1.527881e-001 -3.055242e-001 -6.103103e-001
-2.553445e-001 -6.345072e-001 -2.619057e-001 1.657849e-001 8.486658e-002 -1.277600e-001 9.612044e-002 -1.154774e-001
-2.678363e-001 1.599711e-001 -3.266693e-001 -5.984968e-001 9.733830e-002 -1.134709e-001 8.467922e-002 -1.385245e-001
322343750 8.683087e-002 -3.718854e-002 8.693546e-002 -8.372947e-003 -5.311172e-001 4.204688e-001 2.413463e-001 2.304911e-001
8.731881e-002 -3.295258e-003 9.462418e-002 -4.128078e-002 2.332630e-001 2.365310e-001 -4.880965e-001 4.679692e-001
-5.284709e-001 4.240408e-001 2.443897e-001 2.243240e-001 6.626120e-002 -3.885580e-002 7.929692e-002 -7.149365e-003
2.394845e-001 2.324109e-001 -4.706691e-001 4.839385e-001 7.934343e-002 -6.973710e-003 7.294233e-002 -4.029575e-002
334837500 5.197084e-002 -1.121340e-001 4.807186e-002 -1.093501e-001 5.364512e-001 4.037708e-001 1.551275e-001 -2.904877e-001
5.235330e-002 -1.086038e-001 3.473065e-002 -1.220260e-001 1.636967e-001 -2.833354e-001 5.724628e-001 3.489257e-001
5.387765e-001 4.006194e-001 1.493896e-001 -2.906266e-001 2.098608e-002 -1.316282e-001 3.031005e-002 -1.206898e-001
1.575337e-001 -2.892893e-001 5.835145e-001 3.288622e-001 3.268349e-002 -1.193050e-001 1.928034e-002 -1.313100e-001
347331250 1.180503e-001 -7.510817e-002 1.260971e-001 -5.333507e-002 2.275700e-001 -6.116679e-001 -3.420553e-001 -6.547050e-002
1.293687e-001 -4.750481e-002 1.196547e-001 -8.701810e-002 -3.388110e-001 -7.522745e-002 1.623205e-001 -6.299700e-001
2.240663e-001 -6.128437e-001 -3.416870e-001 -5.920990e-002 1.023070e-001 -7.590859e-002 1.207008e-001 -5.528925e-002
-3.415775e-001 -6.825880e-002 1.417087e-001 -6.342505e-001 1.206714e-001 -5.396502e-002 1.047972e-001 -8.825618e-002
359825000 3.564793e-002 -8.415667e-002 2.461389e-002 -6.856231e-002 -6.538308e-001 -5.862987e-002 1.756165e-002 3.509062e-001
2.635876e-002 -6.770758e-002 2.323249e-002 -7.794656e-002 5.726383e-003 3.503185e-001 -6.554088e-001 1.255309e-002
-6.543625e-001 -5.499511e-002 2.270416e-002 3.490952e-001 -7.325500e-003 -8.745768e-002 -3.448011e-003 -6.727214e-002
1.476365e-002 3.510478e-001 -6.540434e-001 3.491002e-002 -1.427657e-003 -6.724652e-002 -6.051971e-003 -8.040737e-002
372318750 9.958266e-002 -1.256877e-001 1.101613e-001 -1.133132e-001 1.145064e-001 6.240780e-001 3.346638e-001 -1.272392e-001
1.161107e-001 -1.092157e-001 9.315234e-002 -1.386048e-001 3.378045e-001 -1.165829e-001 1.835781e-001 6.045860e-001
1.175662e-001 6.233501e-001 3.313794e-001 -1.322510e-001 8.425536e-002 -1.315254e-001 1.025693e-001 -1.170348e-001
3.360185e-001 -1.240472e-001 2.027016e-001 5.982177e-001 1.037178e-001 -1.150702e-001 7.789530e-002 -1.451296e-001
384812500 6.290118e-002 -6.075855e-002 5.253812e-002 -3.337702e-002 5.656298e-001 -2.875543e-001 -2.149824e-001 -3.072317e-001
5.322696e-002 -3.036661e-002 6.271579e-002 -5.614767e-002 -2.050518e-001 -3.133140e-001 5.252718e-001 -3.522134e-001
5.643727e-001 -2.902567e-001 -2.191151e-001 -3.031384e-001 2.253945e-002 -4.880984e-002 3.772195e-002 -2.098581e-002
-2.123136e-001 -3.092705e-001 5.133131e-001 -3.683300e-001 3.860035e-002 -2.133262e-002 2.993090e-002 -4.763383e-002
397306250 4.941038e-002 -1.425726e-001 5.957354e-002 -1.337414e-001 -4.119755e-001 -4.658333e-001 -2.305222e-001 2.894988e-001
6.547076e-002 -1.322516e-001 3.503418e-002 -1.510440e-001 -2.392210e-001 2.816204e-001 -4.639840e-001 -4.103702e-001
-4.138687e-001 -4.642029e-001 -2.254044e-001 2.922109e-001 2.256125e-002 -1.470207e-001 3.985145e-002 -1.431297e-001
-2.335322e-001 2.874532e-001 -4.766012e-001 -3.951596e-001 4.198228e-002 -1.416788e-001 9.265432e-003 -1.535647e-001
409800000 9.750741e-002 -8.380246e-002 9.867651e-002 -5.703810e-002 -3.190219e-001 5.181234e-001 3.626843e-001 1.482605e-001
1.015138e-001 -5.202356e-002 9.898202e-002 -8.952131e-002 3.578400e-001 1.593903e-001 -2.474809e-001 5.525941e-001
-3.167811e-001 5.194621e-001 3.641695e-001 1.428296e-001 7.383454e-002 -6.128135e-002 9.326656e-002 -4.356399e-002
3.614213e-001 1.517973e-001 -2.306954e-001 5.591600e-001 9.362905e-002 -4.288625e-002 7.723104e-002 -7.526720e-002
422293750 1.072503e-002 -1.172132e-001 1.388590e-002 -1.069020e-001 5.827076e-001 1.767389e-001 5.366253e-002 -3.847901e-001
1.718342e-002 -1.072935e-001 -3.815027e-004 -1.117605e-001 6.438144e-002 -3.830335e-001 5.990261e-001 9.611718e-002
5.833834e-001 1.747351e-001 4.777723e-002 -3.849449e-001 -1.932359e-002 -1.133129e-001 -1.163496e-002 -1.052070e-001
5.733819e-002 -3.846272e-001 6.012542e-001 7.866002e-002 -9.540133e-003 -1.047831e-001 -3.448031e-002 -1.089901e-001
434787500 8.846609e-002 -1.325620e-001 1.050033e-001 -1.071765e-001 8.143357e-003 -5.864502e-001 -3.953663e-001 6.820368e-002
1.100732e-001 -1.030362e-001 8.482519e-002 -1.457689e-001 -3.965081e-001 5.757186e-002 -7.375255e-002 -5.779147e-001
6.241513e-003 -5.864676e-001 -3.933173e-001 7.389601e-002 7.273464e-002 -1.215200e-001 9.973611e-002 -1.073230e-001
-3.962801e-001 6.438040e-002 -8.964808e-002 -5.754658e-001 1.004243e-001 -1.059914e-001 6.438163e-002 -1.366850e-001
447281250 2.409808e-002 -7.902434e-002 2.346810e-002 -6.599323e-002 -5.693369e-001 1.543107e-001 1.652035e-001 3.769625e-001
2.488192e-002 -6.502146e-002 2.090840e-002 -6.840243e-002 1.549417e-001 3.808971e-001 -5.376756e-001 2.355701e-001
-5.689924e-001 1.560491e-001 1.699305e-001 3.739012e-001 -1.368331e-002 -5.911035e-002 -3.144937e-004 -4.835230e-002
1.618857e-001 3.786538e-001 -5.307201e-001 2.499400e-001 1.181965e-003 -4.858537e-002 -1.259877e-002 -5.257491e-002
459775000 4.802425e-002 -1.609838e-001 6.310967e-002 -1.470828e-001 2.846308e-001 4.953047e-001 3.094375e-001 -2.679031e-001
6.948527e-002 -1.455912e-001 3.315512e-002 -1.716006e-001 3.156768e-001 -2.594550e-001 3.532966e-001 4.440839e-001
2.858972e-001 4.946302e-001 3.046651e-001 -2.714316e-001 2.413069e-002 -1.559107e-001 4.598788e-002 -1.502711e-001
3.123661e-001 -2.650395e-001 3.647708e-001 4.344614e-001 4.741745e-002 -1.490540e-001 7.023565e-003 -1.651981e-001
472268750 6.466524e-002 -8.792853e-002 6.390075e-002 -6.253403e-002 3.864169e-001 -4.122595e-001 -3.568217e-001 -2.396121e-001
6.595222e-002 -5.930777e-002 6.841471e-002 -8.371374e-002 -3.504392e-001 -2.493902e-001 3.138870e-001 -4.651029e-001
3.856216e-001 -4.132609e-001 -3.595683e-001 -2.348983e-001 3.451013e-002 -5.160909e-002 5.792679e-002 -3.760733e-002
-3.543909e-001 -2.435893e-001 3.011260e-001 -4.729732e-001 5.847316e-002 -3.751675e-002 4.466386e-002 -5.806580e-002
484762500 -4.806360e-003 -1.488818e-001 1.332162e-002 -1.400008e-001 -4.898444e-001 -2.691100e-001 -1.349232e-001 4.010470e-001
1.837942e-002 -1.406129e-001 -2.070374e-002 -1.456875e-001 -1.447255e-001 3.977270e-001 -5.243869e-001 -1.852976e-001
-4.904370e-001 -2.684197e-001 -1.293493e-001 4.022537e-001 -3.320910e-002 -1.335551e-001 -1.433477e-002 -1.350836e-001
-1.394209e-001 3.999059e-001 -5.287489e-001 -1.718645e-001 -1.246482e-002 -1.346898e-001 -5.296478e-002 -1.291030e-001
497256250 7.293020e-002 -1.293088e-001 8.470405e-002 -1.080260e-001 -1.133603e-001 5.269559e-001 4.409373e-001 1.071312e-002
8.910154e-002 -1.044774e-001 7.702544e-002 -1.392630e-001 4.406723e-001 2.090466e-002 -2.196820e-002 5.337016e-001
-1.129097e-001 5.274213e-001 4.404587e-001 4.948170e-003 6.165941e-002 -1.014202e-001 8.546300e-002 -9.240365e-002
4.409928e-001 1.566301e-002 -9.263616e-003 5.337891e-001 8.620320e-002 -9.170634e-002 6.302167e-002 -1.176838e-001
509750000 -1.609778e-002 -1.036459e-001 -7.470803e-003 -9.844853e-002 5.420705e-001 -2.968514e-002 -9.551369e-002 -4.332444e-001
-5.106417e-003 -9.916679e-002 -1.901826e-002 -9.347684e-002 -8.653025e-002 -4.352849e-001 5.257480e-001 -1.243345e-001
5.422659e-001 -3.029854e-002 -1.012407e-001 -4.314643e-001 -4.646780e-002 -8.231667e-002 -2.801873e-002 -7.495831e-002
-9.102818e-002 -4.344899e-001 5.226193e-001 -1.363351e-001 -2.659234e-002 -7.503588e-002 -5.670027e-002 -6.608005e-002
522243750 4.170937e-002 -1.734189e-001 6.114404e-002 -1.480253e-001 -1.632601e-001 -4.924981e-001 -3.865563e-001 2.252080e-001
6.700049e-002 -1.462287e-001 2.300468e-002 -1.857951e-001 -3.903581e-001 2.160422e-001 -2.478989e-001 -4.516303e-001
-1.636642e-001 -4.926096e-001 -3.824025e-001 2.287199e-001 2.220133e-002 -1.548370e-001 5.436290e-002 -1.511061e-001
-3.893856e-001 2.210873e-001 -2.576441e-001 -4.460306e-001 5.564626e-002 -1.503392e-001 4.582478e-003 -1.578055e-001
